(000.000000)  vcan0  1FFFFFFF   [8]  00 00 00 00 00 00 00 00
(000.002374)  vcan0  00000309   [8]  00 A4 00 00 00 00 00 00
(000.002618)  vcan0  000001A4   [8]  00 67 00 00 00 00 00 00
(000.002836)  vcan0  00000326   [8]  00 00 00 00 00 00 00 00
(000.003057)  vcan0  0000017C   [8]  4B 00 00 00 00 00 00 00
(000.003270)  vcan0  0000018F   [8]  00 00 B9 00 00 00 00 00
(000.003477)  vcan0  00000202   [8]  00 45 00 00 00 00 00 00
(000.003692)  vcan0  00000374   [8]  00 00 00 00 00 00 00 00
(000.003904)  vcan0  000001A3   [8]  00 00 00 00 00 00 00 00
(000.004115)  vcan0  0000014A   [8]  00 00 00 51 7C E3 C0 F0
(000.004326)  vcan0  0000037B   [8]  00 00 00 00 00 00 00 00
(000.004534)  vcan0  00000170   [8]  40 00 00 00 00 00 00 00
(000.145126)  vcan0  00000170   [8]  DE 00 00 00 00 00 00 00
(000.145376)  vcan0  0000017C   [8]  4B 00 00 00 00 00 00 00
(000.145590)  vcan0  0000014A   [8]  00 00 00 51 64 21 3A FE
(000.145803)  vcan0  00000309   [8]  00 C0 00 00 00 00 00 00
(000.148880)  vcan0  0000014A   [8]  00 00 00 51 57 BF D2 C4
(000.149103)  vcan0  0000017C   [8]  4B 00 00 00 00 00 00 00
(000.149314)  vcan0  00000309   [8]  00 DC 00 00 00 00 00 00
(000.149524)  vcan0  00000170   [8]  6B 00 00 00 00 00 00 00
(000.153508)  vcan0  00000309   [8]  00 F8 00 00 00 00 00 00
(000.153722)  vcan0  0000014A   [8]  00 00 00 51 4B 5E 6A 8A
(000.153940)  vcan0  0000017C   [8]  4B 00 00 00 00 00 00 00
(000.154149)  vcan0  00000170   [8]  D4 00 00 00 00 00 00 00
(000.159512)  vcan0  00000170   [8]  1C 00 00 00 00 00 00 00
(000.159728)  vcan0  00000309   [8]  01 14 00 00 00 00 00 00
(000.159945)  vcan0  0000017C   [8]  4B 00 00 00 00 00 00 00
(000.160155)  vcan0  0000014A   [8]  00 00 00 51 3E FD 02 50
(000.166197)  vcan0  00000170   [8]  E9 00 00 00 00 00 00 00
(000.166431)  vcan0  0000017C   [8]  4B 00 00 00 00 00 00 00
(000.166643)  vcan0  0000014A   [8]  00 00 00 51 32 9B 9A 16
(000.166853)  vcan0  00000309   [8]  01 31 00 00 00 00 00 00
(000.171570)  vcan0  0000017C   [8]  4B 00 00 00 00 00 00 00
(000.171795)  vcan0  00000170   [8]  24 00 00 00 00 00 00 00
(000.172025)  vcan0  0000014A   [8]  00 00 00 51 26 3A 31 DC
(000.172239)  vcan0  00000309   [8]  01 4D 00 00 00 00 00 00
(000.177219)  vcan0  0000014A   [8]  00 00 00 51 19 D8 C9 A2
(000.177448)  vcan0  0000017C   [8]  4B 00 00 00 00 00 00 00
(000.177660)  vcan0  00000309   [8]  01 69 00 00 00 00 00 00
(000.177869)  vcan0  00000170   [8]  A5 00 00 00 00 00 00 00
(000.183104)  vcan0  0000014A   [8]  00 00 00 51 0D 77 61 68
(000.183317)  vcan0  00000170   [8]  CC 00 00 00 00 00 00 00
(000.183529)  vcan0  00000309   [8]  01 85 00 00 00 00 00 00
(000.183748)  vcan0  0000017C   [8]  4B 00 00 00 00 00 00 00
(000.188997)  vcan0  0000014A   [8]  00 00 00 51 01 15 F9 2E
(000.189210)  vcan0  00000309   [8]  01 A2 00 00 00 00 00 00
(000.189419)  vcan0  00000170   [8]  F6 00 00 00 00 00 00 00
(000.189636)  vcan0  0000017C   [8]  4B 00 00 00 00 00 00 00
(000.195305)  vcan0  0000017C   [8]  4B 00 00 00 00 00 00 00
(000.195518)  vcan0  00000170   [8]  F8 00 00 00 00 00 00 00
(000.195732)  vcan0  0000014A   [8]  00 00 00 51 01 15 F9 2E
(000.195942)  vcan0  00000309   [8]  01 BE 00 00 00 00 00 00
(000.201076)  vcan0  0000014A   [8]  00 00 00 51 01 15 F9 2E
(000.201292)  vcan0  00000309   [8]  01 DA 00 00 00 00 00 00
(000.201511)  vcan0  0000017C   [8]  4B 00 00 00 00 00 00 00
(000.201721)  vcan0  00000170   [8]  2B 00 00 00 00 00 00 00
(000.207163)  vcan0  00000309   [8]  01 F6 00 00 00 00 00 00
(000.207379)  vcan0  0000014A   [8]  00 00 00 51 01 15 F9 2E
(000.207599)  vcan0  0000017C   [8]  4B 00 00 00 00 00 00 00
(000.207807)  vcan0  00000170   [8]  22 00 00 00 00 00 00 00
(000.213750)  vcan0  00000309   [8]  02 12 00 00 00 00 00 00
(000.213961)  vcan0  00000170   [8]  D8 00 00 00 00 00 00 00
(000.214172)  vcan0  0000014A   [8]  00 00 00 51 01 15 F9 2E
(000.214390)  vcan0  0000017C   [8]  4B 00 00 00 00 00 00 00
(000.219731)  vcan0  0000017C   [8]  4B 00 00 00 00 00 00 00
(000.219944)  vcan0  00000309   [8]  02 2F 00 00 00 00 00 00
(000.220153)  vcan0  00000170   [8]  9B 00 00 00 00 00 00 00
(000.220362)  vcan0  0000014A   [8]  00 00 00 51 01 15 F9 2E
(000.225437)  vcan0  0000014A   [8]  00 00 00 51 01 15 F9 2E
(000.225648)  vcan0  00000309   [8]  02 4B 00 00 00 00 00 00
(000.225856)  vcan0  00000170   [8]  DF 00 00 00 00 00 00 00
(000.226073)  vcan0  0000017C   [8]  4B 00 00 00 00 00 00 00
(000.231498)  vcan0  0000014A   [8]  00 00 00 51 01 15 F9 2E
(000.231708)  vcan0  00000170   [8]  43 00 00 00 00 00 00 00
(000.231918)  vcan0  00000309   [8]  02 67 00 00 00 00 00 00
(000.232134)  vcan0  0000017C   [8]  4B 00 00 00 00 00 00 00
(000.238763)  vcan0  0000014A   [8]  00 00 00 51 01 15 F9 2E
(000.238973)  vcan0  00000170   [8]  9C 00 00 00 00 00 00 00
(000.239193)  vcan0  0000017C   [8]  4B 00 00 00 00 00 00 00
(000.239403)  vcan0  00000309   [8]  02 83 00 00 00 00 00 00
(000.243674)  vcan0  00000170   [8]  57 00 00 00 00 00 00 00
(000.243899)  vcan0  00000309   [8]  02 A0 00 00 00 00 00 00
(000.244111)  vcan0  0000014A   [8]  00 00 00 51 01 15 F9 2E
(000.244330)  vcan0  0000017C   [8]  4B 00 00 00 00 00 00 00
(000.249329)  vcan0  0000014A   [8]  00 00 00 51 01 15 F9 2E
(000.249540)  vcan0  00000170   [8]  7B 00 00 00 00 00 00 00
(000.249761)  vcan0  0000017C   [8]  4B 00 00 00 00 00 00 00
(000.249971)  vcan0  00000309   [8]  02 BC 00 00 00 00 00 00
(000.255096)  vcan0  00000170   [8]  E9 00 00 00 00 00 00 00
(000.255314)  vcan0  0000014A   [8]  00 00 00 51 01 15 F9 2E
(000.255533)  vcan0  0000017C   [8]  4B 00 00 00 00 00 00 00
(000.255742)  vcan0  00000309   [8]  02 D8 00 00 00 00 00 00
(000.260903)  vcan0  0000017C   [8]  4B 00 00 00 00 00 00 00
(000.261116)  vcan0  00000309   [8]  02 F4 00 00 00 00 00 00
(000.261324)  vcan0  00000170   [8]  79 00 00 00 00 00 00 00
(000.261534)  vcan0  0000014A   [8]  00 00 00 51 01 15 F9 2E
(000.266848)  vcan0  00000309   [8]  03 11 00 00 00 00 00 00
(000.267068)  vcan0  00000170   [8]  EC 00 00 00 00 00 00 00
(000.267310)  vcan0  0000017C   [8]  4B 00 00 00 00 00 00 00
(000.267527)  vcan0  0000014A   [8]  00 00 00 51 01 15 F9 2E
(000.273024)  vcan0  00000309   [8]  03 2D 00 00 00 00 00 00
(000.273236)  vcan0  0000014A   [8]  00 00 00 51 01 15 F9 2E
(000.273445)  vcan0  00000170   [8]  6D 00 00 00 00 00 00 00
(000.273663)  vcan0  0000017C   [8]  4B 00 00 00 00 00 00 00
(000.278898)  vcan0  00000170   [8]  CF 00 00 00 00 00 00 00
(000.279114)  vcan0  00000309   [8]  03 49 00 00 00 00 00 00
(000.279325)  vcan0  0000014A   [8]  00 00 00 85 6F E6 57 48
(000.279542)  vcan0  0000017C   [8]  4B 00 00 00 00 00 00 00
(000.284830)  vcan0  00000309   [8]  03 65 00 00 00 00 00 00
(000.285053)  vcan0  0000017C   [8]  4B 00 00 00 00 00 00 00
(000.285268)  vcan0  00000170   [8]  9B 00 00 00 00 00 00 00
(000.285478)  vcan0  0000014A   [8]  00 00 00 62 39 96 3B 92
(000.291181)  vcan0  00000170   [8]  C3 00 00 00 00 00 00 00
(000.291400)  vcan0  0000014A   [8]  00 00 00 62 3F 39 7D DE
(000.291619)  vcan0  0000017C   [8]  4B 00 00 00 00 00 00 00
(000.291829)  vcan0  00000309   [8]  03 81 00 00 00 00 00 00
(000.297049)  vcan0  00000309   [8]  03 9E 00 00 00 00 00 00
(000.297263)  vcan0  00000170   [8]  67 00 00 00 00 00 00 00
(000.297482)  vcan0  0000017C   [8]  4B 00 00 00 00 00 00 00
(000.297691)  vcan0  0000014A   [8]  00 00 00 62 44 DC 9A E8
(000.303776)  vcan0  00000170   [8]  83 00 00 00 00 00 00 00
(000.304000)  vcan0  0000017C   [8]  4B 00 00 00 00 00 00 00
(000.304211)  vcan0  0000014A   [8]  00 00 00 62 4A 7F DD 32
(000.304419)  vcan0  00000309   [8]  03 BA 00 00 00 00 00 00
(000.309062)  vcan0  00000170   [8]  F4 00 00 00 00 00 00 00
(000.309289)  vcan0  0000017C   [8]  4B 00 00 00 00 00 00 00
(000.309501)  vcan0  00000309   [8]  03 D6 00 00 00 00 00 00
(000.309711)  vcan0  0000014A   [8]  00 00 00 62 50 22 FA 3C
(000.315403)  vcan0  00000309   [8]  03 F2 00 00 00 00 00 00
(000.315616)  vcan0  0000014A   [8]  00 00 00 62 55 C6 3C 86
(000.315833)  vcan0  0000017C   [8]  4B 00 00 00 00 00 00 00
(000.316041)  vcan0  00000170   [8]  E3 00 00 00 00 00 00 00
(000.321527)  vcan0  00000170   [8]  99 00 00 00 00 00 00 00
(000.321756)  vcan0  0000017C   [8]  4B 00 00 00 00 00 00 00
(000.321967)  vcan0  00000309   [8]  04 0F 00 00 00 00 00 00
(000.322177)  vcan0  0000014A   [8]  00 00 00 62 5B 69 59 90
(000.327493)  vcan0  0000017C   [8]  4B 00 00 00 00 00 00 00
(000.327709)  vcan0  00000170   [8]  99 00 00 00 00 00 00 00
(000.327923)  vcan0  0000014A   [8]  00 00 00 62 61 0C 9B DC
(000.328134)  vcan0  00000309   [8]  04 2B 00 00 00 00 00 00
(000.333819)  vcan0  00000170   [8]  74 00 00 00 00 00 00 00
(000.334041)  vcan0  00000309   [8]  04 47 00 00 00 00 00 00
(000.334265)  vcan0  0000017C   [8]  4B 00 00 00 00 00 00 00
(000.334475)  vcan0  0000014A   [8]  00 00 00 62 66 AF B8 E6
(000.339465)  vcan0  0000014A   [8]  00 00 00 62 66 AF B8 E6
(000.339691)  vcan0  0000017C   [8]  4B 00 00 00 00 00 00 00
(000.339903)  vcan0  00000309   [8]  04 63 00 00 00 00 00 00
(000.340112)  vcan0  00000170   [8]  5C 00 00 00 00 00 00 00
(000.345318)  vcan0  00000309   [8]  04 6A 00 00 00 00 00 00
(000.345530)  vcan0  00000170   [8]  DD 00 00 00 00 00 00 00
(000.345742)  vcan0  0000014A   [8]  00 00 00 62 66 AF B8 E6
(000.345961)  vcan0  0000017C   [8]  4B 00 00 00 00 00 00 00
(000.351049)  vcan0  00000170   [8]  5B 00 00 00 00 00 00 00
(000.351275)  vcan0  00000309   [8]  03 D6 00 00 00 00 00 00
(000.351497)  vcan0  0000017C   [8]  4B 00 00 00 00 00 00 00
(000.351708)  vcan0  0000014A   [8]  00 00 00 62 66 AF B8 E6
(000.357213)  vcan0  00000309   [8]  03 57 00 00 00 00 00 00
(000.357428)  vcan0  00000170   [8]  A2 00 00 00 00 00 00 00
(000.357650)  vcan0  0000017C   [8]  4B 00 00 00 00 00 00 00
(000.357861)  vcan0  0000014A   [8]  00 00 00 62 66 AF B8 E6
(000.363375)  vcan0  00000309   [8]  02 E6 00 00 00 00 00 00
(000.363590)  vcan0  0000014A   [8]  00 00 00 62 66 AF DE 26
(000.363799)  vcan0  00000170   [8]  6E 00 00 00 00 00 00 00
(000.364019)  vcan0  0000017C   [8]  4B 00 00 00 00 00 00 00
(000.369005)  vcan0  0000014A   [8]  00 00 00 62 66 AF DE 26
(000.369228)  vcan0  0000017C   [8]  4B 00 00 00 00 00 00 00
(000.369440)  vcan0  00000309   [8]  02 80 00 00 00 00 00 00
(000.369649)  vcan0  00000170   [8]  85 00 00 00 00 00 00 00
(000.375234)  vcan0  0000014A   [8]  00 00 00 62 66 AF DE 26
(000.375451)  vcan0  00000309   [8]  02 26 00 00 00 00 00 00
(000.375661)  vcan0  00000170   [8]  B5 00 00 00 00 00 00 00
(000.375881)  vcan0  0000017C   [8]  4B 00 00 00 00 00 00 00
(000.381342)  vcan0  00000202   [8]  00 80 00 00 00 00 00 00
(000.381576)  vcan0  0000017C   [8]  4B 00 00 00 00 00 00 00
(000.381785)  vcan0  00000170   [8]  99 00 00 00 00 00 00 00
(000.381997)  vcan0  0000014A   [8]  00 00 00 62 66 AF DE 26
(000.382206)  vcan0  00000309   [8]  01 D5 00 00 00 00 00 00
(000.387613)  vcan0  00000309   [8]  01 8D 00 00 00 00 00 00
(000.387837)  vcan0  00000170   [8]  61 00 00 00 00 00 00 00
(000.388077)  vcan0  0000017C   [8]  4B 00 00 00 00 00 00 00
(000.388308)  vcan0  0000014A   [8]  00 00 00 62 66 AF DE 26
(000.393017)  vcan0  00000170   [8]  21 00 00 00 00 00 00 00
(000.393239)  vcan0  00000309   [8]  01 4C 00 00 00 00 00 00
(000.393451)  vcan0  0000014A   [8]  00 00 00 62 66 AF DE 26
(000.393670)  vcan0  0000017C   [8]  4B 00 00 00 00 00 00 00
(000.399008)  vcan0  0000014A   [8]  00 00 00 62 66 AF DE 26
(000.399224)  vcan0  00000309   [8]  01 13 00 00 00 00 00 00
(000.399434)  vcan0  00000170   [8]  7B 00 00 00 00 00 00 00
(000.399653)  vcan0  0000017C   [8]  4B 00 00 00 00 00 00 00
(000.405131)  vcan0  00000170   [8]  62 00 00 00 00 00 00 00
(000.405375)  vcan0  00000309   [8]  00 E1 00 00 00 00 00 00
(000.405614)  vcan0  0000017C   [8]  4B 00 00 00 00 00 00 00
(000.405837)  vcan0  0000014A   [8]  00 00 00 62 66 AF DE 26
(000.411447)  vcan0  00000170   [8]  6F 00 00 00 00 00 00 00
(000.411688)  vcan0  0000014A   [8]  00 00 00 62 66 AF DE 26
(000.411929)  vcan0  0000017C   [8]  4B 00 00 00 00 00 00 00
(000.412152)  vcan0  00000309   [8]  00 B4 00 00 00 00 00 00
(000.417493)  vcan0  00000309   [8]  00 8D 00 00 00 00 00 00
(000.417722)  vcan0  0000014A   [8]  00 00 00 62 66 AF DE 26
(000.417939)  vcan0  00000170   [8]  6F 00 00 00 00 00 00 00
(000.418176)  vcan0  0000017C   [8]  4B 00 00 00 00 00 00 00
(000.423062)  vcan0  0000017C   [8]  4B 00 00 00 00 00 00 00
(000.423278)  vcan0  00000309   [8]  00 6A 00 00 00 00 00 00
(000.423554)  vcan0  00000170   [8]  B3 00 00 00 00 00 00 00
(000.423765)  vcan0  0000014A   [8]  00 00 00 62 66 AF DE 26
(000.429263)  vcan0  0000014A   [8]  00 00 00 62 66 AF DE 26
(000.429480)  vcan0  00000309   [8]  00 4C 00 00 00 00 00 00
(000.429689)  vcan0  00000170   [8]  CA 00 00 00 00 00 00 00
(000.429910)  vcan0  0000017C   [8]  4B 00 00 00 00 00 00 00
(000.435230)  vcan0  0000017C   [8]  4B 00 00 00 00 00 00 00
(000.435471)  vcan0  0000014A   [8]  00 00 00 62 66 AF DE 26
(000.435683)  vcan0  00000170   [8]  8C 00 00 00 00 00 00 00
(000.435895)  vcan0  00000309   [8]  00 31 00 00 00 00 00 00
(000.441105)  vcan0  00000309   [8]  00 1A 00 00 00 00 00 00
(000.441324)  vcan0  0000014A   [8]  00 00 00 62 66 AF DE 26
(000.441532)  vcan0  00000170   [8]  11 00 00 00 00 00 00 00
(000.441752)  vcan0  0000017C   [8]  4B 00 00 00 00 00 00 00
(000.447136)  vcan0  00000309   [8]  00 06 00 00 00 00 00 00
(000.447360)  vcan0  0000017C   [8]  4B 00 00 00 00 00 00 00
(000.447570)  vcan0  0000014A   [8]  00 00 00 62 66 AF DE 26
(000.447778)  vcan0  00000170   [8]  3B 00 00 00 00 00 00 00
(000.453230)  vcan0  00000170   [8]  E8 00 00 00 00 00 00 00
(000.453454)  vcan0  0000014A   [8]  00 00 00 62 66 AF DE 26
(000.453666)  vcan0  00000309   [8]  00 0B 00 00 00 00 00 00
(000.453886)  vcan0  0000017C   [8]  4B 00 00 00 00 00 00 00
(000.459273)  vcan0  0000017C   [8]  4B 00 00 00 00 00 00 00
(000.459485)  vcan0  00000170   [8]  9F 00 00 00 00 00 00 00
(000.459697)  vcan0  0000014A   [8]  00 00 00 62 66 AF DE 26
(000.459906)  vcan0  00000309   [8]  00 1A 00 00 00 00 00 00
(000.465151)  vcan0  0000017C   [8]  4B 00 00 00 00 00 00 00
(000.465368)  vcan0  0000014A   [8]  00 00 00 62 66 AF DE 26
(000.466318)  vcan0  00000309   [8]  00 27 00 00 00 00 00 00
(000.466530)  vcan0  00000170   [8]  D2 00 00 00 00 00 00 00
(000.471232)  vcan0  0000014A   [8]  00 00 00 62 66 AF DE 26
(000.471443)  vcan0  00000170   [8]  31 00 00 00 00 00 00 00
(000.471665)  vcan0  0000017C   [8]  4B 00 00 00 00 00 00 00
(000.471875)  vcan0  00000309   [8]  00 32 00 00 00 00 00 00
(000.476915)  vcan0  00000309   [8]  00 3B 00 00 00 00 00 00
(000.477140)  vcan0  0000017C   [8]  4B 00 00 00 00 00 00 00
(000.477352)  vcan0  0000014A   [8]  00 00 00 62 66 AF DE 26
(000.477560)  vcan0  00000170   [8]  9F 00 00 00 00 00 00 00
(000.483156)  vcan0  00000309   [8]  00 42 00 00 00 00 00 00
(000.483377)  vcan0  0000017C   [8]  4B 00 00 00 00 00 00 00
(000.483587)  vcan0  0000014A   [8]  00 00 00 62 66 AF DE 26
(000.483795)  vcan0  00000170   [8]  40 00 00 00 00 00 00 00
(000.488984)  vcan0  00000170   [8]  EB 00 00 00 00 00 00 00
(000.489211)  vcan0  00000309   [8]  00 48 00 00 00 00 00 00
(000.489424)  vcan0  0000014A   [8]  00 00 00 62 66 AF DE 26
(000.489644)  vcan0  0000017C   [8]  4B 00 00 00 00 00 00 00
(000.495041)  vcan0  0000017C   [8]  4B 00 00 00 00 00 00 00
(000.495254)  vcan0  00000170   [8]  2B 00 00 00 00 00 00 00
(000.495469)  vcan0  0000014A   [8]  00 00 00 62 66 AF DE 26
(000.495679)  vcan0  00000309   [8]  00 4D 00 00 00 00 00 00
(000.501590)  vcan0  00000170   [8]  54 00 00 00 00 00 00 00
(000.501822)  vcan0  0000017C   [8]  4B 00 00 00 00 00 00 00
(000.502033)  vcan0  0000014A   [8]  00 00 00 62 66 AF DE 26
(000.502242)  vcan0  00000309   [8]  00 51 00 00 00 00 00 00
(000.507488)  vcan0  00000170   [8]  C5 00 00 00 00 00 00 00
(000.507710)  vcan0  0000014A   [8]  00 00 00 62 66 AF DE 26
(000.507920)  vcan0  00000309   [8]  00 53 00 00 00 00 00 00
(000.508138)  vcan0  0000017C   [8]  4B 00 00 00 00 00 00 00
(000.513527)  vcan0  00000170   [8]  45 00 00 00 00 00 00 00
(000.513754)  vcan0  0000017C   [8]  4B 00 00 00 00 00 00 00
(000.513965)  vcan0  00000309   [8]  00 55 00 00 00 00 00 00
(000.514175)  vcan0  0000014A   [8]  00 00 00 62 66 AF DE 26
(000.519060)  vcan0  0000014A   [8]  00 00 00 62 66 AF DE 26
(000.519271)  vcan0  00000170   [8]  B9 00 00 00 00 00 00 00
(000.519492)  vcan0  0000017C   [8]  4B 00 00 00 00 00 00 00
(000.519702)  vcan0  00000309   [8]  00 57 00 00 00 00 00 00
(000.525172)  vcan0  00000170   [8]  E3 00 00 00 00 00 00 00
(000.525401)  vcan0  0000017C   [8]  4B 00 00 00 00 00 00 00
(000.525613)  vcan0  00000309   [8]  00 57 00 00 00 00 00 00
(000.525823)  vcan0  0000014A   [8]  00 00 00 62 66 B3 CB FA
(000.531762)  vcan0  0000014A   [8]  00 00 00 62 85 94 40 6A
(000.531976)  vcan0  00000309   [8]  00 75 00 00 00 00 00 00
(000.532184)  vcan0  00000170   [8]  DC 00 00 00 00 00 00 00
(000.532402)  vcan0  0000017C   [8]  4B 00 00 00 00 00 00 00
(000.537188)  vcan0  00000309   [8]  00 96 00 00 00 00 00 00
(000.537408)  vcan0  0000014A   [8]  00 00 00 62 8C 4D 03 FE
(000.537629)  vcan0  0000017C   [8]  4B 00 00 00 00 00 00 00
(000.537838)  vcan0  00000170   [8]  06 00 00 00 00 00 00 00
(000.543368)  vcan0  00000170   [8]  CD 00 00 00 00 00 00 00
(000.543589)  vcan0  00000309   [8]  00 D5 00 00 00 00 00 00
(000.543801)  vcan0  0000014A   [8]  00 00 00 62 B4 56 5D B6
(000.544020)  vcan0  0000017C   [8]  4B 00 00 00 00 00 00 00
(000.549300)  vcan0  0000014A   [8]  00 00 00 62 D9 8D 36 C2
(000.549525)  vcan0  0000017C   [8]  4B 00 00 00 00 00 00 00
(000.549736)  vcan0  00000309   [8]  01 05 00 00 00 00 00 00
(000.549945)  vcan0  00000170   [8]  78 00 00 00 00 00 00 00
(000.555648)  vcan0  0000017C   [8]  4B 00 00 00 00 00 00 00
(000.555881)  vcan0  00000309   [8]  01 2F 00 00 00 00 00 00
(000.556106)  vcan0  0000014A   [8]  00 00 00 62 F8 0A 6C B8
(000.556324)  vcan0  00000170   [8]  87 00 00 00 00 00 00 00
(000.562047)  vcan0  00000309   [8]  01 5F 00 00 00 00 00 00
(000.562332)  vcan0  00000170   [8]  A3 00 00 00 00 00 00 00
(000.562549)  vcan0  0000014A   [8]  00 00 00 63 25 63 81 90
(000.562770)  vcan0  0000017C   [8]  4B 00 00 00 00 00 00 00
(000.567338)  vcan0  0000017C   [8]  4B 00 00 00 00 00 00 00
(000.567555)  vcan0  00000309   [8]  01 84 00 00 00 00 00 00
(000.567765)  vcan0  00000170   [8]  26 00 00 00 00 00 00 00
(000.567977)  vcan0  0000014A   [8]  00 00 00 63 48 D6 84 5A
(000.573337)  vcan0  00000170   [8]  A5 00 00 00 00 00 00 00
(000.573580)  vcan0  0000017C   [8]  4B 00 00 00 00 00 00 00
(000.573792)  vcan0  00000309   [8]  01 B4 00 00 00 00 00 00
(000.574003)  vcan0  0000014A   [8]  00 00 00 63 81 BF BF BE
(000.579319)  vcan0  0000014A   [8]  00 00 00 63 AB D8 C0 7C
(000.579534)  vcan0  00000309   [8]  01 D4 00 00 00 00 00 00
(000.579829)  vcan0  0000017C   [8]  4B 00 00 00 00 00 00 00
(000.580038)  vcan0  00000170   [8]  ED 00 00 00 00 00 00 00
(000.585025)  vcan0  0000014A   [8]  00 00 00 63 DB DD C5 F8
(000.585242)  vcan0  00000309   [8]  01 FE 00 00 00 00 00 00
(000.585452)  vcan0  00000170   [8]  CE 00 00 00 00 00 00 00
(000.585672)  vcan0  0000017C   [8]  4B 00 00 00 00 00 00 00
(000.591052)  vcan0  00000170   [8]  BA 00 00 00 00 00 00 00
(000.591304)  vcan0  0000014A   [8]  00 00 00 64 09 20 BC 5E
(000.591521)  vcan0  00000309   [8]  02 1F 00 00 00 00 00 00
(000.591741)  vcan0  0000017C   [8]  4B 00 00 00 00 00 00 00
(000.596981)  vcan0  0000014A   [8]  00 00 00 64 50 ED 8D 0E
(000.597199)  vcan0  00000309   [8]  02 3E 00 00 00 00 00 00
(000.597410)  vcan0  00000170   [8]  B8 00 00 00 00 00 00 00
(000.597631)  vcan0  0000017C   [8]  4B 00 00 00 00 00 00 00
(000.603738)  vcan0  00000170   [8]  62 00 00 00 00 00 00 00
(000.603969)  vcan0  0000017C   [8]  4B 00 00 00 00 00 00 00
(000.604180)  vcan0  00000309   [8]  02 62 00 00 00 00 00 00
(000.604391)  vcan0  0000014A   [8]  00 00 00 64 88 F3 EB 2C
(000.609076)  vcan0  0000014A   [8]  00 00 00 64 BF 0A B8 88
(000.609307)  vcan0  00000309   [8]  02 84 00 00 00 00 00 00
(000.609524)  vcan0  00000170   [8]  B7 00 00 00 00 00 00 00
(000.609761)  vcan0  0000017C   [8]  4B 00 00 00 00 00 00 00
(000.615549)  vcan0  0000014A   [8]  00 00 00 64 F8 5B 8F FC
(000.615777)  vcan0  00000309   [8]  02 A0 00 00 00 00 00 00
(000.615994)  vcan0  00000170   [8]  94 00 00 00 00 00 00 00
(000.616229)  vcan0  0000017C   [8]  4B 00 00 00 00 00 00 00
(000.620969)  vcan0  00000309   [8]  02 BF 00 00 00 00 00 00
(000.621184)  vcan0  00000170   [8]  5C 00 00 00 00 00 00 00
(000.621407)  vcan0  0000017C   [8]  4B 00 00 00 00 00 00 00
(000.621619)  vcan0  0000014A   [8]  00 00 00 65 37 53 84 F2
(000.627070)  vcan0  00000170   [8]  20 00 00 00 00 00 00 00
(000.627300)  vcan0  0000017C   [8]  4B 00 00 00 00 00 00 00
(000.627510)  vcan0  00000202   [8]  00 87 00 00 00 00 00 00
(000.627723)  vcan0  0000014A   [8]  00 00 00 65 78 5F 0E C0
(000.627934)  vcan0  00000309   [8]  02 D8 00 00 00 00 00 00
(000.634037)  vcan0  000001A3   [8]  00 00 00 00 00 00 00 00
(000.634251)  vcan0  00000170   [8]  AB 00 00 00 00 00 00 00
(000.634473)  vcan0  0000017C   [8]  4B 00 00 00 00 00 00 00
(000.634684)  vcan0  0000014A   [8]  00 00 00 65 B1 B7 9C 9E
(000.634890)  vcan0  0000018F   [8]  00 00 BF 00 00 00 00 00
(000.635099)  vcan0  00000309   [8]  02 F4 00 00 00 00 00 00
(000.639926)  vcan0  0000014A   [8]  00 00 00 65 F6 23 18 EA
(000.640140)  vcan0  00000309   [8]  03 0C 00 00 00 00 00 00
(000.640349)  vcan0  00000170   [8]  51 00 00 00 00 00 00 00
(000.640567)  vcan0  0000017C   [8]  4B 00 00 00 00 00 00 00
(000.644974)  vcan0  0000017C   [8]  4B 00 00 00 00 00 00 00
(000.645207)  vcan0  00000309   [8]  03 25 00 00 00 00 00 00
(000.645428)  vcan0  00000170   [8]  F0 00 00 00 00 00 00 00
(000.645653)  vcan0  0000014A   [8]  00 00 00 66 30 85 A9 16
(000.651548)  vcan0  0000017C   [8]  4B 00 00 00 00 00 00 00
(000.651762)  vcan0  00000170   [8]  40 00 00 00 00 00 00 00
(000.651975)  vcan0  0000014A   [8]  00 00 00 66 76 AC 78 58
(000.652185)  vcan0  00000309   [8]  03 3B 00 00 00 00 00 00
(000.657704)  vcan0  00000170   [8]  18 00 00 00 00 00 00 00
(000.657921)  vcan0  0000014A   [8]  00 00 00 66 B0 DC 64 82
(000.658132)  vcan0  00000309   [8]  03 52 00 00 00 00 00 00
(000.658351)  vcan0  0000017C   [8]  4B 00 00 00 00 00 00 00
(000.664609)  vcan0  0000014A   [8]  00 00 00 66 F8 F3 7E CC
(000.664826)  vcan0  00000309   [8]  03 67 00 00 00 00 00 00
(000.665036)  vcan0  00000170   [8]  04 00 00 00 00 00 00 00
(000.665260)  vcan0  0000017C   [8]  4B 00 00 00 00 00 00 00
(000.669354)  vcan0  0000014A   [8]  00 00 00 67 36 EF 8E FA
(000.669571)  vcan0  00000309   [8]  03 7D 00 00 00 00 00 00
(000.669789)  vcan0  0000017C   [8]  4B 00 00 00 00 00 00 00
(000.669998)  vcan0  00000170   [8]  C1 00 00 00 00 00 00 00
(000.679797)  vcan0  00000170   [8]  A4 00 00 00 00 00 00 00
(000.680020)  vcan0  00000309   [8]  03 90 00 00 00 00 00 00
(000.680240)  vcan0  0000017C   [8]  4B 00 00 00 00 00 00 00
(000.680451)  vcan0  0000014A   [8]  00 00 00 67 7C FC C1 BA
(000.754630)  vcan0  0000017C   [8]  4B 00 00 00 00 00 00 00
(000.754862)  vcan0  0000014A   [8]  00 00 00 67 BA 01 00 36
(000.755074)  vcan0  00000309   [8]  03 A4 00 00 00 00 00 00
(000.755286)  vcan0  00000170   [8]  54 00 00 00 00 00 00 00
(000.758749)  vcan0  00000309   [8]  03 B7 00 00 00 00 00 00
(000.758960)  vcan0  00000170   [8]  2F 00 00 00 00 00 00 00
(000.759172)  vcan0  0000014A   [8]  00 00 00 68 04 B8 66 EA
(000.759391)  vcan0  0000017C   [8]  4B 00 00 00 00 00 00 00
(000.762901)  vcan0  00000170   [8]  73 00 00 00 00 00 00 00
(000.763130)  vcan0  0000017C   [8]  4B 00 00 00 00 00 00 00
(000.763340)  vcan0  00000309   [8]  03 CA 00 00 00 00 00 00
(000.763549)  vcan0  0000014A   [8]  00 00 00 68 41 3F 92 88
(000.768879)  vcan0  0000014A   [8]  00 00 00 68 87 F9 35 F8
(000.769094)  vcan0  00000309   [8]  03 DB 00 00 00 00 00 00
(000.769303)  vcan0  00000170   [8]  7C 00 00 00 00 00 00 00
(000.769521)  vcan0  0000017C   [8]  4B 00 00 00 00 00 00 00
(000.774870)  vcan0  0000017C   [8]  4B 00 00 00 00 00 00 00
(000.775081)  vcan0  00000170   [8]  F6 00 00 00 00 00 00 00
(000.775293)  vcan0  0000014A   [8]  00 00 00 68 C5 8E 51 B8
(000.775502)  vcan0  00000309   [8]  03 ED 00 00 00 00 00 00
(000.780554)  vcan0  00000170   [8]  32 00 00 00 00 00 00 00
(000.780778)  vcan0  0000017C   [8]  4B 00 00 00 00 00 00 00
(000.780989)  vcan0  00000309   [8]  03 FF 00 00 00 00 00 00
(000.781199)  vcan0  0000014A   [8]  00 00 00 69 0A D6 69 6A
(000.786826)  vcan0  0000017C   [8]  4B 00 00 00 00 00 00 00
(000.787038)  vcan0  0000014A   [8]  00 00 00 69 4A 41 C3 EC
(000.787247)  vcan0  00000309   [8]  04 10 00 00 00 00 00 00
(000.787455)  vcan0  00000170   [8]  B2 00 00 00 00 00 00 00
(000.792766)  vcan0  0000017C   [8]  4B 00 00 00 00 00 00 00
(000.793077)  vcan0  00000309   [8]  04 20 00 00 00 00 00 00
(000.793289)  vcan0  0000014A   [8]  00 00 00 69 8E 02 EB B2
(000.793501)  vcan0  00000170   [8]  8C 00 00 00 00 00 00 00
(000.798781)  vcan0  00000170   [8]  53 00 00 00 00 00 00 00
(000.799055)  vcan0  00000309   [8]  04 31 00 00 00 00 00 00
(000.799280)  vcan0  0000017C   [8]  4B 00 00 00 00 00 00 00
(000.799491)  vcan0  0000014A   [8]  00 00 00 69 CB 1D 23 5E
(000.804469)  vcan0  0000017C   [8]  4B 00 00 00 00 00 00 00
(000.804689)  vcan0  00000309   [8]  04 41 00 00 00 00 00 00
(000.804904)  vcan0  00000170   [8]  71 00 00 00 00 00 00 00
(000.805118)  vcan0  0000014A   [8]  00 00 00 6A 10 B6 6E 30
(000.811027)  vcan0  00000309   [8]  04 51 00 00 00 00 00 00
(000.811248)  vcan0  00000170   [8]  22 00 00 00 00 00 00 00
(000.811463)  vcan0  0000014A   [8]  00 00 00 6A 4F B6 89 4E
(000.811685)  vcan0  0000017C   [8]  4B 00 00 00 00 00 00 00
(000.817135)  vcan0  00000170   [8]  A6 00 00 00 00 00 00 00
(000.817361)  vcan0  0000014A   [8]  00 00 00 6A 91 C2 1D 98
(000.817573)  vcan0  00000309   [8]  04 60 00 00 00 00 00 00
(000.817792)  vcan0  0000017C   [8]  4B 00 00 00 00 00 00 00
(000.822770)  vcan0  0000017C   [8]  4B 00 00 00 00 00 00 00
(000.822982)  vcan0  00000170   [8]  EE 00 00 00 00 00 00 00
(000.823196)  vcan0  0000014A   [8]  00 00 00 6A CF 7F D2 E8
(000.823406)  vcan0  00000309   [8]  04 70 00 00 00 00 00 00
(000.828829)  vcan0  0000017C   [8]  4B 00 00 00 00 00 00 00
(000.829044)  vcan0  0000014A   [8]  00 00 00 6B 0F 4B 70 34
(000.829253)  vcan0  00000170   [8]  F8 00 00 00 00 00 00 00
(000.829464)  vcan0  00000309   [8]  04 7F 00 00 00 00 00 00
(000.834507)  vcan0  00000309   [8]  04 8E 00 00 00 00 00 00
(000.834718)  vcan0  00000170   [8]  8D 00 00 00 00 00 00 00
(000.834930)  vcan0  0000014A   [8]  00 00 00 6B 4F E0 03 C4
(000.835148)  vcan0  0000017C   [8]  4B 00 00 00 00 00 00 00
(000.840434)  vcan0  0000017C   [8]  4B 00 00 00 00 00 00 00
(000.840644)  vcan0  00000170   [8]  07 00 00 00 00 00 00 00
(000.840855)  vcan0  00000309   [8]  04 9D 00 00 00 00 00 00
(000.841066)  vcan0  0000014A   [8]  00 00 00 6B 8B 39 AB 5E
(000.846811)  vcan0  00000170   [8]  DE 00 00 00 00 00 00 00
(000.847032)  vcan0  0000014A   [8]  00 00 00 6B C9 31 00 D4
(000.847243)  vcan0  00000309   [8]  04 AC 00 00 00 00 00 00
(000.847462)  vcan0  0000017C   [8]  4B 00 00 00 00 00 00 00
(000.852518)  vcan0  0000017C   [8]  4B 00 00 00 00 00 00 00
(000.852730)  vcan0  00000309   [8]  04 BB 00 00 00 00 00 00
(000.852939)  vcan0  00000170   [8]  C6 00 00 00 00 00 00 00
(000.853149)  vcan0  0000014A   [8]  00 00 00 6C 07 05 69 98
(000.858492)  vcan0  0000014A   [8]  00 00 00 6C 42 53 22 74
(000.858706)  vcan0  00000170   [8]  97 00 00 00 00 00 00 00
(000.858919)  vcan0  00000309   [8]  04 C9 00 00 00 00 00 00
(000.859224)  vcan0  0000017C   [8]  4B 00 00 00 00 00 00 00
(000.864999)  vcan0  00000170   [8]  91 00 00 00 00 00 00 00
(000.865225)  vcan0  00000309   [8]  04 D8 00 00 00 00 00 00
(000.865438)  vcan0  0000014A   [8]  00 00 00 6C 80 50 81 E8
(000.865657)  vcan0  0000017C   [8]  4B 00 00 00 00 00 00 00
(000.870967)  vcan0  0000017C   [8]  4B 00 00 00 00 00 00 00
(000.871233)  vcan0  00000309   [8]  04 E6 00 00 00 00 00 00
(000.871444)  vcan0  0000014A   [8]  00 00 00 6C BA 3A 4A 2C
(000.871653)  vcan0  00000170   [8]  47 00 00 00 00 00 00 00
(000.877041)  vcan0  00000170   [8]  3B 00 00 00 00 00 00 00
(000.877273)  vcan0  0000017C   [8]  4B 00 00 00 00 00 00 00
(000.877485)  vcan0  0000014A   [8]  00 00 00 6C F8 7E 9A 6A
(000.877695)  vcan0  00000309   [8]  04 F4 00 00 00 00 00 00
(000.882687)  vcan0  00000309   [8]  05 02 00 00 00 00 00 00
(000.882910)  vcan0  0000017C   [8]  4B 00 00 00 00 00 00 00
(000.883119)  vcan0  00000170   [8]  B7 00 00 00 00 00 00 00
(000.883330)  vcan0  0000014A   [8]  00 00 00 6D 2F 5B 74 FA
(000.888555)  vcan0  00000170   [8]  71 00 00 00 00 00 00 00
(000.888781)  vcan0  0000014A   [8]  00 00 00 6D 65 AE 6E 68
(000.888993)  vcan0  00000309   [8]  05 10 00 00 00 00 00 00
(000.889212)  vcan0  0000017C   [8]  4B 00 00 00 00 00 00 00
(000.894629)  vcan0  0000014A   [8]  00 00 00 6D A0 A4 FC C8
(000.894841)  vcan0  00000170   [8]  B4 00 00 00 00 00 00 00
(000.895063)  vcan0  0000017C   [8]  4B 00 00 00 00 00 00 00
(000.895273)  vcan0  00000309   [8]  05 1E 00 00 00 00 00 00
(000.900476)  vcan0  00000170   [8]  41 00 00 00 00 00 00 00
(000.900699)  vcan0  0000014A   [8]  00 00 00 6D DB CB 58 BC
(000.900912)  vcan0  00000309   [8]  05 2C 00 00 00 00 00 00
(000.901131)  vcan0  0000017C   [8]  4B 00 00 00 00 00 00 00
(000.906442)  vcan0  00000170   [8]  CD 00 00 00 00 00 00 00
(000.906668)  vcan0  0000017C   [8]  4B 00 00 00 00 00 00 00
(000.906878)  vcan0  00000309   [8]  05 3A 00 00 00 00 00 00
(000.907087)  vcan0  0000014A   [8]  00 00 00 6E 0C BE C3 CA
(000.912411)  vcan0  0000017C   [8]  4B 00 00 00 00 00 00 00
(000.912625)  vcan0  00000309   [8]  05 48 00 00 00 00 00 00
(000.912835)  vcan0  0000014A   [8]  00 00 00 6E 45 CD A6 5E
(000.913044)  vcan0  00000170   [8]  2F 00 00 00 00 00 00 00
(000.918464)  vcan0  0000017C   [8]  4B 00 00 00 00 00 00 00
(000.918680)  vcan0  0000014A   [8]  00 00 00 6E 7D 30 F6 9C
(000.918890)  vcan0  00000170   [8]  E9 00 00 00 00 00 00 00
(000.919099)  vcan0  00000309   [8]  05 56 00 00 00 00 00 00
(000.924626)  vcan0  00000309   [8]  05 63 00 00 00 00 00 00
(000.924843)  vcan0  0000014A   [8]  00 00 00 6E B2 43 D4 F8
(000.925053)  vcan0  00000170   [8]  81 00 00 00 00 00 00 00
(000.925277)  vcan0  0000017C   [8]  4B 00 00 00 00 00 00 00
(000.930898)  vcan0  0000014A   [8]  00 00 00 6E E4 8A 90 7A
(000.931112)  vcan0  00000170   [8]  B5 00 00 00 00 00 00 00
(000.931335)  vcan0  0000017C   [8]  4B 00 00 00 00 00 00 00
(000.931546)  vcan0  00000309   [8]  05 71 00 00 00 00 00 00
(000.936901)  vcan0  0000014A   [8]  00 00 00 6F 17 E3 C8 48
(000.937127)  vcan0  0000017C   [8]  4B 00 00 00 00 00 00 00
(000.937338)  vcan0  00000309   [8]  05 7E 00 00 00 00 00 00
(000.937548)  vcan0  00000170   [8]  70 00 00 00 00 00 00 00
(000.943185)  vcan0  0000017C   [8]  4B 00 00 00 00 00 00 00
(000.943402)  vcan0  0000014A   [8]  00 00 00 6F 4A 95 DF 1E
(000.943612)  vcan0  00000202   [8]  00 7F 00 00 00 00 00 00
(000.943818)  vcan0  00000170   [8]  42 00 00 00 00 00 00 00
(000.944030)  vcan0  00000309   [8]  05 8C 00 00 00 00 00 00
(000.948674)  vcan0  0000014A   [8]  00 00 00 6F 7A A9 43 54
(000.948900)  vcan0  0000017C   [8]  4B 00 00 00 00 00 00 00
(000.949111)  vcan0  00000309   [8]  05 99 00 00 00 00 00 00
(000.949320)  vcan0  00000170   [8]  F3 00 00 00 00 00 00 00
(000.954800)  vcan0  0000017C   [8]  4B 00 00 00 00 00 00 00
(000.955015)  vcan0  0000014A   [8]  00 00 00 6F AD 5E C5 9C
(000.955226)  vcan0  00000309   [8]  05 A7 00 00 00 00 00 00
(000.955436)  vcan0  00000170   [8]  BF 00 00 00 00 00 00 00
(000.960727)  vcan0  0000014A   [8]  00 00 00 6F DC CF CC E4
(000.960939)  vcan0  00000170   [8]  DE 00 00 00 00 00 00 00
(000.961152)  vcan0  00000309   [8]  05 B4 00 00 00 00 00 00
(000.961371)  vcan0  0000017C   [8]  4B 00 00 00 00 00 00 00
(000.966583)  vcan0  0000017C   [8]  4B 00 00 00 00 00 00 00
(000.966797)  vcan0  00000170   [8]  E2 00 00 00 00 00 00 00
(000.967011)  vcan0  0000014A   [8]  00 00 00 70 0D 8F C7 0C
(000.967221)  vcan0  00000309   [8]  05 C2 00 00 00 00 00 00
(000.972594)  vcan0  0000014A   [8]  00 00 00 70 39 D6 97 7A
(000.972807)  vcan0  00000309   [8]  05 CF 00 00 00 00 00 00
(000.973017)  vcan0  00000170   [8]  A3 00 00 00 00 00 00 00
(000.973236)  vcan0  0000017C   [8]  4B 00 00 00 00 00 00 00
(000.978419)  vcan0  0000017C   [8]  4B 00 00 00 00 00 00 00
(000.978635)  vcan0  0000014A   [8]  00 00 00 70 6B 11 7F 06
(000.978846)  vcan0  00000309   [8]  05 DC 00 00 00 00 00 00
(000.979055)  vcan0  00000170   [8]  10 00 00 00 00 00 00 00
(000.984532)  vcan0  00000309   [8]  05 EA 00 00 00 00 00 00
(000.984746)  vcan0  0000014A   [8]  00 00 00 70 95 F2 C5 12
(000.984955)  vcan0  00000170   [8]  3F 00 00 00 00 00 00 00
(000.985173)  vcan0  0000017C   [8]  4B 00 00 00 00 00 00 00
(000.990510)  vcan0  00000170   [8]  DD 00 00 00 00 00 00 00
(000.990727)  vcan0  00000309   [8]  05 F7 00 00 00 00 00 00
(000.990938)  vcan0  0000014A   [8]  00 00 00 70 BF EA 03 24
(000.991155)  vcan0  0000017C   [8]  4B 00 00 00 00 00 00 00
(000.996577)  vcan0  0000014A   [8]  00 00 00 70 EE 93 2B 90
(000.996799)  vcan0  0000017C   [8]  4B 00 00 00 00 00 00 00
(000.997009)  vcan0  00000309   [8]  06 04 00 00 00 00 00 00
(000.997217)  vcan0  00000170   [8]  55 00 00 00 00 00 00 00
(001.002757)  vcan0  00000309   [8]  06 11 00 00 00 00 00 00
(001.002968)  vcan0  00000170   [8]  A9 00 00 00 00 00 00 00
(001.003189)  vcan0  0000017C   [8]  4B 00 00 00 00 00 00 00
(001.003399)  vcan0  0000014A   [8]  00 00 00 71 15 8C 53 B8
(001.008534)  vcan0  00000309   [8]  06 1E 00 00 00 00 00 00
(001.008748)  vcan0  0000014A   [8]  00 00 00 71 43 F6 BA D4
(001.008956)  vcan0  00000170   [8]  AA 00 00 00 00 00 00 00
(001.009174)  vcan0  0000017C   [8]  4B 00 00 00 00 00 00 00
(001.014415)  vcan0  00000170   [8]  F6 00 00 00 00 00 00 00
(001.014640)  vcan0  00000309   [8]  06 2B 00 00 00 00 00 00
(001.014859)  vcan0  0000017C   [8]  4B 00 00 00 00 00 00 00
(001.015069)  vcan0  0000014A   [8]  00 00 00 71 6B A0 2E E2
(001.020697)  vcan0  00000309   [8]  06 39 00 00 00 00 00 00
(001.020913)  vcan0  0000014A   [8]  00 00 00 71 95 1F A0 7E
(001.021123)  vcan0  00000170   [8]  15 00 00 00 00 00 00 00
(001.021342)  vcan0  0000017C   [8]  4B 00 00 00 00 00 00 00
(001.026782)  vcan0  0000014A   [8]  00 00 00 71 B9 E3 2F F0
(001.027007)  vcan0  0000017C   [8]  4B 00 00 00 00 00 00 00
(001.027218)  vcan0  00000309   [8]  06 46 00 00 00 00 00 00
(001.027427)  vcan0  00000170   [8]  01 00 00 00 00 00 00 00
(001.032740)  vcan0  0000017C   [8]  4B 00 00 00 00 00 00 00
(001.032954)  vcan0  0000014A   [8]  00 00 00 71 DF FE C1 3E
(001.033163)  vcan0  00000309   [8]  06 53 00 00 00 00 00 00
(001.033371)  vcan0  00000170   [8]  20 00 00 00 00 00 00 00
(001.038806)  vcan0  00000170   [8]  AC 00 00 00 00 00 00 00
(001.039031)  vcan0  00000309   [8]  06 60 00 00 00 00 00 00
(001.039244)  vcan0  0000014A   [8]  00 00 00 72 08 8D 6F EE
(001.039464)  vcan0  0000017C   [8]  4B 00 00 00 00 00 00 00
(001.044559)  vcan0  0000014A   [8]  00 00 00 72 2A 3D 60 08
(001.044784)  vcan0  0000017C   [8]  4B 00 00 00 00 00 00 00
(001.044993)  vcan0  00000170   [8]  43 00 00 00 00 00 00 00
(001.045204)  vcan0  00000309   [8]  06 6D 00 00 00 00 00 00
(001.050438)  vcan0  00000309   [8]  06 7A 00 00 00 00 00 00
(001.050659)  vcan0  0000017C   [8]  4B 00 00 00 00 00 00 00
(001.050872)  vcan0  0000014A   [8]  00 00 00 72 4F 0B 44 6E
(001.051080)  vcan0  00000170   [8]  45 00 00 00 00 00 00 00
(001.056542)  vcan0  00000170   [8]  1F 00 00 00 00 00 00 00
(001.056768)  vcan0  00000309   [8]  06 87 00 00 00 00 00 00
(001.056984)  vcan0  0000014A   [8]  00 00 00 72 75 E9 1A 5A
(001.057204)  vcan0  0000017C   [8]  4B 00 00 00 00 00 00 00
(001.062419)  vcan0  00000309   [8]  06 94 00 00 00 00 00 00
(001.062644)  vcan0  0000017C   [8]  4B 00 00 00 00 00 00 00
(001.062855)  vcan0  00000170   [8]  83 00 00 00 00 00 00 00
(001.063068)  vcan0  0000014A   [8]  00 00 00 72 97 12 61 8E
(001.068662)  vcan0  00000170   [8]  40 00 00 00 00 00 00 00
(001.068893)  vcan0  0000017C   [8]  4B 00 00 00 00 00 00 00
(001.069107)  vcan0  00000309   [8]  06 A1 00 00 00 00 00 00
(001.069318)  vcan0  0000014A   [8]  00 00 00 72 BB F3 84 A6
(001.074598)  vcan0  00000170   [8]  5C 00 00 00 00 00 00 00
(001.074818)  vcan0  00000309   [8]  06 AD 00 00 00 00 00 00
(001.075038)  vcan0  0000017C   [8]  4B 00 00 00 00 00 00 00
(001.075248)  vcan0  0000014A   [8]  00 00 00 72 DC 86 95 88
(001.080755)  vcan0  00000170   [8]  A2 00 00 00 00 00 00 00
(001.080981)  vcan0  0000014A   [8]  00 00 00 72 FA 03 30 A8
(001.081193)  vcan0  00000309   [8]  06 BA 00 00 00 00 00 00
(001.081412)  vcan0  0000017C   [8]  4B 00 00 00 00 00 00 00
(001.086582)  vcan0  0000014A   [8]  00 00 00 73 1C BE 3F 1E
(001.086796)  vcan0  00000170   [8]  3B 00 00 00 00 00 00 00
(001.087008)  vcan0  00000309   [8]  06 C7 00 00 00 00 00 00
(001.087228)  vcan0  0000017C   [8]  4B 00 00 00 00 00 00 00
(001.092997)  vcan0  0000014A   [8]  00 00 00 73 39 A0 3D 06
(001.093221)  vcan0  0000017C   [8]  4B 00 00 00 00 00 00 00
(001.093430)  vcan0  00000170   [8]  D6 00 00 00 00 00 00 00
(001.093642)  vcan0  00000309   [8]  06 D4 00 00 00 00 00 00
(001.098669)  vcan0  0000017C   [8]  4B 00 00 00 00 00 00 00
(001.098884)  vcan0  00000309   [8]  06 E1 00 00 00 00 00 00
(001.099095)  vcan0  0000014A   [8]  00 00 00 84 30 7F 33 B8
(001.099305)  vcan0  00000170   [8]  61 00 00 00 00 00 00 00
(001.104447)  vcan0  00000309   [8]  06 EE 00 00 00 00 00 00
(001.104669)  vcan0  0000017C   [8]  4B 00 00 00 00 00 00 00
(001.104879)  vcan0  00000170   [8]  8A 00 00 00 00 00 00 00
(001.105090)  vcan0  0000014A   [8]  00 00 00 78 B1 41 E6 1C
(001.110690)  vcan0  00000170   [8]  4A 00 00 00 00 00 00 00
(001.110914)  vcan0  0000014A   [8]  00 00 00 78 AB 82 2C 38
(001.111133)  vcan0  0000017C   [8]  4B 00 00 00 00 00 00 00
(001.111344)  vcan0  00000309   [8]  06 FB 00 00 00 00 00 00
(001.116648)  vcan0  0000017C   [8]  4B 00 00 00 00 00 00 00
(001.116858)  vcan0  00000170   [8]  66 00 00 00 00 00 00 00
(001.117070)  vcan0  0000014A   [8]  00 00 00 78 A9 6B 74 1A
(001.117279)  vcan0  00000309   [8]  07 07 00 00 00 00 00 00
(001.122541)  vcan0  0000017C   [8]  4B 00 00 00 00 00 00 00
(001.122758)  vcan0  0000014A   [8]  00 00 00 78 A3 06 71 E6
(001.122967)  vcan0  00000170   [8]  77 00 00 00 00 00 00 00
(001.123178)  vcan0  00000309   [8]  07 14 00 00 00 00 00 00
(001.128556)  vcan0  0000014A   [8]  00 00 00 78 9B BE 9E 0E
(001.128775)  vcan0  00000309   [8]  07 21 00 00 00 00 00 00
(001.128985)  vcan0  00000170   [8]  8A 00 00 00 00 00 00 00
(001.129206)  vcan0  0000017C   [8]  4B 00 00 00 00 00 00 00
(001.134779)  vcan0  00000170   [8]  2F 00 00 00 00 00 00 00
(001.135004)  vcan0  00000309   [8]  07 2E 00 00 00 00 00 00
(001.135216)  vcan0  0000014A   [8]  00 00 00 78 92 6B BA FC
(001.135435)  vcan0  0000017C   [8]  4B 00 00 00 00 00 00 00
(001.141130)  vcan0  00000309   [8]  07 3A 00 00 00 00 00 00
(001.141352)  vcan0  0000017C   [8]  4B 00 00 00 00 00 00 00
(001.141563)  vcan0  0000014A   [8]  00 00 00 78 8D A9 88 F8
(001.141772)  vcan0  00000170   [8]  0C 00 00 00 00 00 00 00
(001.146614)  vcan0  0000014A   [8]  00 00 00 78 86 81 77 94
(001.146839)  vcan0  0000017C   [8]  4B 00 00 00 00 00 00 00
(001.147049)  vcan0  00000170   [8]  B9 00 00 00 00 00 00 00
(001.147261)  vcan0  00000309   [8]  07 47 00 00 00 00 00 00
(001.152922)  vcan0  0000014A   [8]  00 00 00 78 7C E2 EB 52
(001.153147)  vcan0  0000017C   [8]  4B 00 00 00 00 00 00 00
(001.153358)  vcan0  00000309   [8]  07 54 00 00 00 00 00 00
(001.153567)  vcan0  00000170   [8]  8C 00 00 00 00 00 00 00
(001.158735)  vcan0  00000309   [8]  07 60 00 00 00 00 00 00
(001.158966)  vcan0  0000014A   [8]  00 00 00 78 75 2D 94 5A
(001.159210)  vcan0  0000017C   [8]  4B 00 00 00 00 00 00 00
(001.159422)  vcan0  00000170   [8]  AA 00 00 00 00 00 00 00
(001.164936)  vcan0  0000014A   [8]  00 00 00 78 6E AE BB 6C
(001.165150)  vcan0  00000170   [8]  C7 00 00 00 00 00 00 00
(001.165365)  vcan0  00000309   [8]  07 6C 00 00 00 00 00 00
(001.165584)  vcan0  0000017C   [8]  4B 00 00 00 00 00 00 00
(001.171004)  vcan0  00000309   [8]  07 7A 00 00 00 00 00 00
(001.171240)  vcan0  0000014A   [8]  00 00 00 78 5E 44 8B 32
(001.171463)  vcan0  0000017C   [8]  4B 00 00 00 00 00 00 00
(001.171673)  vcan0  00000170   [8]  D1 00 00 00 00 00 00 00
(001.176687)  vcan0  00000170   [8]  9C 00 00 00 00 00 00 00
(001.176909)  vcan0  00000309   [8]  07 7F 00 00 00 00 00 00
(001.177129)  vcan0  0000017C   [8]  4B 00 00 00 00 00 00 00
(001.177341)  vcan0  0000014A   [8]  00 00 00 78 5F D6 66 40
(001.182566)  vcan0  00000309   [8]  07 88 00 00 00 00 00 00
(001.182781)  vcan0  0000014A   [8]  00 00 00 78 4A 68 CC E2
(001.182990)  vcan0  00000170   [8]  34 00 00 00 00 00 00 00
(001.183210)  vcan0  0000017C   [8]  4B 00 00 00 00 00 00 00
(001.188607)  vcan0  0000014A   [8]  00 00 00 78 46 A0 32 94
(001.188820)  vcan0  00000170   [8]  6F 00 00 00 00 00 00 00
(001.189029)  vcan0  00000202   [8]  00 90 00 00 00 00 00 00
(001.189250)  vcan0  0000017C   [8]  4B 00 00 00 00 00 00 00
(001.189460)  vcan0  00000309   [8]  07 80 00 00 00 00 00 00
(001.194544)  vcan0  00000170   [8]  B6 00 00 00 00 00 00 00
(001.194762)  vcan0  0000014A   [8]  00 00 00 78 3D 4B 6D 8C
(001.194975)  vcan0  00000309   [8]  07 89 00 00 00 00 00 00
(001.195193)  vcan0  0000017C   [8]  4B 00 00 00 00 00 00 00
(001.200609)  vcan0  0000014A   [8]  00 00 00 78 38 6E EE 10
(001.200831)  vcan0  00000326   [8]  00 00 00 00 00 00 00 00
(001.201098)  vcan0  000001A4   [8]  00 67 00 00 00 00 00 00
(001.201315)  vcan0  0000017C   [8]  4B 00 00 00 00 00 00 00
(001.201529)  vcan0  00000374   [8]  00 00 00 00 00 00 00 00
(001.201738)  vcan0  00000170   [8]  8F 00 00 00 00 00 00 00
(001.201949)  vcan0  000001A3   [8]  00 00 00 00 00 00 00 00
(001.202157)  vcan0  00000309   [8]  07 8A 00 00 00 00 00 00
(001.202362)  vcan0  0000018F   [8]  00 00 29 00 00 00 00 00
(001.202573)  vcan0  0000037B   [8]  00 00 00 00 00 00 00 00
(001.206640)  vcan0  0000014A   [8]  00 00 00 78 2C F0 31 0E
(001.206864)  vcan0  0000017C   [8]  4B 00 00 00 00 00 00 00
(001.207074)  vcan0  00000170   [8]  C7 00 00 00 00 00 00 00
(001.207286)  vcan0  00000309   [8]  07 95 00 00 00 00 00 00
(001.212657)  vcan0  0000017C   [8]  4B 00 00 00 00 00 00 00
(001.212888)  vcan0  00000309   [8]  07 93 00 00 00 00 00 00
(001.213112)  vcan0  0000014A   [8]  00 00 00 78 26 5C 4C 6E
(001.213331)  vcan0  00000170   [8]  A9 00 00 00 00 00 00 00
(001.219121)  vcan0  00000170   [8]  90 00 00 00 00 00 00 00
(001.219349)  vcan0  0000014A   [8]  00 00 00 78 1D 88 E9 E4
(001.219615)  vcan0  0000017C   [8]  4B 00 00 00 00 00 00 00
(001.219825)  vcan0  00000309   [8]  07 9F 00 00 00 00 00 00
(001.224772)  vcan0  0000017C   [8]  4B 00 00 00 00 00 00 00
(001.224988)  vcan0  00000309   [8]  07 A0 00 00 00 00 00 00
(001.225197)  vcan0  00000170   [8]  83 00 00 00 00 00 00 00
(001.225408)  vcan0  0000014A   [8]  00 00 00 78 18 5D F2 F2
(001.230582)  vcan0  00000170   [8]  84 00 00 00 00 00 00 00
(001.230814)  vcan0  0000017C   [8]  4B 00 00 00 00 00 00 00
(001.231026)  vcan0  00000309   [8]  07 AC 00 00 00 00 00 00
(001.231237)  vcan0  0000014A   [8]  00 00 00 78 0B E4 44 76
(001.236711)  vcan0  0000014A   [8]  00 00 00 78 06 F9 46 D4
(001.236925)  vcan0  00000170   [8]  4C 00 00 00 00 00 00 00
(001.237162)  vcan0  0000017C   [8]  4B 00 00 00 00 00 00 00
(001.237373)  vcan0  00000309   [8]  07 AD 00 00 00 00 00 00
(001.242518)  vcan0  00000170   [8]  8B 00 00 00 00 00 00 00
(001.242750)  vcan0  0000017C   [8]  4B 00 00 00 00 00 00 00
(001.242962)  vcan0  00000309   [8]  07 BA 00 00 00 00 00 00
(001.243172)  vcan0  0000014A   [8]  00 00 00 77 FE DB 5B D2
(001.248617)  vcan0  00000309   [8]  07 BC 00 00 00 00 00 00
(001.248842)  vcan0  0000017C   [8]  4B 00 00 00 00 00 00 00
(001.249052)  vcan0  00000170   [8]  D9 00 00 00 00 00 00 00
(001.249267)  vcan0  0000014A   [8]  00 00 00 77 F9 09 D8 EC
(001.254683)  vcan0  0000017C   [8]  4B 00 00 00 00 00 00 00
(001.254914)  vcan0  00000309   [8]  07 CA 00 00 00 00 00 00
(001.255132)  vcan0  00000170   [8]  C3 00 00 00 00 00 00 00
(001.255365)  vcan0  0000014A   [8]  00 00 00 77 F0 23 0A 48
(001.260603)  vcan0  0000017C   [8]  4B 00 00 00 00 00 00 00
(001.260819)  vcan0  00000309   [8]  07 CD 00 00 00 00 00 00
(001.261027)  vcan0  00000170   [8]  26 00 00 00 00 00 00 00
(001.261239)  vcan0  0000014A   [8]  00 00 00 77 EC 68 8E AC
(001.266723)  vcan0  00000170   [8]  89 00 00 00 00 00 00 00
(001.266947)  vcan0  0000014A   [8]  00 00 00 77 E4 AE F8 60
(001.267170)  vcan0  0000017C   [8]  4B 00 00 00 00 00 00 00
(001.267381)  vcan0  00000309   [8]  07 DB 00 00 00 00 00 00
(001.272558)  vcan0  00000170   [8]  8F 00 00 00 00 00 00 00
(001.272782)  vcan0  00000309   [8]  07 DE 00 00 00 00 00 00
(001.272995)  vcan0  0000014A   [8]  00 00 00 77 E0 61 E5 20
(001.273251)  vcan0  0000017C   [8]  4B 00 00 00 00 00 00 00
(001.279274)  vcan0  0000014A   [8]  00 00 00 77 D8 6A C7 D6
(001.279488)  vcan0  00000170   [8]  E6 00 00 00 00 00 00 00
(001.279702)  vcan0  00000309   [8]  07 ED 00 00 00 00 00 00
(001.279921)  vcan0  0000017C   [8]  4B 00 00 00 00 00 00 00
(001.284469)  vcan0  0000017C   [8]  4B 00 00 00 00 00 00 00
(001.284699)  vcan0  00000309   [8]  07 F1 00 00 00 00 00 00
(001.284917)  vcan0  00000170   [8]  02 00 00 00 00 00 00 00
(001.285140)  vcan0  0000014A   [8]  00 00 00 77 D3 D7 57 A4
(001.290613)  vcan0  00000309   [8]  08 00 00 00 00 00 00 00
(001.290834)  vcan0  0000014A   [8]  00 00 00 77 CE 60 81 F6
(001.291044)  vcan0  00000170   [8]  B8 00 00 00 00 00 00 00
(001.291265)  vcan0  0000017C   [8]  4B 00 00 00 00 00 00 00
(001.297070)  vcan0  00000309   [8]  08 04 00 00 00 00 00 00
(001.297284)  vcan0  00000170   [8]  E3 00 00 00 00 00 00 00
(001.297496)  vcan0  0000014A   [8]  00 00 00 77 C5 A5 A5 1C
(001.297715)  vcan0  0000017C   [8]  4B 00 00 00 00 00 00 00
(001.302737)  vcan0  00000170   [8]  C8 00 00 00 00 00 00 00
(001.302956)  vcan0  00000309   [8]  08 14 00 00 00 00 00 00
(001.303175)  vcan0  0000017C   [8]  4B 00 00 00 00 00 00 00
(001.303385)  vcan0  0000014A   [8]  00 00 00 77 C2 E6 1B 8E
(001.308653)  vcan0  00000170   [8]  CD 00 00 00 00 00 00 00
(001.308879)  vcan0  0000014A   [8]  00 00 00 77 BC 61 19 34
(001.309092)  vcan0  00000309   [8]  08 18 00 00 00 00 00 00
(001.309313)  vcan0  0000017C   [8]  4B 00 00 00 00 00 00 00
(001.314866)  vcan0  00000170   [8]  49 00 00 00 00 00 00 00
(001.315106)  vcan0  0000014A   [8]  00 00 00 83 44 F8 81 64
(001.315344)  vcan0  0000017C   [8]  4B 00 00 00 00 00 00 00
(001.315567)  vcan0  00000309   [8]  08 29 00 00 00 00 00 00
(001.320624)  vcan0  00000170   [8]  81 00 00 00 00 00 00 00
(001.320850)  vcan0  00000309   [8]  08 2D 00 00 00 00 00 00
(001.321062)  vcan0  0000014A   [8]  00 00 00 7B 57 A2 E9 2C
(001.321280)  vcan0  0000017C   [8]  4B 00 00 00 00 00 00 00
(001.326697)  vcan0  0000014A   [8]  00 00 00 7B 3F 04 FC 54
(001.326913)  vcan0  00000309   [8]  08 3E 00 00 00 00 00 00
(001.327131)  vcan0  0000017C   [8]  4B 00 00 00 00 00 00 00
(001.327341)  vcan0  00000170   [8]  3B 00 00 00 00 00 00 00
(001.332867)  vcan0  0000014A   [8]  00 00 00 7B 23 EF EC FE
(001.333091)  vcan0  0000017C   [8]  4B 00 00 00 00 00 00 00
(001.333304)  vcan0  00000309   [8]  08 43 00 00 00 00 00 00
(001.333513)  vcan0  00000170   [8]  50 00 00 00 00 00 00 00
(001.339070)  vcan0  00000170   [8]  BB 00 00 00 00 00 00 00
(001.339295)  vcan0  0000014A   [8]  00 00 00 7B 06 AB E8 98
(001.339507)  vcan0  00000309   [8]  08 54 00 00 00 00 00 00
(001.339725)  vcan0  0000017C   [8]  4B 00 00 00 00 00 00 00
(001.345618)  vcan0  0000014A   [8]  00 00 00 7A F1 99 E5 46
(001.345843)  vcan0  0000017C   [8]  4B 00 00 00 00 00 00 00
(001.346054)  vcan0  00000309   [8]  08 59 00 00 00 00 00 00
(001.346266)  vcan0  00000170   [8]  3A 00 00 00 00 00 00 00
(001.350969)  vcan0  00000309   [8]  08 6A 00 00 00 00 00 00
(001.351180)  vcan0  00000170   [8]  20 00 00 00 00 00 00 00
(001.351400)  vcan0  0000017C   [8]  4B 00 00 00 00 00 00 00
(001.351611)  vcan0  0000014A   [8]  00 00 00 7A D1 8F 1B BA
(001.357276)  vcan0  00000309   [8]  08 70 00 00 00 00 00 00
(001.357488)  vcan0  00000170   [8]  12 00 00 00 00 00 00 00
(001.357699)  vcan0  0000014A   [8]  00 00 00 7A B5 19 2A 18
(001.357918)  vcan0  0000017C   [8]  4B 00 00 00 00 00 00 00
(001.362996)  vcan0  0000014A   [8]  00 00 00 7A 97 55 CC C0
(001.363208)  vcan0  00000170   [8]  15 00 00 00 00 00 00 00
(001.363428)  vcan0  0000017C   [8]  4B 00 00 00 00 00 00 00
(001.363637)  vcan0  00000309   [8]  08 81 00 00 00 00 00 00
(001.368842)  vcan0  0000017C   [8]  4B 00 00 00 00 00 00 00
(001.369058)  vcan0  00000309   [8]  08 87 00 00 00 00 00 00
(001.369271)  vcan0  0000014A   [8]  00 00 00 7A 7F 82 61 FA
(001.369479)  vcan0  00000170   [8]  D5 00 00 00 00 00 00 00
(001.374670)  vcan0  00000309   [8]  08 98 00 00 00 00 00 00
(001.374895)  vcan0  0000017C   [8]  4B 00 00 00 00 00 00 00
(001.375108)  vcan0  0000014A   [8]  00 00 00 7A 5E B0 F6 38
(001.375318)  vcan0  00000170   [8]  D8 00 00 00 00 00 00 00
(001.380714)  vcan0  0000017C   [8]  4B 00 00 00 00 00 00 00
(001.380930)  vcan0  00000309   [8]  08 9F 00 00 00 00 00 00
(001.381138)  vcan0  00000170   [8]  32 00 00 00 00 00 00 00
(001.381350)  vcan0  0000014A   [8]  00 00 00 7A 45 61 6E 36
(001.387000)  vcan0  00000170   [8]  59 00 00 00 00 00 00 00
(001.387224)  vcan0  00000309   [8]  08 B0 00 00 00 00 00 00
(001.387436)  vcan0  0000014A   [8]  00 00 00 7A 27 8E 38 F6
(001.387655)  vcan0  0000017C   [8]  4B 00 00 00 00 00 00 00
(001.392676)  vcan0  0000017C   [8]  4B 00 00 00 00 00 00 00
(001.392889)  vcan0  00000170   [8]  8A 00 00 00 00 00 00 00
(001.393101)  vcan0  00000309   [8]  08 B6 00 00 00 00 00 00
(001.393329)  vcan0  0000014A   [8]  00 00 00 7A 0B 77 28 38
(001.398711)  vcan0  00000170   [8]  E6 00 00 00 00 00 00 00
(001.398946)  vcan0  0000017C   [8]  4B 00 00 00 00 00 00 00
(001.399160)  vcan0  0000014A   [8]  00 00 00 79 F0 77 7D 0E
(001.399370)  vcan0  00000309   [8]  08 C8 00 00 00 00 00 00
(001.404851)  vcan0  00000170   [8]  13 00 00 00 00 00 00 00
(001.405078)  vcan0  00000309   [8]  08 CE 00 00 00 00 00 00
(001.405292)  vcan0  0000014A   [8]  00 00 00 79 D8 6F 60 14
(001.405514)  vcan0  0000017C   [8]  4B 00 00 00 00 00 00 00
(001.411067)  vcan0  00000170   [8]  FA 00 00 00 00 00 00 00
(001.411290)  vcan0  0000014A   [8]  00 00 00 79 BA C3 DB 8E
(001.411502)  vcan0  00000309   [8]  08 E0 00 00 00 00 00 00
(001.411720)  vcan0  0000017C   [8]  4B 00 00 00 00 00 00 00
(001.416920)  vcan0  00000170   [8]  C7 00 00 00 00 00 00 00
(001.417149)  vcan0  0000017C   [8]  4B 00 00 00 00 00 00 00
(001.417360)  vcan0  00000309   [8]  08 E7 00 00 00 00 00 00
(001.417570)  vcan0  0000014A   [8]  00 00 00 79 A4 22 28 7A
(001.422765)  vcan0  0000014A   [8]  00 00 00 79 8C 20 CF C2
(001.422979)  vcan0  00000309   [8]  08 F8 00 00 00 00 00 00
(001.423187)  vcan0  00000170   [8]  2F 00 00 00 00 00 00 00
(001.423406)  vcan0  0000017C   [8]  4B 00 00 00 00 00 00 00
(001.428713)  vcan0  00000309   [8]  08 FF 00 00 00 00 00 00
(001.428945)  vcan0  0000017C   [8]  4B 00 00 00 00 00 00 00
(001.429158)  vcan0  00000170   [8]  65 00 00 00 00 00 00 00
(001.429370)  vcan0  0000014A   [8]  00 00 00 79 73 B3 A4 F6
(001.434898)  vcan0  00000309   [8]  09 11 00 00 00 00 00 00
(001.435121)  vcan0  0000017C   [8]  4B 00 00 00 00 00 00 00
(001.435330)  vcan0  00000202   [8]  00 1F 00 00 00 00 00 00
(001.435541)  vcan0  0000014A   [8]  00 00 00 79 5D 19 FC 1C
(001.435748)  vcan0  00000170   [8]  6F 00 00 00 00 00 00 00
(001.441166)  vcan0  0000014A   [8]  00 00 00 79 44 9A 97 64
(001.441379)  vcan0  00000170   [8]  A6 00 00 00 00 00 00 00
(001.441602)  vcan0  0000017C   [8]  4B 00 00 00 00 00 00 00
(001.441813)  vcan0  00000309   [8]  09 18 00 00 00 00 00 00
(001.446593)  vcan0  0000017C   [8]  4B 00 00 00 00 00 00 00
(001.446805)  vcan0  00000170   [8]  A2 00 00 00 00 00 00 00
(001.447018)  vcan0  00000309   [8]  09 2A 00 00 00 00 00 00
(001.447228)  vcan0  0000014A   [8]  00 00 00 79 2F A6 97 7A
(001.452563)  vcan0  0000017C   [8]  4B 00 00 00 00 00 00 00
(001.452777)  vcan0  00000309   [8]  09 31 00 00 00 00 00 00
(001.452988)  vcan0  0000014A   [8]  00 00 00 79 1B 22 63 1A
(001.453196)  vcan0  00000170   [8]  A5 00 00 00 00 00 00 00
(001.458591)  vcan0  00000170   [8]  D6 00 00 00 00 00 00 00
(001.458817)  vcan0  00000309   [8]  09 42 00 00 00 00 00 00
(001.459039)  vcan0  0000017C   [8]  4B 00 00 00 00 00 00 00
(001.459251)  vcan0  0000014A   [8]  00 00 00 79 05 6F 72 BA
(001.464642)  vcan0  00000309   [8]  09 4A 00 00 00 00 00 00
(001.464856)  vcan0  0000014A   [8]  00 00 00 78 F1 71 A1 68
(001.465065)  vcan0  00000170   [8]  D0 00 00 00 00 00 00 00
(001.465372)  vcan0  0000017C   [8]  4B 00 00 00 00 00 00 00
(001.470522)  vcan0  00000170   [8]  6D 00 00 00 00 00 00 00
(001.470745)  vcan0  0000014A   [8]  00 00 00 78 DF 7C E3 C2
(001.470958)  vcan0  00000309   [8]  09 5B 00 00 00 00 00 00
(001.471177)  vcan0  0000017C   [8]  4B 00 00 00 00 00 00 00
(001.476592)  vcan0  0000014A   [8]  00 00 00 78 CC 07 93 FE
(001.476814)  vcan0  0000017C   [8]  4B 00 00 00 00 00 00 00
(001.477025)  vcan0  00000170   [8]  53 00 00 00 00 00 00 00
(001.477235)  vcan0  00000309   [8]  09 63 00 00 00 00 00 00
(001.482642)  vcan0  00000170   [8]  5D 00 00 00 00 00 00 00
(001.482867)  vcan0  0000014A   [8]  00 00 00 78 BB FA F1 E4
(001.483146)  vcan0  0000017C   [8]  4B 00 00 00 00 00 00 00
(001.483357)  vcan0  00000309   [8]  09 74 00 00 00 00 00 00
(001.489071)  vcan0  0000014A   [8]  00 00 00 78 AA F3 F2 2A
(001.489285)  vcan0  00000170   [8]  7B 00 00 00 00 00 00 00
(001.489507)  vcan0  0000017C   [8]  4B 00 00 00 00 00 00 00
(001.489717)  vcan0  00000309   [8]  09 7C 00 00 00 00 00 00
(001.495292)  vcan0  0000014A   [8]  00 00 00 80 9B 34 53 A0
(001.495506)  vcan0  00000170   [8]  C4 00 00 00 00 00 00 00
(001.495726)  vcan0  0000017C   [8]  39 7F 00 00 00 00 00 00
(001.495937)  vcan0  00000309   [8]  09 8D 00 00 00 00 00 00
(001.501757)  vcan0  0000014A   [8]  00 00 00 7B 0E BA 2B 6C
(001.501972)  vcan0  00000309   [8]  09 95 00 00 00 00 00 00
(001.502180)  vcan0  00000170   [8]  5D 00 00 00 00 00 00 00
(001.502397)  vcan0  0000017C   [8]  31 C8 00 00 00 00 00 00
(001.506826)  vcan0  0000014A   [8]  00 00 00 7A EC 82 43 24
(001.507047)  vcan0  0000017C   [8]  1F EE 00 00 00 00 00 00
(001.507260)  vcan0  00000309   [8]  09 A6 00 00 00 00 00 00
(001.507469)  vcan0  00000170   [8]  93 00 00 00 00 00 00 00
(001.512643)  vcan0  00000309   [8]  09 AD 00 00 00 00 00 00
(001.512866)  vcan0  0000017C   [8]  18 9F 00 00 00 00 00 00
(001.513077)  vcan0  0000014A   [8]  00 00 00 7A D0 D4 22 66
(001.513285)  vcan0  00000170   [8]  2A 00 00 00 00 00 00 00
(001.518784)  vcan0  0000014A   [8]  00 00 00 7A AC 67 60 52
(001.518997)  vcan0  00000309   [8]  09 BE 00 00 00 00 00 00
(001.519206)  vcan0  00000170   [8]  8D 00 00 00 00 00 00 00
(001.519424)  vcan0  0000017C   [8]  07 C9 00 00 00 00 00 00
(001.524479)  vcan0  0000017C   [8]  01 8C 00 00 00 00 00 00
(001.524692)  vcan0  00000170   [8]  92 00 00 00 00 00 00 00
(001.524905)  vcan0  00000309   [8]  09 C4 00 00 00 00 00 00
(001.525115)  vcan0  0000014A   [8]  00 00 00 7A 8F F0 5B F2
(001.530645)  vcan0  00000309   [8]  09 D3 00 00 00 00 00 00
(001.530859)  vcan0  00000170   [8]  A5 00 00 00 00 00 00 00
(001.531169)  vcan0  0000017C   [8]  00 00 00 00 00 00 08 C0
(001.531381)  vcan0  0000014A   [8]  00 00 00 7A 6E D4 5C 14
(001.536802)  vcan0  0000017C   [8]  00 00 00 00 00 00 0B C8
(001.537015)  vcan0  00000170   [8]  EB 00 00 00 00 00 00 00
(001.537227)  vcan0  0000014A   [8]  00 00 00 7A 50 67 CF 94
(001.537464)  vcan0  00000309   [8]  09 D7 00 00 00 00 00 00
(001.542694)  vcan0  00000170   [8]  FA 00 00 00 00 00 00 00
(001.542916)  vcan0  0000014A   [8]  00 00 00 7A 31 DA DD A6
(001.543128)  vcan0  00000309   [8]  09 E4 00 00 00 00 00 00
(001.543348)  vcan0  0000017C   [8]  00 00 00 00 00 00 13 30
(001.548958)  vcan0  00000309   [8]  09 E5 00 00 00 00 00 00
(001.549170)  vcan0  00000170   [8]  E2 00 00 00 00 00 00 00
(001.549389)  vcan0  0000017C   [8]  00 00 00 00 00 00 13 30
(001.549601)  vcan0  0000014A   [8]  00 00 00 7A 12 45 91 2A
(001.554616)  vcan0  00000170   [8]  79 00 00 00 00 00 00 00
(001.554836)  vcan0  0000014A   [8]  00 00 00 79 F3 6C 34 D0
(001.555058)  vcan0  0000017C   [8]  00 00 00 00 00 00 13 30
(001.555273)  vcan0  00000309   [8]  09 EF 00 00 00 00 00 00
(001.560607)  vcan0  00000170   [8]  40 00 00 00 00 00 00 00
(001.560835)  vcan0  0000017C   [8]  00 00 00 00 00 00 13 30
(001.561048)  vcan0  00000309   [8]  09 ED 00 00 00 00 00 00
(001.561260)  vcan0  0000014A   [8]  00 00 00 79 D7 BF 06 38
(001.566529)  vcan0  00000170   [8]  E9 00 00 00 00 00 00 00
(001.566753)  vcan0  0000014A   [8]  00 00 00 79 BA 6C BA 60
(001.566975)  vcan0  0000017C   [8]  00 00 00 00 00 00 13 30
(001.567186)  vcan0  00000309   [8]  09 F4 00 00 00 00 00 00
(001.572438)  vcan0  0000014A   [8]  00 00 00 79 A1 6A 80 F8
(001.572654)  vcan0  00000309   [8]  09 F0 00 00 00 00 00 00
(001.572862)  vcan0  00000170   [8]  66 00 00 00 00 00 00 00
(001.573081)  vcan0  0000017C   [8]  00 00 00 00 00 00 13 30
(001.578844)  vcan0  0000017C   [8]  00 00 00 00 00 00 13 30
(001.579054)  vcan0  00000170   [8]  02 00 00 00 00 00 00 00
(001.579268)  vcan0  0000014A   [8]  00 00 00 79 82 CB 8D 00
(001.579477)  vcan0  00000309   [8]  09 F5 00 00 00 00 00 00
(001.584750)  vcan0  00000170   [8]  D2 00 00 00 00 00 00 00
(001.584972)  vcan0  0000017C   [8]  00 00 00 00 00 00 13 30
(001.585182)  vcan0  00000309   [8]  09 F0 00 00 00 00 00 00
(001.585392)  vcan0  0000014A   [8]  00 00 00 79 6A F3 03 64
(001.590710)  vcan0  00000170   [8]  6D 00 00 00 00 00 00 00
(001.590929)  vcan0  0000014A   [8]  00 00 00 79 4D 7D 56 70
(001.591139)  vcan0  00000309   [8]  09 F3 00 00 00 00 00 00
(001.591357)  vcan0  0000017C   [8]  00 00 00 00 00 00 13 30
(001.597041)  vcan0  0000014A   [8]  00 00 00 79 39 1D DE 18
(001.597253)  vcan0  00000309   [8]  09 ED 00 00 00 00 00 00
(001.597470)  vcan0  0000017C   [8]  00 00 00 00 00 00 13 30
(001.597678)  vcan0  00000170   [8]  F5 00 00 00 00 00 00 00
(001.602910)  vcan0  0000014A   [8]  00 00 00 79 20 63 AC E0
(001.603190)  vcan0  00000309   [8]  09 EF 00 00 00 00 00 00
(001.603401)  vcan0  00000170   [8]  4E 00 00 00 00 00 00 00
(001.603620)  vcan0  0000017C   [8]  00 00 00 00 00 00 13 30
(001.608935)  vcan0  0000014A   [8]  00 00 00 79 0A C0 AE 06
(001.609148)  vcan0  00000170   [8]  A8 00 00 00 00 00 00 00
(001.609371)  vcan0  0000017C   [8]  00 00 00 00 00 00 13 30
(001.609581)  vcan0  00000309   [8]  09 E7 00 00 00 00 00 00
(001.615133)  vcan0  00000309   [8]  09 E8 00 00 00 00 00 00
(001.615353)  vcan0  0000014A   [8]  00 00 00 78 F4 88 F9 06
(001.615582)  vcan0  00000170   [8]  CE 00 00 00 00 00 00 00
(001.615802)  vcan0  0000017C   [8]  00 00 00 00 00 00 13 30
(001.620674)  vcan0  0000014A   [8]  00 00 00 78 E0 6F 5C 68
(001.620903)  vcan0  0000017C   [8]  00 00 00 00 00 00 12 48
(001.621112)  vcan0  00000170   [8]  E7 00 00 00 00 00 00 00
(001.621322)  vcan0  00000309   [8]  09 E0 00 00 00 00 00 00
(001.626579)  vcan0  00000309   [8]  09 E0 00 00 00 00 00 00
(001.626799)  vcan0  0000014A   [8]  00 00 00 78 CB E5 F4 3E
(001.627009)  vcan0  00000170   [8]  E1 00 00 00 00 00 00 00
(001.627229)  vcan0  0000017C   [8]  00 00 00 00 00 00 12 A0
(001.632569)  vcan0  00000309   [8]  09 D6 00 00 00 00 00 00
(001.632800)  vcan0  0000014A   [8]  00 00 00 78 B9 E4 F1 B4
(001.633039)  vcan0  0000017C   [8]  00 00 00 00 00 00 0C 68
(001.633257)  vcan0  00000170   [8]  6B 00 00 00 00 00 00 00
(001.638672)  vcan0  0000014A   [8]  00 00 00 78 A7 98 04 CA
(001.638888)  vcan0  00000309   [8]  09 D6 00 00 00 00 00 00
(001.639107)  vcan0  0000017C   [8]  00 00 00 00 00 00 0C 48
(001.639316)  vcan0  00000170   [8]  61 00 00 00 00 00 00 00
(001.644734)  vcan0  00000170   [8]  58 00 00 00 00 00 00 00
(001.644975)  vcan0  0000014A   [8]  00 00 00 78 97 1A A7 54
(001.645200)  vcan0  00000309   [8]  09 CD 00 00 00 00 00 00
(001.645438)  vcan0  0000017C   [8]  00 00 00 00 00 00 05 F0
(001.650762)  vcan0  0000014A   [8]  00 00 00 78 84 E2 E4 62
(001.651002)  vcan0  0000017C   [8]  00 00 00 00 00 00 05 D0
(001.651225)  vcan0  00000309   [8]  09 CC 00 00 00 00 00 00
(001.651442)  vcan0  00000170   [8]  9B 00 00 00 00 00 00 00
(001.656765)  vcan0  0000017C   [8]  00 CB 00 00 00 00 00 00
(001.656987)  vcan0  00000170   [8]  55 00 00 00 00 00 00 00
(001.657212)  vcan0  00000309   [8]  09 C3 00 00 00 00 00 00
(001.657434)  vcan0  0000014A   [8]  00 00 00 78 75 DB 10 CC
(001.662575)  vcan0  0000017C   [8]  00 F1 00 00 00 00 00 00
(001.662791)  vcan0  00000309   [8]  09 C3 00 00 00 00 00 00
(001.663000)  vcan0  00000170   [8]  81 00 00 00 00 00 00 00
(001.663211)  vcan0  0000014A   [8]  00 00 00 78 65 D0 D0 B4
(001.668622)  vcan0  00000170   [8]  DA 00 00 00 00 00 00 00
(001.668847)  vcan0  00000309   [8]  09 B9 00 00 00 00 00 00
(001.669059)  vcan0  0000014A   [8]  00 00 00 78 57 4C B2 7C
(001.669278)  vcan0  0000017C   [8]  0A 97 00 00 00 00 00 00
(001.674661)  vcan0  0000014A   [8]  00 00 00 78 4A 04 88 78
(001.674873)  vcan0  00000170   [8]  79 00 00 00 00 00 00 00
(001.675093)  vcan0  0000017C   [8]  0A A8 00 00 00 00 00 00
(001.675304)  vcan0  00000309   [8]  09 B9 00 00 00 00 00 00
(001.680682)  vcan0  00000202   [8]  00 F0 00 00 00 00 00 00
(001.680892)  vcan0  00000170   [8]  2A 00 00 00 00 00 00 00
(001.681122)  vcan0  0000017C   [8]  14 B7 00 00 00 00 00 00
(001.681334)  vcan0  00000309   [8]  09 AF 00 00 00 00 00 00
(001.681544)  vcan0  0000014A   [8]  00 00 00 78 3C C6 36 D8
(001.686621)  vcan0  0000017C   [8]  14 EE 00 00 00 00 00 00
(001.686838)  vcan0  0000014A   [8]  00 00 00 78 2F 55 9E 56
(001.687047)  vcan0  00000170   [8]  3B 00 00 00 00 00 00 00
(001.687260)  vcan0  00000309   [8]  09 AF 00 00 00 00 00 00
(001.692555)  vcan0  0000014A   [8]  00 00 00 78 26 49 66 36
(001.692778)  vcan0  0000017C   [8]  1F 10 00 00 00 00 00 00
(001.692988)  vcan0  00000309   [8]  09 A5 00 00 00 00 00 00
(001.693200)  vcan0  00000170   [8]  E1 00 00 00 00 00 00 00
(001.698469)  vcan0  0000017C   [8]  1F 24 00 00 00 00 00 00
(001.698684)  vcan0  00000309   [8]  09 A5 00 00 00 00 00 00
(001.698895)  vcan0  00000170   [8]  62 00 00 00 00 00 00 00
(001.699107)  vcan0  0000014A   [8]  00 00 00 78 19 6C 87 38
(001.699320)  vcan0  000001A3   [8]  00 00 00 00 00 00 00 00
(001.699529)  vcan0  0000018F   [8]  00 00 74 00 00 00 00 00
(001.704461)  vcan0  00000170   [8]  31 00 00 00 00 00 00 00
(001.704684)  vcan0  0000014A   [8]  00 00 00 78 0E 5B 1E C8
(001.704896)  vcan0  00000309   [8]  09 9B 00 00 00 00 00 00
(001.705115)  vcan0  0000017C   [8]  29 0B 00 00 00 00 00 00
(001.710513)  vcan0  00000309   [8]  09 9C 00 00 00 00 00 00
(001.710735)  vcan0  0000017C   [8]  28 C1 00 00 00 00 00 00
(001.710946)  vcan0  00000170   [8]  D3 00 00 00 00 00 00 00
(001.711156)  vcan0  0000014A   [8]  00 00 00 7D FF FA 7D CC
(001.716491)  vcan0  00000309   [8]  09 92 00 00 00 00 00 00
(001.716703)  vcan0  00000170   [8]  52 00 00 00 00 00 00 00
(001.716916)  vcan0  0000014A   [8]  00 00 00 79 E1 A5 F3 22
(001.717135)  vcan0  0000017C   [8]  32 29 00 00 00 00 00 00
(001.722425)  vcan0  0000014A   [8]  00 00 00 79 CD EE F2 02
(001.722649)  vcan0  0000017C   [8]  31 4C 00 00 00 00 00 00
(001.722859)  vcan0  00000309   [8]  09 93 00 00 00 00 00 00
(001.723069)  vcan0  00000170   [8]  35 00 00 00 00 00 00 00
(001.728553)  vcan0  00000170   [8]  84 00 00 00 00 00 00 00
(001.728775)  vcan0  0000014A   [8]  00 00 00 79 BC D3 90 8C
(001.728993)  vcan0  0000017C   [8]  39 F7 00 00 00 00 00 00
(001.729202)  vcan0  00000309   [8]  09 8B 00 00 00 00 00 00
(001.735155)  vcan0  0000017C   [8]  38 56 00 00 00 00 00 00
(001.735368)  vcan0  0000014A   [8]  00 00 00 79 A5 D2 18 68
(001.735576)  vcan0  00000170   [8]  76 00 00 00 00 00 00 00
(001.735785)  vcan0  00000309   [8]  09 8D 00 00 00 00 00 00
(001.740667)  vcan0  0000014A   [8]  00 00 00 79 93 BA 6B BA
(001.740889)  vcan0  0000017C   [8]  40 0D 00 00 00 00 00 00
(001.741098)  vcan0  00000170   [8]  4A 00 00 00 00 00 00 00
(001.741307)  vcan0  00000309   [8]  09 85 00 00 00 00 00 00
(001.746586)  vcan0  0000014A   [8]  00 00 00 79 7C B9 C9 C8
(001.746802)  vcan0  00000309   [8]  09 88 00 00 00 00 00 00
(001.747022)  vcan0  0000017C   [8]  3D 7F 00 00 00 00 00 00
(001.747232)  vcan0  00000170   [8]  0B 00 00 00 00 00 00 00
(001.752678)  vcan0  0000014A   [8]  00 00 00 79 69 B4 45 90
(001.752894)  vcan0  00000309   [8]  09 81 00 00 00 00 00 00
(001.753104)  vcan0  00000170   [8]  0F 00 00 00 00 00 00 00
(001.753324)  vcan0  0000017C   [8]  44 22 00 00 00 00 00 00
(001.758557)  vcan0  0000014A   [8]  00 00 00 79 54 DF D4 DE
(001.758768)  vcan0  00000170   [8]  2B 00 00 00 00 00 00 00
(001.758983)  vcan0  00000309   [8]  09 85 00 00 00 00 00 00
(001.759201)  vcan0  0000017C   [8]  40 8D 00 00 00 00 00 00
(001.764515)  vcan0  0000017C   [8]  46 0D 00 00 00 00 00 00
(001.764731)  vcan0  00000309   [8]  09 7F 00 00 00 00 00 00
(001.764942)  vcan0  0000014A   [8]  00 00 00 79 42 18 65 AC
(001.765177)  vcan0  00000170   [8]  6F 00 00 00 00 00 00 00
(001.770698)  vcan0  0000014A   [8]  00 00 00 79 2C 0C CC F6
(001.770924)  vcan0  00000309   [8]  09 84 00 00 00 00 00 00
(001.771143)  vcan0  0000017C   [8]  41 67 00 00 00 00 00 00
(001.771353)  vcan0  00000170   [8]  19 00 00 00 00 00 00 00
(001.776634)  vcan0  00000309   [8]  09 80 00 00 00 00 00 00
(001.776851)  vcan0  0000014A   [8]  00 00 00 79 19 60 DE 8E
(001.777061)  vcan0  00000170   [8]  7B 00 00 00 00 00 00 00
(001.777280)  vcan0  0000017C   [8]  45 C7 00 00 00 00 00 00
(001.782667)  vcan0  0000017C   [8]  40 16 00 00 00 00 00 00
(001.782883)  vcan0  00000309   [8]  09 85 00 00 00 00 00 00
(001.783093)  vcan0  00000170   [8]  3D 00 00 00 00 00 00 00
(001.783304)  vcan0  0000014A   [8]  00 00 00 79 05 49 E9 CE
(001.789110)  vcan0  0000014A   [8]  00 00 00 78 F6 D0 50 46
(001.789326)  vcan0  00000309   [8]  09 82 00 00 00 00 00 00
(001.789535)  vcan0  00000170   [8]  FF 00 00 00 00 00 00 00
(001.789754)  vcan0  0000017C   [8]  43 6B 00 00 00 00 00 00
(001.795164)  vcan0  0000014A   [8]  00 00 00 78 E0 55 D0 32
(001.795385)  vcan0  00000309   [8]  09 89 00 00 00 00 00 00
(001.795595)  vcan0  00000170   [8]  F0 00 00 00 00 00 00 00
(001.795816)  vcan0  0000017C   [8]  3C C7 00 00 00 00 00 00
(001.800753)  vcan0  0000014A   [8]  00 00 00 78 D0 CC 2F 04
(001.800966)  vcan0  00000170   [8]  8D 00 00 00 00 00 00 00
(001.801226)  vcan0  00000309   [8]  09 86 00 00 00 00 00 00
(001.801445)  vcan0  0000017C   [8]  3F 38 00 00 00 00 00 00
(001.806896)  vcan0  0000017C   [8]  37 CE 00 00 00 00 00 00
(001.807110)  vcan0  00000309   [8]  09 8E 00 00 00 00 00 00
(001.807383)  vcan0  00000170   [8]  10 00 00 00 00 00 00 00
(001.807594)  vcan0  0000014A   [8]  00 00 00 78 BD 0A 13 08
(001.813097)  vcan0  0000014A   [8]  00 00 00 78 AC 06 31 EA
(001.813315)  vcan0  00000309   [8]  09 8C 00 00 00 00 00 00
(001.813525)  vcan0  00000170   [8]  5F 00 00 00 00 00 00 00
(001.813745)  vcan0  0000017C   [8]  39 90 00 00 00 00 00 00
(001.819361)  vcan0  0000017C   [8]  31 9D 00 00 00 00 00 00
(001.819577)  vcan0  00000309   [8]  09 94 00 00 00 00 00 00
(001.819787)  vcan0  00000170   [8]  76 00 00 00 00 00 00 00
(001.819997)  vcan0  0000014A   [8]  00 00 00 78 9C 12 B0 EC
(001.825069)  vcan0  0000017C   [8]  32 ED 00 00 00 00 00 00
(001.825282)  vcan0  00000170   [8]  44 00 00 00 00 00 00 00
(001.825495)  vcan0  0000014A   [8]  00 00 00 78 8D D4 9E 28
(001.825705)  vcan0  00000309   [8]  09 93 00 00 00 00 00 00
(001.830897)  vcan0  0000017C   [8]  2A B4 00 00 00 00 00 00
(001.831111)  vcan0  00000309   [8]  09 9B 00 00 00 00 00 00
(001.831321)  vcan0  00000170   [8]  8B 00 00 00 00 00 00 00
(001.831532)  vcan0  0000014A   [8]  00 00 00 78 7E F0 D7 F8
(001.837119)  vcan0  00000170   [8]  27 00 00 00 00 00 00 00
(001.837347)  vcan0  0000017C   [8]  2B D7 00 00 00 00 00 00
(001.837558)  vcan0  0000014A   [8]  00 00 00 78 70 C1 52 7E
(001.837767)  vcan0  00000309   [8]  09 9A 00 00 00 00 00 00
(001.843268)  vcan0  0000017C   [8]  23 9C 00 00 00 00 00 00
(001.843482)  vcan0  0000014A   [8]  00 00 00 78 63 CF C2 9C
(001.843690)  vcan0  00000170   [8]  B7 00 00 00 00 00 00 00
(001.843899)  vcan0  00000309   [8]  09 A2 00 00 00 00 00 00
(001.849070)  vcan0  00000309   [8]  09 A0 00 00 00 00 00 00
(001.849284)  vcan0  0000014A   [8]  00 00 00 78 55 09 3C 44
(001.849492)  vcan0  00000170   [8]  3D 00 00 00 00 00 00 00
(001.849709)  vcan0  0000017C   [8]  24 D0 00 00 00 00 00 00
(001.855054)  vcan0  00000170   [8]  A8 00 00 00 00 00 00 00
(001.855276)  vcan0  00000309   [8]  09 A8 00 00 00 00 00 00
(001.855487)  vcan0  0000014A   [8]  00 00 00 78 47 EA 38 AA
(001.855704)  vcan0  0000017C   [8]  1C D5 00 00 00 00 00 00
(001.860745)  vcan0  00000170   [8]  3C 00 00 00 00 00 00 00
(001.860969)  vcan0  0000017C   [8]  1E 55 00 00 00 00 00 00
(001.861179)  vcan0  00000309   [8]  09 A7 00 00 00 00 00 00
(001.861388)  vcan0  0000014A   [8]  00 00 00 78 3C C5 41 34
(001.866894)  vcan0  0000014A   [8]  00 00 00 78 2D D2 86 20
(001.867117)  vcan0  00000170   [8]  08 00 00 00 00 00 00 00
(001.867342)  vcan0  00000309   [8]  09 AE 00 00 00 00 00 00
(001.867577)  vcan0  0000017C   [8]  16 D1 00 00 00 00 00 00
(001.872635)  vcan0  0000014A   [8]  00 00 00 78 24 98 01 C0
(001.872850)  vcan0  00000170   [8]  13 00 00 00 00 00 00 00
(001.873072)  vcan0  0000017C   [8]  18 CE 00 00 00 00 00 00
(001.873283)  vcan0  00000309   [8]  09 AC 00 00 00 00 00 00
(001.878892)  vcan0  00000170   [8]  B7 00 00 00 00 00 00 00
(001.879125)  vcan0  0000017C   [8]  11 E6 00 00 00 00 00 00
(001.879340)  vcan0  0000014A   [8]  00 00 00 78 17 C8 A8 F4
(001.879551)  vcan0  00000309   [8]  09 B3 00 00 00 00 00 00
(001.885035)  vcan0  0000017C   [8]  14 82 00 00 00 00 00 00
(001.885253)  vcan0  0000014A   [8]  00 00 00 78 0B 59 4F 70
(001.885466)  vcan0  00000170   [8]  23 00 00 00 00 00 00 00
(001.885679)  vcan0  00000309   [8]  09 B0 00 00 00 00 00 00
(001.890904)  vcan0  00000170   [8]  C1 00 00 00 00 00 00 00
(001.891145)  vcan0  0000017C   [8]  0E 4F 00 00 00 00 00 00
(001.891359)  vcan0  0000014A   [8]  00 00 00 78 03 F8 39 E4
(001.891569)  vcan0  00000309   [8]  09 B6 00 00 00 00 00 00
(001.896922)  vcan0  0000017C   [8]  11 9E 00 00 00 00 00 00
(001.897139)  vcan0  0000014A   [8]  00 00 00 77 FB A9 AE 98
(001.897354)  vcan0  00000170   [8]  87 00 00 00 00 00 00 00
(001.897570)  vcan0  00000309   [8]  09 B3 00 00 00 00 00 00
(001.902601)  vcan0  00000170   [8]  C4 00 00 00 00 00 00 00
(001.902828)  vcan0  0000017C   [8]  0C 27 00 00 00 00 00 00
(001.903040)  vcan0  00000309   [8]  09 B8 00 00 00 00 00 00
(001.903250)  vcan0  0000014A   [8]  00 00 00 77 EE 80 A4 0A
(001.908521)  vcan0  0000017C   [8]  10 2F 00 00 00 00 00 00
(001.908734)  vcan0  00000309   [8]  09 B4 00 00 00 00 00 00
(001.908944)  vcan0  0000014A   [8]  00 00 00 77 E6 E1 2B 7A
(001.909152)  vcan0  00000170   [8]  54 00 00 00 00 00 00 00
(001.914521)  vcan0  00000309   [8]  09 B9 00 00 00 00 00 00
(001.914731)  vcan0  00000170   [8]  75 00 00 00 00 00 00 00
(001.914950)  vcan0  0000017C   [8]  0B 6D 00 00 00 00 00 00
(001.915159)  vcan0  0000014A   [8]  00 00 00 77 DE 1C B1 08
(001.920693)  vcan0  00000170   [8]  61 00 00 00 00 00 00 00
(001.920925)  vcan0  0000017C   [8]  10 28 00 00 00 00 00 00
(001.921136)  vcan0  00000309   [8]  09 B4 00 00 00 00 00 00
(001.921345)  vcan0  0000014A   [8]  00 00 00 77 D6 83 17 64
(001.926513)  vcan0  0000014A   [8]  00 00 00 7B 1F C8 40 E6
(001.926725)  vcan0  00000202   [8]  00 F4 00 00 00 00 00 00
(001.926947)  vcan0  0000017C   [8]  0C 0C 00 00 00 00 00 00
(001.927157)  vcan0  00000309   [8]  09 B8 00 00 00 00 00 00
(001.927364)  vcan0  00000170   [8]  AF 00 00 00 00 00 00 00
(001.932652)  vcan0  00000309   [8]  09 B3 00 00 00 00 00 00
(001.932875)  vcan0  0000017C   [8]  11 6A 00 00 00 00 00 00
(001.933084)  vcan0  00000170   [8]  8D 00 00 00 00 00 00 00
(001.933295)  vcan0  0000014A   [8]  00 00 00 78 D3 58 1E 58
(001.938504)  vcan0  0000017C   [8]  0D D9 00 00 00 00 00 00
(001.938719)  vcan0  00000309   [8]  09 B7 00 00 00 00 00 00
(001.938927)  vcan0  00000170   [8]  87 00 00 00 00 00 00 00
(001.939165)  vcan0  0000014A   [8]  00 00 00 78 C7 AF 46 72
(001.944620)  vcan0  00000309   [8]  09 B1 00 00 00 00 00 00
(001.944832)  vcan0  00000170   [8]  72 00 00 00 00 00 00 00
(001.945052)  vcan0  0000017C   [8]  13 C2 00 00 00 00 00 00
(001.945267)  vcan0  0000014A   [8]  00 00 00 78 BB 28 C9 B6
(001.950530)  vcan0  0000014A   [8]  00 00 00 78 AC 58 D2 94
(001.950743)  vcan0  00000170   [8]  58 00 00 00 00 00 00 00
(001.950964)  vcan0  0000017C   [8]  10 A1 00 00 00 00 00 00
(001.951174)  vcan0  00000309   [8]  09 B4 00 00 00 00 00 00
(001.956544)  vcan0  0000017C   [8]  16 F8 00 00 00 00 00 00
(001.956760)  vcan0  00000309   [8]  09 AD 00 00 00 00 00 00
(001.956971)  vcan0  0000014A   [8]  00 00 00 78 A3 58 8D D8
(001.957180)  vcan0  00000170   [8]  06 00 00 00 00 00 00 00
(001.962647)  vcan0  00000309   [8]  09 B0 00 00 00 00 00 00
(001.962873)  vcan0  0000017C   [8]  14 25 00 00 00 00 00 00
(001.963083)  vcan0  00000170   [8]  72 00 00 00 00 00 00 00
(001.963361)  vcan0  0000014A   [8]  00 00 00 78 93 10 A6 2C
(001.968683)  vcan0  0000014A   [8]  00 00 00 78 89 5B 9C 04
(001.968899)  vcan0  00000170   [8]  6E 00 00 00 00 00 00 00
(001.969113)  vcan0  00000309   [8]  09 AA 00 00 00 00 00 00
(001.969334)  vcan0  0000017C   [8]  1A C8 00 00 00 00 00 00
(001.974942)  vcan0  00000170   [8]  D5 00 00 00 00 00 00 00
(001.975178)  vcan0  00000309   [8]  09 AC 00 00 00 00 00 00
(001.975414)  vcan0  0000017C   [8]  18 22 00 00 00 00 00 00
(001.975636)  vcan0  0000014A   [8]  00 00 00 78 79 DB A1 2C
(001.980749)  vcan0  00000309   [8]  09 A6 00 00 00 00 00 00
(001.980965)  vcan0  0000014A   [8]  00 00 00 78 6C A0 76 4E
(001.981232)  vcan0  0000017C   [8]  1E ED 00 00 00 00 00 00
(001.981442)  vcan0  00000170   [8]  45 00 00 00 00 00 00 00
(001.986946)  vcan0  00000170   [8]  46 00 00 00 00 00 00 00
(001.987185)  vcan0  0000017C   [8]  1C 53 00 00 00 00 00 00
(001.987399)  vcan0  0000014A   [8]  00 00 00 78 61 D7 5A BC
(001.987610)  vcan0  00000309   [8]  09 A8 00 00 00 00 00 00
(001.992653)  vcan0  00000309   [8]  09 A1 00 00 00 00 00 00
(001.992867)  vcan0  00000170   [8]  E0 00 00 00 00 00 00 00
(001.993080)  vcan0  0000014A   [8]  00 00 00 78 55 90 3B 50
(001.993299)  vcan0  0000017C   [8]  23 22 00 00 00 00 00 00
(001.999492)  vcan0  00000170   [8]  59 00 00 00 00 00 00 00
(001.999727)  vcan0  0000017C   [8]  20 73 00 00 00 00 00 00
(001.999939)  vcan0  0000014A   [8]  00 00 00 78 49 6B 2A 3C
(002.000149)  vcan0  00000309   [8]  09 A4 00 00 00 00 00 00
(002.005214)  vcan0  0000017C   [8]  27 24 00 00 00 00 00 00
(002.005448)  vcan0  00000309   [8]  09 9E 00 00 00 00 00 00
(002.005675)  vcan0  0000014A   [8]  00 00 00 78 3A DE BB F2
(002.005894)  vcan0  00000170   [8]  1E 00 00 00 00 00 00 00
(002.011693)  vcan0  00000309   [8]  09 A0 00 00 00 00 00 00
(002.011940)  vcan0  0000017C   [8]  24 44 00 00 00 00 00 00
(002.012163)  vcan0  0000014A   [8]  00 00 00 78 31 EF E1 EC
(002.012395)  vcan0  00000170   [8]  E8 00 00 00 00 00 00 00
(002.017233)  vcan0  00000170   [8]  16 00 00 00 00 00 00 00
(002.017455)  vcan0  0000014A   [8]  00 00 00 78 27 DE 42 C6
(002.017668)  vcan0  00000309   [8]  09 9A 00 00 00 00 00 00
(002.017889)  vcan0  0000017C   [8]  2A B9 00 00 00 00 00 00
(002.023845)  vcan0  0000014A   [8]  00 00 00 78 1B 3E CC 82
(002.024061)  vcan0  00000309   [8]  09 9D 00 00 00 00 00 00
(002.024281)  vcan0  0000017C   [8]  27 91 00 00 00 00 00 00
(002.024492)  vcan0  00000170   [8]  F0 00 00 00 00 00 00 00
(002.029179)  vcan0  00000309   [8]  09 97 00 00 00 00 00 00
(002.029403)  vcan0  0000017C   [8]  2D B2 00 00 00 00 00 00
(002.029613)  vcan0  00000170   [8]  E3 00 00 00 00 00 00 00
(002.029824)  vcan0  0000014A   [8]  00 00 00 78 13 15 DA 6E
(002.034969)  vcan0  00000170   [8]  A4 00 00 00 00 00 00 00
(002.035187)  vcan0  0000014A   [8]  00 00 00 78 08 C8 8A 9C
(002.035398)  vcan0  00000309   [8]  09 9B 00 00 00 00 00 00
(002.035615)  vcan0  0000017C   [8]  2A 2E 00 00 00 00 00 00
(002.041228)  vcan0  00000170   [8]  AC 00 00 00 00 00 00 00
(002.041455)  vcan0  0000017C   [8]  2F E9 00 00 00 00 00 00
(002.041667)  vcan0  00000309   [8]  09 95 00 00 00 00 00 00
(002.041878)  vcan0  0000014A   [8]  00 00 00 77 FE 60 C4 94
(002.046830)  vcan0  00000309   [8]  09 99 00 00 00 00 00 00
(002.047051)  vcan0  0000017C   [8]  2B FD 00 00 00 00 00 00
(002.047263)  vcan0  0000014A   [8]  00 00 00 77 F7 57 6C 34
(002.047471)  vcan0  00000170   [8]  1A 00 00 00 00 00 00 00
(002.052562)  vcan0  0000017C   [8]  31 47 00 00 00 00 00 00
(002.052774)  vcan0  00000309   [8]  09 94 00 00 00 00 00 00
(002.052982)  vcan0  00000170   [8]  40 00 00 00 00 00 00 00
(002.053192)  vcan0  0000014A   [8]  00 00 00 77 EE 39 03 76
(002.058721)  vcan0  00000309   [8]  09 98 00 00 00 00 00 00
(002.058935)  vcan0  00000170   [8]  7A 00 00 00 00 00 00 00
(002.059158)  vcan0  0000017C   [8]  2C ED 00 00 00 00 00 00
(002.059370)  vcan0  0000014A   [8]  00 00 00 77 E4 9C 98 08
(002.064799)  vcan0  00000170   [8]  73 00 00 00 00 00 00 00
(002.065029)  vcan0  0000014A   [8]  00 00 00 77 DE 04 30 92
(002.065252)  vcan0  0000017C   [8]  31 C3 00 00 00 00 00 00
(002.065464)  vcan0  00000309   [8]  09 93 00 00 00 00 00 00
(002.070951)  vcan0  0000014A   [8]  00 00 00 77 D2 98 D1 B0
(002.071182)  vcan0  0000017C   [8]  2C FB 00 00 00 00 00 00
(002.071394)  vcan0  00000309   [8]  09 98 00 00 00 00 00 00
(002.071605)  vcan0  00000170   [8]  B2 00 00 00 00 00 00 00
(002.077163)  vcan0  0000017C   [8]  31 61 00 00 00 00 00 00
(002.077382)  vcan0  00000309   [8]  09 94 00 00 00 00 00 00
(002.077593)  vcan0  00000170   [8]  C9 00 00 00 00 00 00 00
(002.077806)  vcan0  0000014A   [8]  00 00 00 77 CF 38 A7 54
(002.083127)  vcan0  0000014A   [8]  00 00 00 77 C5 75 60 CA
(002.083343)  vcan0  00000309   [8]  09 99 00 00 00 00 00 00
(002.083564)  vcan0  0000017C   [8]  2C 32 00 00 00 00 00 00
(002.083774)  vcan0  00000170   [8]  61 00 00 00 00 00 00 00
(002.088970)  vcan0  00000309   [8]  09 95 00 00 00 00 00 00
(002.089184)  vcan0  0000014A   [8]  00 00 00 77 BE FF 9A 5A
(002.089404)  vcan0  0000017C   [8]  30 34 00 00 00 00 00 00
(002.089612)  vcan0  00000170   [8]  98 00 00 00 00 00 00 00
(002.094697)  vcan0  00000170   [8]  FF 00 00 00 00 00 00 00
(002.094930)  vcan0  0000014A   [8]  00 00 00 77 BA 8A AA 22
(002.095143)  vcan0  00000309   [8]  09 9A 00 00 00 00 00 00
(002.095361)  vcan0  0000017C   [8]  2A AE 00 00 00 00 00 00
(002.100856)  vcan0  00000309   [8]  09 97 00 00 00 00 00 00
(002.101070)  vcan0  00000170   [8]  0F 00 00 00 00 00 00 00
(002.101296)  vcan0  0000017C   [8]  2E 5E 00 00 00 00 00 00
(002.101508)  vcan0  0000014A   [8]  00 00 00 77 B0 64 EC 30
(002.107548)  vcan0  00000309   [8]  09 9D 00 00 00 00 00 00
(002.107775)  vcan0  0000017C   [8]  28 95 00 00 00 00 00 00
(002.107987)  vcan0  0000014A   [8]  00 00 00 77 AE 4E 19 E0
(002.108197)  vcan0  00000170   [8]  F2 00 00 00 00 00 00 00
(002.112998)  vcan0  0000017C   [8]  2C 09 00 00 00 00 00 00
(002.113215)  vcan0  00000309   [8]  09 99 00 00 00 00 00 00
(002.113427)  vcan0  0000014A   [8]  00 00 00 77 A7 80 6F DA
(002.113637)  vcan0  00000170   [8]  7F 00 00 00 00 00 00 00
(002.118755)  vcan0  00000309   [8]  09 9F 00 00 00 00 00 00
(002.118972)  vcan0  0000014A   [8]  00 00 00 77 A1 6D 67 D6
(002.119196)  vcan0  0000017C   [8]  26 16 00 00 00 00 00 00
(002.119406)  vcan0  00000170   [8]  C5 00 00 00 00 00 00 00
(002.125021)  vcan0  0000017C   [8]  29 66 00 00 00 00 00 00
(002.125236)  vcan0  0000014A   [8]  00 00 00 77 9F 23 79 9A
(002.125447)  vcan0  00000309   [8]  09 9C 00 00 00 00 00 00
(002.125657)  vcan0  00000170   [8]  9E 00 00 00 00 00 00 00
(002.131133)  vcan0  00000170   [8]  06 00 00 00 00 00 00 00
(002.131360)  vcan0  0000017C   [8]  23 61 00 00 00 00 00 00
(002.131571)  vcan0  00000309   [8]  09 A2 00 00 00 00 00 00
(002.131781)  vcan0  0000014A   [8]  00 00 00 77 97 E0 A3 6C
(002.137183)  vcan0  0000014A   [8]  00 00 00 77 91 35 9F 14
(002.137397)  vcan0  00000309   [8]  09 9E 00 00 00 00 00 00
(002.137606)  vcan0  00000170   [8]  52 00 00 00 00 00 00 00
(002.137823)  vcan0  0000017C   [8]  26 A7 00 00 00 00 00 00
(002.142895)  vcan0  00000309   [8]  09 A4 00 00 00 00 00 00
(002.143110)  vcan0  00000170   [8]  21 00 00 00 00 00 00 00
(002.143322)  vcan0  0000014A   [8]  00 00 00 77 90 E8 C4 E4
(002.143541)  vcan0  0000017C   [8]  20 A8 00 00 00 00 00 00
(002.148828)  vcan0  00000170   [8]  84 00 00 00 00 00 00 00
(002.149064)  vcan0  0000017C   [8]  23 FB 00 00 00 00 00 00
(002.149281)  vcan0  00000309   [8]  09 A1 00 00 00 00 00 00
(002.149493)  vcan0  0000014A   [8]  00 00 00 00 5B 54 BC A0
(002.155039)  vcan0  0000017C   [8]  1E 9A 00 00 00 00 00 00
(002.155254)  vcan0  00000170   [8]  01 00 00 00 00 00 00 00
(002.155468)  vcan0  0000014A   [8]  00 00 00 4B C7 FE E0 2E
(002.155678)  vcan0  00000309   [8]  09 A6 00 00 00 00 00 00
(002.160931)  vcan0  0000014A   [8]  00 00 00 4C 5B F1 6F BE
(002.161145)  vcan0  00000309   [8]  09 A3 00 00 00 00 00 00
(002.161355)  vcan0  00000170   [8]  2D 00 00 00 00 00 00 00
(002.161573)  vcan0  0000017C   [8]  21 CA 00 00 00 00 00 00
(002.166873)  vcan0  0000017C   [8]  1C 6C 00 00 00 00 00 00
(002.167096)  vcan0  00000170   [8]  B4 00 00 00 00 00 00 00
(002.167310)  vcan0  0000014A   [8]  00 00 00 4D 4A A1 38 36
(002.167522)  vcan0  00000309   [8]  09 A8 00 00 00 00 00 00
(002.173065)  vcan0  0000014A   [8]  00 00 00 4E 17 30 08 62
(002.173281)  vcan0  00000202   [8]  00 3B 00 00 00 00 00 00
(002.173489)  vcan0  00000170   [8]  98 00 00 00 00 00 00 00
(002.173705)  vcan0  00000309   [8]  09 A5 00 00 00 00 00 00
(002.173929)  vcan0  0000017C   [8]  20 0D 00 00 00 00 00 00
(002.178981)  vcan0  0000014A   [8]  00 00 00 4F 2E 6B 1D 6A
(002.179205)  vcan0  0000017C   [8]  1A C0 00 00 00 00 00 00
(002.179415)  vcan0  00000170   [8]  57 00 00 00 00 00 00 00
(002.179625)  vcan0  00000309   [8]  09 AA 00 00 00 00 00 00
(002.184784)  vcan0  0000014A   [8]  00 00 00 50 1F B3 56 A4
(002.185010)  vcan0  00000170   [8]  5C 00 00 00 00 00 00 00
(002.185225)  vcan0  00000309   [8]  09 A6 00 00 00 00 00 00
(002.185446)  vcan0  0000017C   [8]  1E 9C 00 00 00 00 00 00
(002.190868)  vcan0  00000309   [8]  09 AB 00 00 00 00 00 00
(002.191084)  vcan0  00000170   [8]  82 00 00 00 00 00 00 00
(002.191309)  vcan0  0000017C   [8]  19 7C 00 00 00 00 00 00
(002.191522)  vcan0  0000014A   [8]  00 00 00 51 4E 61 AA EC
(002.197004)  vcan0  0000014A   [8]  00 00 00 52 53 49 11 1C
(002.197249)  vcan0  00000326   [8]  00 00 00 00 00 00 00 00
(002.197483)  vcan0  000001A4   [8]  00 67 00 00 00 00 00 00
(002.197718)  vcan0  0000017C   [8]  1D 9D 00 00 00 00 00 00
(002.197935)  vcan0  0000018F   [8]  00 00 C9 00 00 00 00 00
(002.198174)  vcan0  00000374   [8]  00 00 00 00 00 00 00 00
(002.198409)  vcan0  000001A3   [8]  00 00 00 00 00 00 00 00
(002.198621)  vcan0  00000170   [8]  95 00 00 00 00 00 00 00
(002.198835)  vcan0  00000309   [8]  09 A7 00 00 00 00 00 00
(002.199049)  vcan0  0000037B   [8]  00 00 00 00 00 00 00 00
(002.202899)  vcan0  00000170   [8]  43 00 00 00 00 00 00 00
(002.203137)  vcan0  0000014A   [8]  00 00 00 53 8F 08 02 1E
(002.203361)  vcan0  00000309   [8]  09 AC 00 00 00 00 00 00
(002.203596)  vcan0  0000017C   [8]  18 B4 00 00 00 00 00 00
(002.208845)  vcan0  0000014A   [8]  00 00 00 54 A7 E8 13 CA
(002.209074)  vcan0  0000017C   [8]  1D 18 00 00 00 00 00 00
(002.209285)  vcan0  00000170   [8]  07 00 00 00 00 00 00 00
(002.209496)  vcan0  00000309   [8]  09 A8 00 00 00 00 00 00
(002.214949)  vcan0  0000017C   [8]  18 6A 00 00 00 00 00 00
(002.215162)  vcan0  00000170   [8]  0D 00 00 00 00 00 00 00
(002.215381)  vcan0  0000014A   [8]  00 00 00 55 F5 C3 FC 8E
(002.215592)  vcan0  00000309   [8]  09 AC 00 00 00 00 00 00
(002.220806)  vcan0  00000309   [8]  09 A8 00 00 00 00 00 00
(002.221022)  vcan0  0000014A   [8]  00 00 00 57 0E 80 B1 C6
(002.221231)  vcan0  00000170   [8]  E7 00 00 00 00 00 00 00
(002.221449)  vcan0  0000017C   [8]  1D 10 00 00 00 00 00 00
(002.226867)  vcan0  0000017C   [8]  18 9A 00 00 00 00 00 00
(002.227083)  vcan0  00000309   [8]  09 AC 00 00 00 00 00 00
(002.227303)  vcan0  0000014A   [8]  00 00 00 58 55 67 03 40
(002.227515)  vcan0  00000170   [8]  9C 00 00 00 00 00 00 00
(002.232714)  vcan0  00000170   [8]  AC 00 00 00 00 00 00 00
(002.232939)  vcan0  0000014A   [8]  00 00 00 59 6A 9F 64 C2
(002.233151)  vcan0  00000309   [8]  09 A7 00 00 00 00 00 00
(002.233369)  vcan0  0000017C   [8]  1D 7B 00 00 00 00 00 00
(002.239189)  vcan0  0000014A   [8]  00 00 00 5A A7 84 48 A2
(002.239417)  vcan0  0000017C   [8]  19 36 00 00 00 00 00 00
(002.239628)  vcan0  00000309   [8]  09 AB 00 00 00 00 00 00
(002.239838)  vcan0  00000170   [8]  9B 00 00 00 00 00 00 00
(002.245692)  vcan0  00000309   [8]  09 A6 00 00 00 00 00 00
(002.245916)  vcan0  0000017C   [8]  1E 4A 00 00 00 00 00 00
(002.246125)  vcan0  00000170   [8]  95 00 00 00 00 00 00 00
(002.246336)  vcan0  0000014A   [8]  00 00 00 5B B0 E5 35 AA
(002.251668)  vcan0  00000309   [8]  09 AA 00 00 00 00 00 00
(002.251914)  vcan0  0000014A   [8]  00 00 00 5C DE 44 FD 86
(002.252130)  vcan0  00000170   [8]  E8 00 00 00 00 00 00 00
(002.252353)  vcan0  0000017C   [8]  1A 2F 00 00 00 00 00 00
(002.257309)  vcan0  00000170   [8]  92 00 00 00 00 00 00 00
(002.257545)  vcan0  0000017C   [8]  1F 6B 00 00 00 00 00 00
(002.257757)  vcan0  00000309   [8]  09 A5 00 00 00 00 00 00
(002.257968)  vcan0  0000014A   [8]  00 00 00 5D DD 9A 97 C4
(002.263080)  vcan0  00000170   [8]  85 00 00 00 00 00 00 00
(002.263307)  vcan0  00000309   [8]  09 A9 00 00 00 00 00 00
(002.263529)  vcan0  0000017C   [8]  1B 6E 00 00 00 00 00 00
(002.263739)  vcan0  0000014A   [8]  00 00 00 5E FB B6 74 EC
(002.268979)  vcan0  0000014A   [8]  00 00 00 5F EE 03 28 D6
(002.269205)  vcan0  0000017C   [8]  20 C6 00 00 00 00 00 00
(002.269418)  vcan0  00000309   [8]  09 A4 00 00 00 00 00 00
(002.269628)  vcan0  00000170   [8]  45 00 00 00 00 00 00 00
(002.274731)  vcan0  00000309   [8]  09 A8 00 00 00 00 00 00
(002.274948)  vcan0  0000014A   [8]  00 00 00 60 F9 BC 5A 1A
(002.275157)  vcan0  00000170   [8]  63 00 00 00 00 00 00 00
(002.275377)  vcan0  0000017C   [8]  1C DB 00 00 00 00 00 00
(002.280691)  vcan0  0000014A   [8]  00 00 00 61 DA 7F A4 B6
(002.280911)  vcan0  0000017C   [8]  22 44 00 00 00 00 00 00
(002.281120)  vcan0  00000170   [8]  9B 00 00 00 00 00 00 00
(002.281330)  vcan0  00000309   [8]  09 A2 00 00 00 00 00 00
(002.286655)  vcan0  00000170   [8]  57 00 00 00 00 00 00 00
(002.286881)  vcan0  0000017C   [8]  1E 5E 00 00 00 00 00 00
(002.287091)  vcan0  00000309   [8]  09 A6 00 00 00 00 00 00
(002.287301)  vcan0  0000014A   [8]  00 00 00 62 D5 4E 0A 52
(002.293057)  vcan0  00000309   [8]  09 A1 00 00 00 00 00 00
(002.293277)  vcan0  0000017C   [8]  23 C9 00 00 00 00 00 00
(002.293485)  vcan0  00000170   [8]  4F 00 00 00 00 00 00 00
(002.293695)  vcan0  0000014A   [8]  00 00 00 63 A8 82 FD B4
(002.298650)  vcan0  00000309   [8]  09 A5 00 00 00 00 00 00
(002.298862)  vcan0  00000170   [8]  9F 00 00 00 00 00 00 00
(002.299080)  vcan0  0000017C   [8]  1F DD 00 00 00 00 00 00
(002.299290)  vcan0  0000014A   [8]  00 00 00 64 92 01 2A 66
(002.304674)  vcan0  00000309   [8]  09 A0 00 00 00 00 00 00
(002.304885)  vcan0  00000170   [8]  48 00 00 00 00 00 00 00
(002.305103)  vcan0  0000017C   [8]  25 3F 00 00 00 00 00 00
(002.305312)  vcan0  0000014A   [8]  00 00 00 65 52 B0 CF B2
(002.310777)  vcan0  00000309   [8]  09 A4 00 00 00 00 00 00
(002.311006)  vcan0  0000017C   [8]  21 41 00 00 00 00 00 00
(002.311218)  vcan0  00000170   [8]  2D 00 00 00 00 00 00 00
(002.311430)  vcan0  0000014A   [8]  00 00 00 66 2F 39 5E 14
(002.317348)  vcan0  0000017C   [8]  26 8E 00 00 00 00 00 00
(002.317565)  vcan0  0000014A   [8]  00 00 00 66 E1 83 4D D8
(002.317775)  vcan0  00000309   [8]  09 9E 00 00 00 00 00 00
(002.317984)  vcan0  00000170   [8]  93 00 00 00 00 00 00 00
(002.323873)  vcan0  00000170   [8]  7B 00 00 00 00 00 00 00
(002.324111)  vcan0  00000309   [8]  09 A2 00 00 00 00 00 00
(002.324335)  vcan0  0000014A   [8]  00 00 00 67 AA 86 CE 2C
(002.324571)  vcan0  0000017C   [8]  22 76 00 00 00 00 00 00
(002.331990)  vcan0  0000017C   [8]  27 A6 00 00 00 00 00 00
(002.332207)  vcan0  00000170   [8]  82 00 00 00 00 00 00 00
(002.332419)  vcan0  00000309   [8]  09 9D 00 00 00 00 00 00
(002.332629)  vcan0  0000014A   [8]  00 00 00 68 50 57 40 5C
(002.335387)  vcan0  0000014A   [8]  00 00 00 69 03 CC AA 9A
(002.335600)  vcan0  00000170   [8]  51 00 00 00 00 00 00 00
(002.335812)  vcan0  00000309   [8]  09 A1 00 00 00 00 00 00
(002.336033)  vcan0  0000017C   [8]  23 6C 00 00 00 00 00 00
(002.340872)  vcan0  00000309   [8]  09 9C 00 00 00 00 00 00
(002.341088)  vcan0  0000014A   [8]  00 00 00 69 A4 EB 0D 2E
(002.341308)  vcan0  0000017C   [8]  28 77 00 00 00 00 00 00
(002.341576)  vcan0  00000170   [8]  FE 00 00 00 00 00 00 00
(002.347307)  vcan0  0000014A   [8]  00 00 00 6A 49 0D 6A 6A
(002.347533)  vcan0  0000017C   [8]  24 17 00 00 00 00 00 00
(002.347744)  vcan0  00000309   [8]  09 A1 00 00 00 00 00 00
(002.347954)  vcan0  00000170   [8]  8A 00 00 00 00 00 00 00
(002.353073)  vcan0  00000309   [8]  09 9C 00 00 00 00 00 00
(002.353292)  vcan0  0000014A   [8]  00 00 00 6A D9 D0 7C B6
(002.353501)  vcan0  00000170   [8]  8F 00 00 00 00 00 00 00
(002.353721)  vcan0  0000017C   [8]  28 FA 00 00 00 00 00 00
(002.358858)  vcan0  0000017C   [8]  24 72 00 00 00 00 00 00
(002.359077)  vcan0  00000309   [8]  09 A0 00 00 00 00 00 00
(002.359318)  vcan0  0000014A   [8]  00 00 00 6B 70 2F C2 88
(002.359532)  vcan0  00000170   [8]  0B 00 00 00 00 00 00 00
(002.364965)  vcan0  0000014A   [8]  00 00 00 6B F5 36 84 06
(002.365192)  vcan0  0000017C   [8]  29 2B 00 00 00 00 00 00
(002.365403)  vcan0  00000309   [8]  09 9C 00 00 00 00 00 00
(002.365613)  vcan0  00000170   [8]  C2 00 00 00 00 00 00 00
(002.371464)  vcan0  0000017C   [8]  24 7B 00 00 00 00 00 00
(002.371681)  vcan0  00000309   [8]  09 A0 00 00 00 00 00 00
(002.371890)  vcan0  00000170   [8]  25 00 00 00 00 00 00 00
(002.372103)  vcan0  0000014A   [8]  00 00 00 6C 81 EB 16 FA
(002.377236)  vcan0  0000017C   [8]  29 0C 00 00 00 00 00 00
(002.377448)  vcan0  00000170   [8]  79 00 00 00 00 00 00 00
(002.377661)  vcan0  00000309   [8]  09 9C 00 00 00 00 00 00
(002.377872)  vcan0  0000014A   [8]  00 00 00 6C F8 AA 0A 68
(002.383365)  vcan0  00000309   [8]  09 A1 00 00 00 00 00 00
(002.383589)  vcan0  0000017C   [8]  24 37 00 00 00 00 00 00
(002.383798)  vcan0  00000170   [8]  78 00 00 00 00 00 00 00
(002.384009)  vcan0  0000014A   [8]  00 00 00 6D 7A 04 F6 06
(002.388789)  vcan0  0000017C   [8]  28 A5 00 00 00 00 00 00
(002.389008)  vcan0  00000170   [8]  7F 00 00 00 00 00 00 00
(002.389223)  vcan0  00000309   [8]  09 9C 00 00 00 00 00 00
(002.389434)  vcan0  0000014A   [8]  00 00 00 6D E5 B3 B5 84
(002.394938)  vcan0  00000170   [8]  04 00 00 00 00 00 00 00
(002.395170)  vcan0  0000017C   [8]  23 B2 00 00 00 00 00 00
(002.395382)  vcan0  0000014A   [8]  01 FF FF F6 B0 1F 7B C6
(002.395595)  vcan0  00000309   [8]  09 A1 00 00 00 00 00 00
(002.401032)  vcan0  00000170   [8]  BC 00 00 00 00 00 00 00
(002.401255)  vcan0  00000309   [8]  09 9D 00 00 00 00 00 00
(002.401468)  vcan0  0000014A   [8]  00 00 00 01 63 54 7C DE
(002.401687)  vcan0  0000017C   [8]  28 07 00 00 00 00 00 00
(002.406749)  vcan0  0000014A   [8]  00 00 00 02 22 5B A7 72
(002.406984)  vcan0  0000017C   [8]  23 79 00 00 00 00 00 00
(002.407194)  vcan0  00000170   [8]  D9 00 00 00 00 00 00 00
(002.407404)  vcan0  00000309   [8]  09 A1 00 00 00 00 00 00
(002.412733)  vcan0  00000170   [8]  C2 00 00 00 00 00 00 00
(002.412953)  vcan0  0000014A   [8]  00 00 00 03 19 48 02 7A
(002.413172)  vcan0  0000017C   [8]  27 94 00 00 00 00 00 00
(002.413382)  vcan0  00000309   [8]  09 9D 00 00 00 00 00 00
(002.419252)  vcan0  00000170   [8]  B0 00 00 00 00 00 00 00
(002.419483)  vcan0  0000017C   [8]  24 11 00 00 00 00 00 00
(002.419695)  vcan0  0000014A   [8]  00 00 00 05 39 D7 F0 8C
(002.419905)  vcan0  00000309   [8]  09 A1 00 00 00 00 00 00
(002.420113)  vcan0  00000202   [8]  00 59 00 00 00 00 00 00
(002.424836)  vcan0  00000170   [8]  7B 00 00 00 00 00 00 00
(002.425056)  vcan0  0000014A   [8]  00 00 00 07 34 62 62 72
(002.425279)  vcan0  0000017C   [8]  27 DB 00 00 00 00 00 00
(002.425489)  vcan0  00000309   [8]  09 9D 00 00 00 00 00 00
(002.430576)  vcan0  0000017C   [8]  24 21 00 00 00 00 00 00
(002.430789)  vcan0  0000014A   [8]  00 00 00 0A 07 39 C6 FC
(002.430998)  vcan0  00000170   [8]  82 00 00 00 00 00 00 00
(002.431207)  vcan0  00000309   [8]  09 A1 00 00 00 00 00 00
(002.436548)  vcan0  00000170   [8]  D1 00 00 00 00 00 00 00
(002.436767)  vcan0  00000309   [8]  09 9D 00 00 00 00 00 00
(002.436986)  vcan0  0000017C   [8]  28 1C 00 00 00 00 00 00
(002.437195)  vcan0  0000014A   [8]  00 00 00 0C 69 55 CF CE
(002.442932)  vcan0  0000014A   [8]  00 00 00 0F 86 3D 2F 94
(002.443153)  vcan0  0000017C   [8]  23 BB 00 00 00 00 00 00
(002.443362)  vcan0  00000170   [8]  D1 00 00 00 00 00 00 00
(002.443571)  vcan0  00000309   [8]  09 A1 00 00 00 00 00 00
(002.449092)  vcan0  00000309   [8]  09 9D 00 00 00 00 00 00
(002.449316)  vcan0  00000170   [8]  B9 00 00 00 00 00 00 00
(002.449541)  vcan0  0000014A   [8]  00 00 00 12 25 B7 77 CE
(002.449776)  vcan0  0000017C   [8]  27 BC 00 00 00 00 00 00
(002.454972)  vcan0  0000017C   [8]  22 F0 00 00 00 00 00 00
(002.455190)  vcan0  0000014A   [8]  00 00 00 15 8A B4 FF BA
(002.455402)  vcan0  00000309   [8]  09 A2 00 00 00 00 00 00
(002.455611)  vcan0  00000170   [8]  38 00 00 00 00 00 00 00
(002.461546)  vcan0  0000017C   [8]  26 EA 00 00 00 00 00 00
(002.461761)  vcan0  00000170   [8]  EA 00 00 00 00 00 00 00
(002.461972)  vcan0  00000309   [8]  09 9E 00 00 00 00 00 00
(002.462184)  vcan0  0000014A   [8]  00 00 00 18 6E AD 2C BC
(002.467225)  vcan0  0000014A   [8]  00 00 00 1B E2 0B C2 18
(002.467471)  vcan0  0000017C   [8]  21 DE 00 00 00 00 00 00
(002.467709)  vcan0  00000170   [8]  7A 00 00 00 00 00 00 00
(002.467947)  vcan0  00000309   [8]  09 A3 00 00 00 00 00 00
(002.473030)  vcan0  00000170   [8]  D8 00 00 00 00 00 00 00
(002.473257)  vcan0  00000309   [8]  09 9F 00 00 00 00 00 00
(002.473484)  vcan0  0000017C   [8]  25 D3 00 00 00 00 00 00
(002.473696)  vcan0  0000014A   [8]  00 00 00 1E CA 6B 6A 98
(002.478961)  vcan0  00000309   [8]  09 A4 00 00 00 00 00 00
(002.479189)  vcan0  0000017C   [8]  20 A6 00 00 00 00 00 00
(002.479401)  vcan0  00000170   [8]  3C 00 00 00 00 00 00 00
(002.479614)  vcan0  0000014A   [8]  00 00 00 22 31 18 44 1E
(002.484917)  vcan0  0000017C   [8]  24 9B 00 00 00 00 00 00
(002.485135)  vcan0  00000309   [8]  09 A0 00 00 00 00 00 00
(002.485379)  vcan0  0000014A   [8]  00 00 00 25 13 90 DA 7A
(002.485590)  vcan0  00000170   [8]  0C 00 00 00 00 00 00 00
(002.490846)  vcan0  00000170   [8]  56 00 00 00 00 00 00 00
(002.491079)  vcan0  0000017C   [8]  1F 65 00 00 00 00 00 00
(002.491292)  vcan0  00000309   [8]  09 A5 00 00 00 00 00 00
(002.491558)  vcan0  0000014A   [8]  00 00 00 28 60 39 00 22
(002.496768)  vcan0  0000014A   [8]  00 00 00 2B 2E 59 BF 98
(002.496998)  vcan0  00000309   [8]  09 A1 00 00 00 00 00 00
(002.497237)  vcan0  0000017C   [8]  23 64 00 00 00 00 00 00
(002.497467)  vcan0  00000170   [8]  88 00 00 00 00 00 00 00
(002.502764)  vcan0  0000014A   [8]  00 00 00 2E 5B D6 7F 90
(002.502979)  vcan0  00000170   [8]  29 00 00 00 00 00 00 00
(002.503191)  vcan0  00000309   [8]  09 A7 00 00 00 00 00 00
(002.503411)  vcan0  0000017C   [8]  1E 37 00 00 00 00 00 00
(002.508886)  vcan0  00000170   [8]  E9 00 00 00 00 00 00 00
(002.509125)  vcan0  0000017C   [8]  22 49 00 00 00 00 00 00
(002.509338)  vcan0  00000309   [8]  09 A3 00 00 00 00 00 00
(002.509550)  vcan0  0000014A   [8]  00 00 00 31 0B 96 1E E2
(002.515243)  vcan0  0000014A   [8]  00 00 00 34 10 5B 55 6A
(002.515460)  vcan0  00000309   [8]  09 A8 00 00 00 00 00 00
(002.515670)  vcan0  00000170   [8]  BE 00 00 00 00 00 00 00
(002.515888)  vcan0  0000017C   [8]  1D 31 00 00 00 00 00 00
(002.521150)  vcan0  0000017C   [8]  21 5E 00 00 00 00 00 00
(002.521367)  vcan0  0000014A   [8]  00 00 00 36 9D 97 E7 FC
(002.521578)  vcan0  00000170   [8]  6C 00 00 00 00 00 00 00
(002.521789)  vcan0  00000309   [8]  09 A3 00 00 00 00 00 00
(002.526836)  vcan0  00000170   [8]  E2 00 00 00 00 00 00 00
(002.527062)  vcan0  00000309   [8]  09 A8 00 00 00 00 00 00
(002.527288)  vcan0  0000017C   [8]  1C 64 00 00 00 00 00 00
(002.527500)  vcan0  0000014A   [8]  00 00 00 39 74 44 F8 9A
(002.533005)  vcan0  0000017C   [8]  20 B3 00 00 00 00 00 00
(002.533219)  vcan0  00000170   [8]  AB 00 00 00 00 00 00 00
(002.533432)  vcan0  0000014A   [8]  00 00 00 3B DD EC A0 76
(002.533683)  vcan0  00000309   [8]  09 A4 00 00 00 00 00 00
(002.538858)  vcan0  0000014A   [8]  00 00 00 3E 87 05 AC D0
(002.539077)  vcan0  00000309   [8]  09 A9 00 00 00 00 00 00
(002.539330)  vcan0  0000017C   [8]  1B DB 00 00 00 00 00 00
(002.539540)  vcan0  00000170   [8]  5E 00 00 00 00 00 00 00
(002.545173)  vcan0  00000170   [8]  8F 00 00 00 00 00 00 00
(002.545400)  vcan0  00000309   [8]  09 A4 00 00 00 00 00 00
(002.545615)  vcan0  0000014A   [8]  00 00 00 40 C7 2E 6E C0
(002.545834)  vcan0  0000017C   [8]  20 4E 00 00 00 00 00 00
(002.550805)  vcan0  00000309   [8]  09 A9 00 00 00 00 00 00
(002.551017)  vcan0  00000170   [8]  33 00 00 00 00 00 00 00
(002.551230)  vcan0  0000014A   [8]  00 00 00 43 45 AD B1 8C
(002.551448)  vcan0  0000017C   [8]  1B 9A 00 00 00 00 00 00
(002.556804)  vcan0  0000017C   [8]  20 33 00 00 00 00 00 00
(002.557028)  vcan0  00000170   [8]  08 00 00 00 00 00 00 00
(002.557254)  vcan0  00000309   [8]  09 A5 00 00 00 00 00 00
(002.557478)  vcan0  0000014A   [8]  00 00 00 45 5E D9 4A DE
(002.562829)  vcan0  00000309   [8]  09 A9 00 00 00 00 00 00
(002.563056)  vcan0  0000017C   [8]  1B A2 00 00 00 00 00 00
(002.563271)  vcan0  0000014A   [8]  00 00 00 47 AA 49 70 E8
(002.563481)  vcan0  00000170   [8]  4B 00 00 00 00 00 00 00
(002.568761)  vcan0  00000309   [8]  09 A4 00 00 00 00 00 00
(002.568983)  vcan0  0000014A   [8]  00 00 00 49 A0 BE C4 74
(002.569195)  vcan0  00000170   [8]  1E 00 00 00 00 00 00 00
(002.569419)  vcan0  0000017C   [8]  20 5E 00 00 00 00 00 00
(002.574688)  vcan0  0000014A   [8]  00 00 00 4B C1 4A 0A 6E
(002.574921)  vcan0  0000017C   [8]  1B EB 00 00 00 00 00 00
(002.575132)  vcan0  00000309   [8]  09 A9 00 00 00 00 00 00
(002.575343)  vcan0  00000170   [8]  A7 00 00 00 00 00 00 00
(002.580688)  vcan0  00000309   [8]  09 A4 00 00 00 00 00 00
(002.580916)  vcan0  0000017C   [8]  20 C6 00 00 00 00 00 00
(002.581127)  vcan0  0000014A   [8]  00 00 00 4D 93 A6 07 1E
(002.581338)  vcan0  00000170   [8]  EF 00 00 00 00 00 00 00
(002.587191)  vcan0  0000014A   [8]  00 00 00 4F 8A 12 54 FC
(002.587404)  vcan0  00000170   [8]  34 00 00 00 00 00 00 00
(002.587623)  vcan0  0000017C   [8]  1C 6D 00 00 00 00 00 00
(002.587833)  vcan0  00000309   [8]  09 A8 00 00 00 00 00 00
(002.592870)  vcan0  0000014A   [8]  00 00 00 51 31 04 70 76
(002.593081)  vcan0  00000170   [8]  87 00 00 00 00 00 00 00
(002.593301)  vcan0  0000017C   [8]  21 61 00 00 00 00 00 00
(002.593511)  vcan0  00000309   [8]  09 A3 00 00 00 00 00 00
(002.598968)  vcan0  00000170   [8]  C9 00 00 00 00 00 00 00
(002.599185)  vcan0  00000309   [8]  09 A8 00 00 00 00 00 00
(002.599396)  vcan0  0000014A   [8]  00 00 00 53 04 67 D0 E8
(002.599613)  vcan0  0000017C   [8]  1D 1A 00 00 00 00 00 00
(002.604805)  vcan0  0000014A   [8]  00 00 00 54 8C 71 51 C8
(002.605017)  vcan0  00000309   [8]  09 A3 00 00 00 00 00 00
(002.605235)  vcan0  0000017C   [8]  22 21 00 00 00 00 00 00
(002.605443)  vcan0  00000170   [8]  28 00 00 00 00 00 00 00
(002.610851)  vcan0  00000170   [8]  1C 00 00 00 00 00 00 00
(002.611069)  vcan0  0000014A   [8]  00 00 00 56 35 65 8B C4
