(000.000000)  vcan0  1FFFFFFF   [8]  00 00 00 00 00 00 00 00
(000.004348)  vcan0  00000202   [8]  00 C2 00 00 00 00 00 00
(000.004599)  vcan0  0000017C   [8]  4B 00 00 00 00 00 00 00
(000.004812)  vcan0  0000014A   [8]  00 00 00 EE 6B 28 1D CE
(000.005024)  vcan0  000001A3   [8]  00 00 00 00 00 00 00 00
(000.005239)  vcan0  00000374   [8]  00 00 00 00 00 00 00 00
(000.005449)  vcan0  00000309   [8]  00 60 00 00 00 00 00 00
(000.005662)  vcan0  00000326   [8]  00 00 00 00 00 00 00 00
(000.005873)  vcan0  0000037B   [8]  00 00 00 00 00 00 00 00
(000.006080)  vcan0  0000018F   [8]  00 00 70 00 00 00 00 00
(000.006285)  vcan0  00000170   [8]  43 00 00 00 00 00 00 00
(000.006513)  vcan0  000001A4   [8]  00 67 00 00 00 00 00 00
(000.009282)  vcan0  0000017C   [8]  4B 00 00 00 00 00 00 00
(000.009503)  vcan0  00000309   [8]  00 7D 00 00 00 00 00 00
(000.009712)  vcan0  00000170   [8]  29 00 00 00 00 00 00 00
(000.009924)  vcan0  0000014A   [8]  00 00 01 65 A0 BC 3B 9A
(000.014265)  vcan0  00000170   [8]  14 00 00 00 00 00 00 00
(000.014510)  vcan0  00000309   [8]  00 99 00 00 00 00 00 00
(000.014750)  vcan0  0000017C   [8]  4B 00 00 00 00 00 00 00
(000.014973)  vcan0  0000014A   [8]  00 00 01 DC D6 50 EE 6C
(000.020803)  vcan0  00000170   [8]  AC 00 00 00 00 00 00 00
(000.021040)  vcan0  0000014A   [8]  00 00 02 54 0B E4 77 36
(000.021279)  vcan0  0000017C   [8]  4B 00 00 00 00 00 00 00
(000.021501)  vcan0  00000309   [8]  00 B5 00 00 00 00 00 00
(000.025993)  vcan0  0000017C   [8]  4B 00 00 00 00 00 00 00
(000.026209)  vcan0  00000309   [8]  00 D1 00 00 00 00 00 00
(000.026417)  vcan0  00000170   [8]  14 00 00 00 00 00 00 00
(000.026627)  vcan0  0000014A   [8]  00 00 02 CB 41 78 00 00
(000.031818)  vcan0  0000014A   [8]  00 00 03 42 77 0D DC D6
(000.032043)  vcan0  0000017C   [8]  4B 00 00 00 00 00 00 00
(000.032255)  vcan0  00000309   [8]  00 ED 00 00 00 00 00 00
(000.032464)  vcan0  00000170   [8]  09 00 00 00 00 00 00 00
(000.037723)  vcan0  00000170   [8]  B0 00 00 00 00 00 00 00
(000.037942)  vcan0  00000309   [8]  01 0A 00 00 00 00 00 00
(000.038163)  vcan0  0000017C   [8]  4B 00 00 00 00 00 00 00
(000.038373)  vcan0  0000014A   [8]  00 00 03 48 BA 62 59 04
(000.043780)  vcan0  0000014A   [8]  00 00 03 49 A5 16 9F A6
(000.043998)  vcan0  00000309   [8]  01 26 00 00 00 00 00 00
(000.044219)  vcan0  0000017C   [8]  4B 00 00 00 00 00 00 00
(000.044427)  vcan0  00000170   [8]  AB 00 00 00 00 00 00 00
(000.049812)  vcan0  0000014A   [8]  00 00 03 4A 8F CA E6 48
(000.050039)  vcan0  0000017C   [8]  4B 00 00 00 00 00 00 00
(000.050250)  vcan0  00000309   [8]  01 42 00 00 00 00 00 00
(000.050458)  vcan0  00000170   [8]  EB 00 00 00 00 00 00 00
(000.056059)  vcan0  00000170   [8]  1F 00 00 00 00 00 00 00
(000.056290)  vcan0  0000017C   [8]  4B 00 00 00 00 00 00 00
(000.056501)  vcan0  00000309   [8]  01 5E 00 00 00 00 00 00
(000.056711)  vcan0  0000014A   [8]  00 00 03 4B 7A 7F 2C EA
(000.062160)  vcan0  00000309   [8]  01 7B 00 00 00 00 00 00
(000.062380)  vcan0  0000017C   [8]  4B 00 00 00 00 00 00 00
(000.062591)  vcan0  0000014A   [8]  00 00 03 4B 7A 7F 2C EA
(000.062799)  vcan0  00000170   [8]  A3 00 00 00 00 00 00 00
(000.067935)  vcan0  00000170   [8]  CB 00 00 00 00 00 00 00
(000.068153)  vcan0  00000309   [8]  01 97 00 00 00 00 00 00
(000.068373)  vcan0  0000017C   [8]  4B 00 00 00 00 00 00 00
(000.068582)  vcan0  0000014A   [8]  00 00 03 4B 7A 7F 2C EA
(000.074332)  vcan0  0000014A   [8]  00 00 03 4B 7A 7F 2C EA
(000.074542)  vcan0  00000170   [8]  82 00 00 00 00 00 00 00
(000.074760)  vcan0  0000017C   [8]  4B 00 00 00 00 00 00 00
(000.074970)  vcan0  00000309   [8]  01 B3 00 00 00 00 00 00
(000.080680)  vcan0  00000309   [8]  01 CF 00 00 00 00 00 00
(000.080895)  vcan0  00000170   [8]  1C 00 00 00 00 00 00 00
(000.081116)  vcan0  0000017C   [8]  4B 00 00 00 00 00 00 00
(000.081327)  vcan0  0000014A   [8]  00 00 03 4B 7A 7F 2C EA
(000.086075)  vcan0  00000309   [8]  01 EB 00 00 00 00 00 00
(000.086292)  vcan0  0000014A   [8]  00 00 03 4B 7A 7F 2C EA
(000.086502)  vcan0  00000170   [8]  2B 00 00 00 00 00 00 00
(000.086721)  vcan0  0000017C   [8]  4B 00 00 00 00 00 00 00
(000.091987)  vcan0  0000017C   [8]  4B 00 00 00 00 00 00 00
(000.092206)  vcan0  00000309   [8]  02 08 00 00 00 00 00 00
(000.092415)  vcan0  00000170   [8]  1F 00 00 00 00 00 00 00
(000.092625)  vcan0  0000014A   [8]  00 00 03 4B 7A 7F 2C EA
(000.097866)  vcan0  00000309   [8]  02 24 00 00 00 00 00 00
(000.098082)  vcan0  0000014A   [8]  00 00 03 4B 7A 7F 2C EA
(000.098291)  vcan0  00000170   [8]  E1 00 00 00 00 00 00 00
(000.098509)  vcan0  0000017C   [8]  4B 00 00 00 00 00 00 00
(000.104258)  vcan0  0000014A   [8]  00 00 03 4B 7A 7F 2C EA
(000.104501)  vcan0  0000017C   [8]  4B 00 00 00 00 00 00 00
(000.104718)  vcan0  00000170   [8]  5E 00 00 00 00 00 00 00
(000.104940)  vcan0  00000309   [8]  02 40 00 00 00 00 00 00
(000.110188)  vcan0  0000017C   [8]  4B 00 00 00 00 00 00 00
(000.110405)  vcan0  00000309   [8]  02 5C 00 00 00 00 00 00
(000.110616)  vcan0  0000014A   [8]  00 00 03 4B 7A 7F 2C EA
(000.110825)  vcan0  00000170   [8]  46 00 00 00 00 00 00 00
(000.116148)  vcan0  00000170   [8]  67 00 00 00 00 00 00 00
(000.116373)  vcan0  0000014A   [8]  00 00 03 4B 7A 7F 2C EA
(000.116586)  vcan0  00000309   [8]  02 79 00 00 00 00 00 00
(000.116807)  vcan0  0000017C   [8]  4B 00 00 00 00 00 00 00
(000.122217)  vcan0  0000014A   [8]  00 00 03 4B 7A 7F 2C EA
(000.122433)  vcan0  00000309   [8]  02 95 00 00 00 00 00 00
(000.122652)  vcan0  0000017C   [8]  4B 00 00 00 00 00 00 00
(000.122860)  vcan0  00000170   [8]  0E 00 00 00 00 00 00 00
(000.128358)  vcan0  00000170   [8]  73 00 00 00 00 00 00 00
(000.128587)  vcan0  0000017C   [8]  4B 00 00 00 00 00 00 00
(000.128798)  vcan0  00000309   [8]  02 B1 00 00 00 00 00 00
(000.129008)  vcan0  0000014A   [8]  00 00 03 4B 7A 7F 2C EA
(000.134299)  vcan0  0000014A   [8]  00 00 03 4B 7A 7F 2C EA
(000.134512)  vcan0  00000309   [8]  02 CD 00 00 00 00 00 00
(000.134720)  vcan0  00000170   [8]  91 00 00 00 00 00 00 00
(000.134938)  vcan0  0000017C   [8]  4B 00 00 00 00 00 00 00
(000.140668)  vcan0  0000014A   [8]  00 00 03 4B 7A 7F 2C EA
(000.140881)  vcan0  00000170   [8]  93 00 00 00 00 00 00 00
(000.141093)  vcan0  00000309   [8]  02 EA 00 00 00 00 00 00
(000.141313)  vcan0  0000017C   [8]  4B 00 00 00 00 00 00 00
(000.146927)  vcan0  0000017C   [8]  4B 00 00 00 00 00 00 00
(000.147142)  vcan0  0000014A   [8]  00 00 03 4B 7A 7F 2C EA
(000.147352)  vcan0  00000309   [8]  03 06 00 00 00 00 00 00
(000.147560)  vcan0  00000170   [8]  30 00 00 00 00 00 00 00
(000.152335)  vcan0  0000014A   [8]  00 00 03 4B 7A 7F 2C EA
(000.152558)  vcan0  0000017C   [8]  4B 00 00 00 00 00 00 00
(000.152769)  vcan0  00000309   [8]  03 22 00 00 00 00 00 00
(000.152977)  vcan0  00000170   [8]  AE 00 00 00 00 00 00 00
(000.157972)  vcan0  0000014A   [8]  00 00 03 4B 7A 7F 2C EA
(000.158183)  vcan0  00000170   [8]  D9 00 00 00 00 00 00 00
(000.158394)  vcan0  00000309   [8]  03 3E 00 00 00 00 00 00
(000.158612)  vcan0  0000017C   [8]  4B 00 00 00 00 00 00 00
(000.164216)  vcan0  0000017C   [8]  4B 00 00 00 00 00 00 00
(000.164438)  vcan0  00000170   [8]  CC 00 00 00 00 00 00 00
(000.164662)  vcan0  0000014A   [8]  00 00 03 4B 7A 7F 2C EA
(000.164883)  vcan0  00000309   [8]  03 5A 00 00 00 00 00 00
(000.170157)  vcan0  0000014A   [8]  00 00 03 4B 7A 7F 2C EA
(000.170373)  vcan0  00000309   [8]  03 77 00 00 00 00 00 00
(000.170592)  vcan0  0000017C   [8]  4B 00 00 00 00 00 00 00
(000.170801)  vcan0  00000170   [8]  C0 00 00 00 00 00 00 00
(000.175894)  vcan0  00000309   [8]  03 93 00 00 00 00 00 00
(000.176108)  vcan0  00000170   [8]  C7 00 00 00 00 00 00 00
(000.176329)  vcan0  0000017C   [8]  4B 00 00 00 00 00 00 00
(000.176540)  vcan0  0000014A   [8]  00 00 03 4B 7A 7F 2C EA
(000.181987)  vcan0  0000014A   [8]  00 00 03 4B 7A 7F 2C EA
(000.182205)  vcan0  00000309   [8]  03 AF 00 00 00 00 00 00
(000.182424)  vcan0  0000017C   [8]  4B 00 00 00 00 00 00 00
(000.182632)  vcan0  00000170   [8]  65 00 00 00 00 00 00 00
(000.187922)  vcan0  0000017C   [8]  4B 00 00 00 00 00 00 00
(000.188138)  vcan0  0000014A   [8]  00 00 03 4B 7A 7F 2C EA
(000.188348)  vcan0  00000170   [8]  49 00 00 00 00 00 00 00
(000.188558)  vcan0  00000309   [8]  03 CB 00 00 00 00 00 00
(000.194119)  vcan0  0000017C   [8]  4B 00 00 00 00 00 00 00
(000.194329)  vcan0  00000170   [8]  C8 00 00 00 00 00 00 00
(000.194540)  vcan0  0000014A   [8]  00 00 03 4B 7A 7F 2C EA
(000.194749)  vcan0  00000309   [8]  03 E8 00 00 00 00 00 00
(000.199862)  vcan0  00000309   [8]  04 04 00 00 00 00 00 00
(000.200075)  vcan0  00000170   [8]  9E 00 00 00 00 00 00 00
(000.200296)  vcan0  0000017C   [8]  4B 00 00 00 00 00 00 00
(000.200507)  vcan0  0000014A   [8]  00 00 03 4B 7A 7F 2C EA
(000.205885)  vcan0  00000309   [8]  04 20 00 00 00 00 00 00
(000.206098)  vcan0  00000170   [8]  5A 00 00 00 00 00 00 00
(000.206311)  vcan0  0000014A   [8]  00 00 03 4B 7A 7F 2C EA
(000.206530)  vcan0  0000017C   [8]  4B 00 00 00 00 00 00 00
(000.211904)  vcan0  00000309   [8]  04 3C 00 00 00 00 00 00
(000.212130)  vcan0  00000170   [8]  9B 00 00 00 00 00 00 00
(000.212351)  vcan0  0000017C   [8]  4B 00 00 00 00 00 00 00
(000.212561)  vcan0  0000014A   [8]  00 00 03 4B 7A 7F 2C EA
(000.218002)  vcan0  00000309   [8]  03 B6 00 00 00 00 00 00
(000.218226)  vcan0  0000017C   [8]  4B 00 00 00 00 00 00 00
(000.218434)  vcan0  00000170   [8]  C2 00 00 00 00 00 00 00
(000.218644)  vcan0  0000014A   [8]  00 00 03 4B 7A 7F 2C EA
(000.224305)  vcan0  00000170   [8]  0C 00 00 00 00 00 00 00
(000.224534)  vcan0  0000017C   [8]  4B 00 00 00 00 00 00 00
(000.224746)  vcan0  0000014A   [8]  00 00 03 4B 7A 7F 2C EA
(000.224955)  vcan0  00000309   [8]  03 3D 00 00 00 00 00 00
(000.230422)  vcan0  0000017C   [8]  4B 00 00 00 00 00 00 00
(000.230637)  vcan0  00000309   [8]  02 D1 00 00 00 00 00 00
(000.230847)  vcan0  0000014A   [8]  00 00 03 4B 7A 7F 2C EA
(000.231055)  vcan0  00000170   [8]  C6 00 00 00 00 00 00 00
(000.236797)  vcan0  0000017C   [8]  4B 00 00 00 00 00 00 00
(000.237010)  vcan0  00000309   [8]  02 70 00 00 00 00 00 00
(000.237218)  vcan0  00000170   [8]  98 00 00 00 00 00 00 00
(000.237428)  vcan0  0000014A   [8]  00 00 03 4B 7A 7F 2C EA
(000.242355)  vcan0  0000014A   [8]  00 00 03 4B 7A 7F 2C EA
(000.242570)  vcan0  00000309   [8]  02 19 00 00 00 00 00 00
(000.242778)  vcan0  00000170   [8]  39 00 00 00 00 00 00 00
(000.243000)  vcan0  0000017C   [8]  4B 00 00 00 00 00 00 00
(000.248275)  vcan0  00000202   [8]  00 75 00 00 00 00 00 00
(000.248506)  vcan0  0000017C   [8]  4B 00 00 00 00 00 00 00
(000.248718)  vcan0  00000309   [8]  01 CB 00 00 00 00 00 00
(000.248929)  vcan0  0000014A   [8]  00 00 03 4B 7A 7F 2C EA
(000.249136)  vcan0  00000170   [8]  C3 00 00 00 00 00 00 00
(000.254529)  vcan0  0000014A   [8]  00 00 03 4B 7A 7F 2C EA
(000.254741)  vcan0  00000170   [8]  1D 00 00 00 00 00 00 00
(000.254953)  vcan0  00000309   [8]  01 86 00 00 00 00 00 00
(000.255172)  vcan0  0000017C   [8]  4B 00 00 00 00 00 00 00
(000.261025)  vcan0  00000309   [8]  01 48 00 00 00 00 00 00
(000.261236)  vcan0  00000170   [8]  AD 00 00 00 00 00 00 00
(000.261456)  vcan0  0000017C   [8]  4B 00 00 00 00 00 00 00
(000.261666)  vcan0  0000014A   [8]  00 00 03 4B 7A 7F 2C EA
(000.266838)  vcan0  0000014A   [8]  00 00 03 4B 7A 7F 2C EA
(000.267169)  vcan0  0000017C   [8]  4B 00 00 00 00 00 00 00
(000.267381)  vcan0  00000170   [8]  89 00 00 00 00 00 00 00
(000.267593)  vcan0  00000309   [8]  01 11 00 00 00 00 00 00
(000.272312)  vcan0  00000309   [8]  00 E1 00 00 00 00 00 00
(000.272537)  vcan0  0000017C   [8]  4B 00 00 00 00 00 00 00
(000.272746)  vcan0  00000170   [8]  97 00 00 00 00 00 00 00
(000.272957)  vcan0  0000014A   [8]  00 00 03 4B 7A 7F 2C EA
(000.277979)  vcan0  00000309   [8]  00 B6 00 00 00 00 00 00
(000.278206)  vcan0  0000017C   [8]  4B 00 00 00 00 00 00 00
(000.278419)  vcan0  0000014A   [8]  00 00 03 4B 7A 7F 2C EA
(000.278629)  vcan0  00000170   [8]  50 00 00 00 00 00 00 00
(000.284126)  vcan0  00000309   [8]  00 90 00 00 00 00 00 00
(000.284341)  vcan0  0000014A   [8]  00 00 03 4B 7A 7F 2C EA
(000.284561)  vcan0  0000017C   [8]  4B 00 00 00 00 00 00 00
(000.284769)  vcan0  00000170   [8]  85 00 00 00 00 00 00 00
(000.290224)  vcan0  0000014A   [8]  00 00 03 4B 7A 7F 2C EA
(000.290438)  vcan0  00000309   [8]  00 6E 00 00 00 00 00 00
(000.290646)  vcan0  00000170   [8]  71 00 00 00 00 00 00 00
(000.290864)  vcan0  0000017C   [8]  4B 00 00 00 00 00 00 00
(000.296331)  vcan0  0000017C   [8]  4B 00 00 00 00 00 00 00
(000.296546)  vcan0  00000309   [8]  00 51 00 00 00 00 00 00
(000.296755)  vcan0  00000170   [8]  05 00 00 00 00 00 00 00
(000.296965)  vcan0  0000014A   [8]  00 00 03 4B 7A 7F 2C EA
(000.302557)  vcan0  00000309   [8]  00 37 00 00 00 00 00 00
(000.302772)  vcan0  0000014A   [8]  00 00 03 4B 7A 7F 2C EA
(000.302980)  vcan0  00000170   [8]  2C 00 00 00 00 00 00 00
(000.303200)  vcan0  0000017C   [8]  4B 00 00 00 00 00 00 00
(000.307983)  vcan0  0000017C   [8]  4B 00 00 00 00 00 00 00
(000.308199)  vcan0  00000309   [8]  00 21 00 00 00 00 00 00
(000.308411)  vcan0  0000014A   [8]  00 00 03 4B 7A 7F 2C EA
(000.308621)  vcan0  00000170   [8]  0E 00 00 00 00 00 00 00
(000.313900)  vcan0  00000170   [8]  BC 00 00 00 00 00 00 00
(000.314119)  vcan0  0000014A   [8]  00 00 03 4B 7A 7F 2C EA
(000.314347)  vcan0  0000017C   [8]  4B 00 00 00 00 00 00 00
(000.314556)  vcan0  00000309   [8]  00 0D 00 00 00 00 00 00
(000.319994)  vcan0  00000309   [8]  00 04 00 00 00 00 00 00
(000.320208)  vcan0  00000170   [8]  D0 00 00 00 00 00 00 00
(000.320421)  vcan0  0000014A   [8]  00 00 03 4B 7A 7F 2C EA
(000.320641)  vcan0  0000017C   [8]  4B 00 00 00 00 00 00 00
(000.326052)  vcan0  0000017C   [8]  4B 00 00 00 00 00 00 00
(000.326265)  vcan0  00000170   [8]  10 00 00 00 00 00 00 00
(000.326478)  vcan0  0000014A   [8]  00 00 03 4B 7A 7F 2C EA
(000.326688)  vcan0  00000309   [8]  00 12 00 00 00 00 00 00
(000.332020)  vcan0  0000014A   [8]  00 00 03 4B 7A 7F 2C EA
(000.332244)  vcan0  0000017C   [8]  4B 00 00 00 00 00 00 00
(000.332456)  vcan0  00000309   [8]  00 1F 00 00 00 00 00 00
(000.332664)  vcan0  00000170   [8]  A2 00 00 00 00 00 00 00
(000.339069)  vcan0  00000309   [8]  00 29 00 00 00 00 00 00
(000.339283)  vcan0  00000170   [8]  65 00 00 00 00 00 00 00
(000.339504)  vcan0  0000017C   [8]  4B 00 00 00 00 00 00 00
(000.339715)  vcan0  0000014A   [8]  00 00 03 4B 7A 7F 2C EA
(000.344824)  vcan0  00000170   [8]  2C 00 00 00 00 00 00 00
(000.345044)  vcan0  00000309   [8]  00 32 00 00 00 00 00 00
(000.345262)  vcan0  0000017C   [8]  4B 00 00 00 00 00 00 00
(000.345471)  vcan0  0000014A   [8]  00 00 03 4B 7A 7F 2C EA
(000.350025)  vcan0  00000170   [8]  A0 00 00 00 00 00 00 00
(000.350247)  vcan0  0000014A   [8]  00 00 03 4B 7A 7F 2C EA
(000.350469)  vcan0  0000017C   [8]  4B 00 00 00 00 00 00 00
(000.350679)  vcan0  00000309   [8]  00 39 00 00 00 00 00 00
(000.356001)  vcan0  00000170   [8]  4F 00 00 00 00 00 00 00
(000.356221)  vcan0  00000309   [8]  00 3F 00 00 00 00 00 00
(000.356442)  vcan0  0000017C   [8]  4B 00 00 00 00 00 00 00
(000.356652)  vcan0  0000014A   [8]  00 00 03 4B 7A 7F 2C EA
(000.361925)  vcan0  0000017C   [8]  4B 00 00 00 00 00 00 00
(000.362140)  vcan0  00000309   [8]  00 44 00 00 00 00 00 00
(000.362349)  vcan0  00000170   [8]  07 00 00 00 00 00 00 00
(000.362560)  vcan0  0000014A   [8]  00 00 03 4B 7A 7F 2C EA
(000.368145)  vcan0  00000170   [8]  6F 00 00 00 00 00 00 00
(000.368368)  vcan0  0000014A   [8]  00 00 03 4B 7A 7F 2C EA
(000.368589)  vcan0  0000017C   [8]  4B 00 00 00 00 00 00 00
(000.368799)  vcan0  00000309   [8]  00 48 00 00 00 00 00 00
(000.374947)  vcan0  0000017C   [8]  4B 00 00 00 00 00 00 00
(000.375162)  vcan0  0000014A   [8]  00 00 03 4B 7A 7F 2C EA
(000.375372)  vcan0  00000309   [8]  00 4B 00 00 00 00 00 00
(000.375579)  vcan0  00000170   [8]  0A 00 00 00 00 00 00 00
(000.380811)  vcan0  0000017C   [8]  4B 00 00 00 00 00 00 00
(000.381027)  vcan0  00000309   [8]  00 4D 00 00 00 00 00 00
(000.381237)  vcan0  0000014A   [8]  00 00 03 4B 7A 7F 2C EA
(000.381445)  vcan0  00000170   [8]  B9 00 00 00 00 00 00 00
(000.386376)  vcan0  0000017C   [8]  4B 00 00 00 00 00 00 00
(000.386591)  vcan0  00000309   [8]  00 4E 00 00 00 00 00 00
(000.386802)  vcan0  0000014A   [8]  00 00 03 4B 7A 7F 2C EA
(000.387010)  vcan0  00000170   [8]  3F 00 00 00 00 00 00 00
(000.392423)  vcan0  00000309   [8]  00 4F 00 00 00 00 00 00
(000.392636)  vcan0  00000170   [8]  C6 00 00 00 00 00 00 00
(000.392858)  vcan0  0000017C   [8]  4B 00 00 00 00 00 00 00
(000.393068)  vcan0  0000014A   [8]  00 00 03 4B 74 4B 45 3C
(000.398173)  vcan0  0000014A   [8]  00 00 03 48 46 75 C0 FE
(000.398385)  vcan0  00000170   [8]  BE 00 00 00 00 00 00 00
(000.398607)  vcan0  0000017C   [8]  4B 00 00 00 00 00 00 00
(000.398818)  vcan0  00000309   [8]  00 6D 00 00 00 00 00 00
(000.404371)  vcan0  00000170   [8]  D3 00 00 00 00 00 00 00
(000.404594)  vcan0  00000309   [8]  00 8D 00 00 00 00 00 00
(000.404807)  vcan0  0000014A   [8]  00 00 03 46 DD BC 76 C8
(000.405026)  vcan0  0000017C   [8]  4B 00 00 00 00 00 00 00
(000.410212)  vcan0  00000309   [8]  00 C8 00 00 00 00 00 00
(000.410424)  vcan0  00000170   [8]  7B 00 00 00 00 00 00 00
(000.410637)  vcan0  0000014A   [8]  00 00 03 42 AC 67 B5 4C
(000.410856)  vcan0  0000017C   [8]  4B 00 00 00 00 00 00 00
(000.416339)  vcan0  0000014A   [8]  00 00 03 3E 60 EF 66 52
(000.416567)  vcan0  0000017C   [8]  4B 00 00 00 00 00 00 00
(000.416778)  vcan0  00000309   [8]  00 FE 00 00 00 00 00 00
(000.416986)  vcan0  00000170   [8]  4B 00 00 00 00 00 00 00
(000.422067)  vcan0  00000309   [8]  01 15 00 00 00 00 00 00
(000.422293)  vcan0  0000017C   [8]  4B 00 00 00 00 00 00 00
(000.422504)  vcan0  0000014A   [8]  00 00 03 3A 66 84 F5 4A
(000.422712)  vcan0  00000170   [8]  DC 00 00 00 00 00 00 00
(000.428154)  vcan0  00000170   [8]  E3 00 00 00 00 00 00 00
(000.428382)  vcan0  0000017C   [8]  4B 00 00 00 00 00 00 00
(000.428594)  vcan0  0000014A   [8]  00 00 03 36 30 88 1C 06
(000.428804)  vcan0  00000309   [8]  01 47 00 00 00 00 00 00
(000.454916)  vcan0  00000309   [8]  01 76 00 00 00 00 00 00
(000.455132)  vcan0  00000170   [8]  14 00 00 00 00 00 00 00
(000.455360)  vcan0  0000017C   [8]  4B 00 00 00 00 00 00 00
(000.455574)  vcan0  0000014A   [8]  00 00 03 31 28 B4 93 1E
(000.457848)  vcan0  00000309   [8]  01 A0 00 00 00 00 00 00
(000.458076)  vcan0  0000017C   [8]  4B 00 00 00 00 00 00 00
(000.458286)  vcan0  00000170   [8]  E2 00 00 00 00 00 00 00
(000.458498)  vcan0  0000014A   [8]  00 00 03 2B B2 31 8C F0
(000.463177)  vcan0  0000017C   [8]  4B 00 00 00 00 00 00 00
(000.463394)  vcan0  0000014A   [8]  00 00 03 26 A8 EE 24 B0
(000.463604)  vcan0  00000309   [8]  01 C0 00 00 00 00 00 00
(000.463813)  vcan0  00000170   [8]  74 00 00 00 00 00 00 00
(000.468950)  vcan0  0000014A   [8]  00 00 03 20 66 53 EC 38
(000.469173)  vcan0  0000017C   [8]  4B 00 00 00 00 00 00 00
(000.469383)  vcan0  00000309   [8]  01 EA 00 00 00 00 00 00
(000.469592)  vcan0  00000170   [8]  B1 00 00 00 00 00 00 00
(000.474981)  vcan0  00000170   [8]  1E 00 00 00 00 00 00 00
(000.475211)  vcan0  0000017C   [8]  4B 00 00 00 00 00 00 00
(000.475423)  vcan0  00000309   [8]  02 0C 00 00 00 00 00 00
(000.475632)  vcan0  0000014A   [8]  00 00 03 1A 29 8B D1 7C
(000.481122)  vcan0  00000170   [8]  96 00 00 00 00 00 00 00
(000.481343)  vcan0  00000309   [8]  02 2D 00 00 00 00 00 00
(000.481563)  vcan0  0000017C   [8]  4B 00 00 00 00 00 00 00
(000.481773)  vcan0  0000014A   [8]  00 00 03 13 E0 6E 87 C2
(000.487017)  vcan0  00000309   [8]  02 4C 00 00 00 00 00 00
(000.487228)  vcan0  00000170   [8]  03 00 00 00 00 00 00 00
(000.487447)  vcan0  0000017C   [8]  4B 00 00 00 00 00 00 00
(000.487657)  vcan0  0000014A   [8]  00 00 03 0D 04 11 F6 0C
(000.493084)  vcan0  00000309   [8]  02 65 00 00 00 00 00 00
(000.493296)  vcan0  0000014A   [8]  00 00 03 06 DE FD 6C 5A
(000.493504)  vcan0  00000170   [8]  55 00 00 00 00 00 00 00
(000.493723)  vcan0  0000017C   [8]  4B 00 00 00 00 00 00 00
(000.499104)  vcan0  0000014A   [8]  00 00 02 FF 7A E9 DD 8C
(000.499328)  vcan0  0000017C   [8]  4B 00 00 00 00 00 00 00
(000.499540)  vcan0  00000309   [8]  02 83 00 00 00 00 00 00
(000.499748)  vcan0  00000170   [8]  7E 00 00 00 00 00 00 00
(000.504985)  vcan0  0000014A   [8]  00 00 02 F8 E7 D2 22 04
(000.505218)  vcan0  0000017C   [8]  4B 00 00 00 00 00 00 00
(000.505430)  vcan0  00000309   [8]  02 9B 00 00 00 00 00 00
(000.505656)  vcan0  00000170   [8]  B5 00 00 00 00 00 00 00
(000.510978)  vcan0  00000170   [8]  A8 00 00 00 00 00 00 00
(000.511205)  vcan0  0000014A   [8]  00 00 02 F1 36 33 6F 34
(000.511417)  vcan0  00000309   [8]  02 B6 00 00 00 00 00 00
(000.511624)  vcan0  00000202   [8]  00 C2 00 00 00 00 00 00
(000.511843)  vcan0  0000017C   [8]  4B 00 00 00 00 00 00 00
(000.516843)  vcan0  0000014A   [8]  00 00 02 EA 57 74 D9 52
(000.517067)  vcan0  0000017C   [8]  4B 00 00 00 00 00 00 00
(000.517280)  vcan0  000001A3   [8]  00 00 00 00 00 00 00 00
(000.517487)  vcan0  00000170   [8]  F0 00 00 00 00 00 00 00
(000.517699)  vcan0  00000309   [8]  02 CD 00 00 00 00 00 00
(000.517906)  vcan0  0000018F   [8]  00 00 3B 00 00 00 00 00
(000.522896)  vcan0  0000014A   [8]  00 00 02 E2 61 34 C0 02
(000.523124)  vcan0  0000017C   [8]  4B 00 00 00 00 00 00 00
(000.523337)  vcan0  00000309   [8]  02 E5 00 00 00 00 00 00
(000.523545)  vcan0  00000170   [8]  B7 00 00 00 00 00 00 00
(000.529063)  vcan0  00000170   [8]  0D 00 00 00 00 00 00 00
(000.529295)  vcan0  0000017C   [8]  4B 00 00 00 00 00 00 00
(000.529507)  vcan0  00000309   [8]  02 FB 00 00 00 00 00 00
(000.529716)  vcan0  0000014A   [8]  00 00 02 DB 3E EC 29 34
(000.535349)  vcan0  0000014A   [8]  00 00 02 D3 1B 5C 70 7E
(000.535580)  vcan0  00000309   [8]  03 11 00 00 00 00 00 00
(000.535798)  vcan0  00000170   [8]  37 00 00 00 00 00 00 00
(000.536037)  vcan0  0000017C   [8]  4B 00 00 00 00 00 00 00
(000.541886)  vcan0  0000017C   [8]  4B 00 00 00 00 00 00 00
(000.542104)  vcan0  00000309   [8]  03 26 00 00 00 00 00 00
(000.542315)  vcan0  0000014A   [8]  00 00 02 CB BF C7 85 10
(000.542523)  vcan0  00000170   [8]  51 00 00 00 00 00 00 00
(000.547376)  vcan0  00000170   [8]  06 00 00 00 00 00 00 00
(000.547598)  vcan0  0000014A   [8]  00 00 02 C3 76 43 C6 86
(000.547811)  vcan0  00000309   [8]  03 3B 00 00 00 00 00 00
(000.548030)  vcan0  0000017C   [8]  4B 00 00 00 00 00 00 00
(000.553518)  vcan0  00000170   [8]  BA 00 00 00 00 00 00 00
(000.553739)  vcan0  00000309   [8]  03 4F 00 00 00 00 00 00
(000.553983)  vcan0  0000017C   [8]  4B 00 00 00 00 00 00 00
(000.554200)  vcan0  0000014A   [8]  00 00 02 BB EC 2B E5 92
(000.559636)  vcan0  0000017C   [8]  4B 00 00 00 00 00 00 00
(000.559853)  vcan0  00000309   [8]  03 63 00 00 00 00 00 00
(000.560065)  vcan0  0000014A   [8]  00 00 02 B3 87 97 1C CC
(000.560276)  vcan0  00000170   [8]  20 00 00 00 00 00 00 00
(000.565147)  vcan0  0000014A   [8]  00 00 02 AB D3 39 43 F4
(000.565377)  vcan0  0000017C   [8]  4B 00 00 00 00 00 00 00
(000.565587)  vcan0  00000170   [8]  53 00 00 00 00 00 00 00
(000.565798)  vcan0  00000309   [8]  03 76 00 00 00 00 00 00
(000.571239)  vcan0  0000017C   [8]  4B 00 00 00 00 00 00 00
(000.571451)  vcan0  00000170   [8]  10 00 00 00 00 00 00 00
(000.571664)  vcan0  0000014A   [8]  00 00 02 A3 60 D6 1C AC
(000.571873)  vcan0  00000309   [8]  03 89 00 00 00 00 00 00
(000.577168)  vcan0  00000170   [8]  3C 00 00 00 00 00 00 00
(000.577397)  vcan0  0000017C   [8]  4B 00 00 00 00 00 00 00
(000.577609)  vcan0  0000014A   [8]  00 00 02 9B 8E 3A A5 64
(000.577819)  vcan0  00000309   [8]  03 9C 00 00 00 00 00 00
(000.583340)  vcan0  0000017C   [8]  4B 00 00 00 00 00 00 00
(000.583551)  vcan0  00000170   [8]  CA 00 00 00 00 00 00 00
(000.583762)  vcan0  00000309   [8]  03 AD 00 00 00 00 00 00
(000.583970)  vcan0  0000014A   [8]  00 00 02 93 13 B8 50 A2
(000.589563)  vcan0  0000017C   [8]  4B 00 00 00 00 00 00 00
(000.589779)  vcan0  0000014A   [8]  00 00 02 8B 1F 4E 88 B4
(000.589991)  vcan0  00000170   [8]  91 00 00 00 00 00 00 00
(000.590201)  vcan0  00000309   [8]  03 C0 00 00 00 00 00 00
(000.595443)  vcan0  0000014A   [8]  00 00 02 82 A5 01 C1 04
(000.595667)  vcan0  0000017C   [8]  4B 00 00 00 00 00 00 00
(000.595876)  vcan0  00000170   [8]  F0 00 00 00 00 00 00 00
(000.596087)  vcan0  00000309   [8]  03 D1 00 00 00 00 00 00
(000.601502)  vcan0  00000170   [8]  1D 00 00 00 00 00 00 00
(000.601732)  vcan0  0000017C   [8]  4B 00 00 00 00 00 00 00
(000.601943)  vcan0  00000309   [8]  03 E3 00 00 00 00 00 00
(000.602152)  vcan0  0000014A   [8]  00 00 02 7A A0 E7 A4 F6
(000.607360)  vcan0  00000309   [8]  03 F3 00 00 00 00 00 00
(000.607574)  vcan0  0000014A   [8]  00 00 02 72 27 8D 02 1A
(000.607792)  vcan0  0000017C   [8]  4B 00 00 00 00 00 00 00
(000.608001)  vcan0  00000170   [8]  FC 00 00 00 00 00 00 00
(000.612957)  vcan0  00000170   [8]  23 00 00 00 00 00 00 00
(000.613179)  vcan0  0000014A   [8]  00 00 02 6A 14 B4 B6 C2
(000.613400)  vcan0  0000017C   [8]  4B 00 00 00 00 00 00 00
(000.613611)  vcan0  00000309   [8]  04 05 00 00 00 00 00 00
(000.619137)  vcan0  00000309   [8]  04 15 00 00 00 00 00 00
(000.619351)  vcan0  00000170   [8]  34 00 00 00 00 00 00 00
(000.619564)  vcan0  0000014A   [8]  00 00 02 61 A7 E4 CF F4
(000.619784)  vcan0  0000017C   [8]  4B 00 00 00 00 00 00 00
(000.624910)  vcan0  00000309   [8]  04 26 00 00 00 00 00 00
(000.625123)  vcan0  00000170   [8]  36 00 00 00 00 00 00 00
(000.625344)  vcan0  0000017C   [8]  4B 00 00 00 00 00 00 00
(000.625555)  vcan0  0000014A   [8]  00 00 02 59 8A 12 40 8C
(000.631020)  vcan0  0000014A   [8]  00 00 02 51 30 F5 76 58
(000.631245)  vcan0  0000017C   [8]  4B 00 00 00 00 00 00 00
(000.631454)  vcan0  00000170   [8]  B3 00 00 00 00 00 00 00
(000.631666)  vcan0  00000309   [8]  04 36 00 00 00 00 00 00
(000.636899)  vcan0  00000170   [8]  F9 00 00 00 00 00 00 00
(000.637118)  vcan0  00000309   [8]  04 47 00 00 00 00 00 00
(000.637338)  vcan0  0000017C   [8]  4B 00 00 00 00 00 00 00
(000.637550)  vcan0  0000014A   [8]  00 00 02 49 0E 8B 1B 7A
(000.643092)  vcan0  0000017C   [8]  4B 00 00 00 00 00 00 00
(000.643308)  vcan0  0000014A   [8]  00 00 02 40 C7 9E EE 2C
(000.643518)  vcan0  00000309   [8]  04 56 00 00 00 00 00 00
(000.643727)  vcan0  00000170   [8]  22 00 00 00 00 00 00 00
(000.648992)  vcan0  00000170   [8]  E6 00 00 00 00 00 00 00
(000.649216)  vcan0  0000014A   [8]  00 00 02 38 A3 49 4D 82
(000.649429)  vcan0  00000309   [8]  04 66 00 00 00 00 00 00
(000.649648)  vcan0  0000017C   [8]  4B 00 00 00 00 00 00 00
(000.655374)  vcan0  00000309   [8]  04 75 00 00 00 00 00 00
(000.655604)  vcan0  0000014A   [8]  00 00 02 30 75 8E 88 DE
(000.655822)  vcan0  00000170   [8]  C9 00 00 00 00 00 00 00
(000.656060)  vcan0  0000017C   [8]  4B 00 00 00 00 00 00 00
(000.661270)  vcan0  00000170   [8]  2D 00 00 00 00 00 00 00
(000.661493)  vcan0  0000014A   [8]  00 00 02 28 5F 00 4A 92
(000.661714)  vcan0  0000017C   [8]  4B 00 00 00 00 00 00 00
(000.661926)  vcan0  00000309   [8]  04 85 00 00 00 00 00 00
(000.667069)  vcan0  00000309   [8]  04 94 00 00 00 00 00 00
(000.667287)  vcan0  0000014A   [8]  00 00 02 20 4E 95 A7 A0
(000.667508)  vcan0  0000017C   [8]  4B 00 00 00 00 00 00 00
(000.667717)  vcan0  00000170   [8]  DF 00 00 00 00 00 00 00
(000.674017)  vcan0  00000170   [8]  22 00 00 00 00 00 00 00
(000.674247)  vcan0  0000014A   [8]  00 00 02 18 4B B5 DD D8
(000.674459)  vcan0  00000309   [8]  04 A3 00 00 00 00 00 00
(000.674677)  vcan0  0000017C   [8]  4B 00 00 00 00 00 00 00
(000.680045)  vcan0  0000017C   [8]  4B 00 00 00 00 00 00 00
(000.680260)  vcan0  00000309   [8]  04 B2 00 00 00 00 00 00
(000.680471)  vcan0  0000014A   [8]  00 00 02 10 53 28 B4 C8
(000.680679)  vcan0  00000170   [8]  D9 00 00 00 00 00 00 00
(000.685574)  vcan0  00000170   [8]  A4 00 00 00 00 00 00 00
(000.685801)  vcan0  0000017C   [8]  4B 00 00 00 00 00 00 00
(000.686012)  vcan0  0000014A   [8]  00 00 02 08 6A 11 AA AE
(000.686221)  vcan0  00000309   [8]  04 C1 00 00 00 00 00 00
(000.692263)  vcan0  00000309   [8]  04 D0 00 00 00 00 00 00
(000.692487)  vcan0  00000170   [8]  E9 00 00 00 00 00 00 00
(000.692727)  vcan0  0000017C   [8]  4B 00 00 00 00 00 00 00
(000.692951)  vcan0  0000014A   [8]  00 00 02 00 90 EC 25 FE
(000.697577)  vcan0  00000309   [8]  04 DF 00 00 00 00 00 00
(000.697790)  vcan0  00000170   [8]  1C 00 00 00 00 00 00 00
(000.698011)  vcan0  0000017C   [8]  4B 00 00 00 00 00 00 00
(000.698222)  vcan0  0000014A   [8]  00 00 01 F8 C6 AE B9 72
(000.703056)  vcan0  0000014A   [8]  00 00 01 F1 0A 05 76 3C
(000.703272)  vcan0  00000309   [8]  04 ED 00 00 00 00 00 00
(000.703480)  vcan0  00000170   [8]  43 00 00 00 00 00 00 00
(000.703758)  vcan0  0000017C   [8]  4B 00 00 00 00 00 00 00
(000.709839)  vcan0  0000017C   [8]  4B 00 00 00 00 00 00 00
(000.710054)  vcan0  00000309   [8]  04 FC 00 00 00 00 00 00
(000.710264)  vcan0  00000170   [8]  14 00 00 00 00 00 00 00
(000.710474)  vcan0  0000014A   [8]  00 00 01 E9 62 50 9E 0C
(000.715393)  vcan0  0000017C   [8]  4B 00 00 00 00 00 00 00
(000.715610)  vcan0  0000014A   [8]  00 00 01 E1 C9 26 BC 20
(000.715821)  vcan0  00000170   [8]  48 00 00 00 00 00 00 00
(000.716033)  vcan0  00000309   [8]  05 0A 00 00 00 00 00 00
(000.721164)  vcan0  00000309   [8]  05 19 00 00 00 00 00 00
(000.721419)  vcan0  0000017C   [8]  4B 00 00 00 00 00 00 00
(000.721630)  vcan0  0000014A   [8]  00 00 01 DA 44 1D 64 FE
(000.721839)  vcan0  00000170   [8]  DA 00 00 00 00 00 00 00
(000.727161)  vcan0  00000309   [8]  05 27 00 00 00 00 00 00
(000.727491)  vcan0  0000017C   [8]  4B 00 00 00 00 00 00 00
(000.727703)  vcan0  0000014A   [8]  00 00 01 D2 D2 7E FD 08
(000.727912)  vcan0  00000170   [8]  90 00 00 00 00 00 00 00
(000.733058)  vcan0  00000309   [8]  05 35 00 00 00 00 00 00
(000.733273)  vcan0  00000170   [8]  A7 00 00 00 00 00 00 00
(000.733486)  vcan0  0000014A   [8]  00 00 01 CB 71 25 EC 28
(000.733706)  vcan0  0000017C   [8]  4B 00 00 00 00 00 00 00
(000.739048)  vcan0  00000309   [8]  05 43 00 00 00 00 00 00
(000.739285)  vcan0  0000014A   [8]  00 00 01 C4 25 AC 6E FE
(000.739495)  vcan0  00000170   [8]  55 00 00 00 00 00 00 00
(000.739715)  vcan0  0000017C   [8]  4B 00 00 00 00 00 00 00
(000.745421)  vcan0  00000309   [8]  05 51 00 00 00 00 00 00
(000.745639)  vcan0  0000014A   [8]  00 00 01 BC EB 22 40 52
(000.745858)  vcan0  0000017C   [8]  4B 00 00 00 00 00 00 00
(000.746067)  vcan0  00000170   [8]  6F 00 00 00 00 00 00 00
(000.751207)  vcan0  00000170   [8]  E5 00 00 00 00 00 00 00
(000.751429)  vcan0  0000014A   [8]  00 00 01 B5 C7 50 2D AA
(000.751650)  vcan0  0000017C   [8]  4B 00 00 00 00 00 00 00
(000.751860)  vcan0  00000309   [8]  05 5F 00 00 00 00 00 00
(000.757451)  vcan0  00000170   [8]  1A 00 00 00 00 00 00 00
(000.757697)  vcan0  00000309   [8]  05 6D 00 00 00 00 00 00
(000.757916)  vcan0  00000202   [8]  00 B6 00 00 00 00 00 00
(000.758144)  vcan0  0000014A   [8]  00 00 01 AE B7 F2 77 7A
(000.758375)  vcan0  0000017C   [8]  4B 00 00 00 00 00 00 00
(000.763729)  vcan0  0000017C   [8]  4B 00 00 00 00 00 00 00
(000.763942)  vcan0  00000170   [8]  45 00 00 00 00 00 00 00
(000.764154)  vcan0  0000014A   [8]  00 00 01 A7 BB 76 51 B6
(000.764364)  vcan0  00000309   [8]  05 7B 00 00 00 00 00 00
(000.769317)  vcan0  00000170   [8]  66 00 00 00 00 00 00 00
(000.769536)  vcan0  00000309   [8]  05 89 00 00 00 00 00 00
(000.769756)  vcan0  0000017C   [8]  4B 00 00 00 00 00 00 00
(000.769966)  vcan0  0000014A   [8]  00 00 01 A0 DC CB 86 3A
(000.775096)  vcan0  00000170   [8]  F6 00 00 00 00 00 00 00
(000.775325)  vcan0  0000017C   [8]  4B 00 00 00 00 00 00 00
(000.775536)  vcan0  0000014A   [8]  00 00 01 9A 0A 79 67 CA
(000.775746)  vcan0  00000309   [8]  05 96 00 00 00 00 00 00
(000.781361)  vcan0  0000014A   [8]  00 00 01 93 50 9E 6E 4E
(000.781577)  vcan0  00000309   [8]  05 A4 00 00 00 00 00 00
(000.781798)  vcan0  0000017C   [8]  4B 00 00 00 00 00 00 00
(000.782006)  vcan0  00000170   [8]  E8 00 00 00 00 00 00 00
(000.787819)  vcan0  00000309   [8]  05 B2 00 00 00 00 00 00
(000.788033)  vcan0  0000014A   [8]  00 00 01 8C B3 97 06 08
(000.788251)  vcan0  0000017C   [8]  4B 00 00 00 00 00 00 00
(000.788459)  vcan0  00000170   [8]  22 00 00 00 00 00 00 00
(000.793596)  vcan0  0000017C   [8]  4B 00 00 00 00 00 00 00
(000.793812)  vcan0  00000309   [8]  05 BF 00 00 00 00 00 00
(000.794022)  vcan0  0000014A   [8]  00 00 01 86 28 6D 93 00
(000.794230)  vcan0  00000170   [8]  B4 00 00 00 00 00 00 00
(000.799185)  vcan0  0000014A   [8]  00 00 01 7F B1 17 D5 3C
(000.799399)  vcan0  00000170   [8]  73 00 00 00 00 00 00 00
(000.799613)  vcan0  00000309   [8]  05 CD 00 00 00 00 00 00
(000.799832)  vcan0  0000017C   [8]  4B 00 00 00 00 00 00 00
(000.805677)  vcan0  00000309   [8]  05 DB 00 00 00 00 00 00
(000.805900)  vcan0  00000170   [8]  85 00 00 00 00 00 00 00
(000.806128)  vcan0  0000014A   [8]  00 00 01 79 56 7C 0C 2C
(000.806368)  vcan0  0000017C   [8]  4B 00 00 00 00 00 00 00
(000.812273)  vcan0  00000309   [8]  05 E8 00 00 00 00 00 00
(000.812490)  vcan0  0000014A   [8]  00 00 01 73 12 6C 22 40
(000.812700)  vcan0  00000170   [8]  86 00 00 00 00 00 00 00
(000.812920)  vcan0  0000017C   [8]  4B 00 00 00 00 00 00 00
(000.817550)  vcan0  00000170   [8]  D4 00 00 00 00 00 00 00
(000.817773)  vcan0  00000309   [8]  05 F6 00 00 00 00 00 00
(000.817986)  vcan0  0000014A   [8]  00 00 01 6C E6 AC F2 82
(000.818205)  vcan0  0000017C   [8]  4B 00 00 00 00 00 00 00
(000.823751)  vcan0  0000017C   [8]  4B 00 00 00 00 00 00 00
(000.823962)  vcan0  00000170   [8]  75 00 00 00 00 00 00 00
(000.824174)  vcan0  00000309   [8]  06 03 00 00 00 00 00 00
(000.824384)  vcan0  0000014A   [8]  00 00 01 66 CC F7 F4 E4
(000.829827)  vcan0  00000309   [8]  06 11 00 00 00 00 00 00
(000.830041)  vcan0  0000014A   [8]  00 00 01 60 D2 24 BA FE
(000.830248)  vcan0  00000170   [8]  FD 00 00 00 00 00 00 00
(000.830467)  vcan0  0000017C   [8]  4B 00 00 00 00 00 00 00
(000.835205)  vcan0  00000309   [8]  06 1E 00 00 00 00 00 00
(000.835416)  vcan0  00000170   [8]  17 00 00 00 00 00 00 00
(000.835637)  vcan0  0000017C   [8]  4B 00 00 00 00 00 00 00
(000.835847)  vcan0  0000014A   [8]  00 00 01 5A E9 F8 DC 5C
(000.841195)  vcan0  00000309   [8]  06 2B 00 00 00 00 00 00
(000.841406)  vcan0  00000170   [8]  2A 00 00 00 00 00 00 00
(000.841627)  vcan0  0000017C   [8]  4B 00 00 00 00 00 00 00
(000.841837)  vcan0  0000014A   [8]  00 00 01 55 1F A9 FC 3C
(000.847486)  vcan0  00000309   [8]  06 39 00 00 00 00 00 00
(000.847697)  vcan0  00000170   [8]  DE 00 00 00 00 00 00 00
(000.847916)  vcan0  0000017C   [8]  4B 00 00 00 00 00 00 00
(000.848125)  vcan0  0000014A   [8]  00 00 01 4F 6D 0B 2F 14
(000.853405)  vcan0  0000017C   [8]  4B 00 00 00 00 00 00 00
(000.853618)  vcan0  0000014A   [8]  00 00 01 49 CD 6B 0C F0
(000.853828)  vcan0  00000309   [8]  06 46 00 00 00 00 00 00
(000.854036)  vcan0  00000170   [8]  6F 00 00 00 00 00 00 00
(000.859209)  vcan0  0000017C   [8]  4B 00 00 00 00 00 00 00
(000.859427)  vcan0  0000014A   [8]  00 00 01 44 49 2F C6 B0
(000.859638)  vcan0  00000309   [8]  06 53 00 00 00 00 00 00
(000.859847)  vcan0  00000170   [8]  87 00 00 00 00 00 00 00
(000.865048)  vcan0  0000014A   [8]  00 00 01 3E DC 54 3F D0
(000.865272)  vcan0  0000017C   [8]  4B 00 00 00 00 00 00 00
(000.865482)  vcan0  00000309   [8]  06 60 00 00 00 00 00 00
(000.865690)  vcan0  00000170   [8]  77 00 00 00 00 00 00 00
(000.871059)  vcan0  0000014A   [8]  00 00 01 39 88 50 7D D0
(000.871284)  vcan0  0000017C   [8]  4B 00 00 00 00 00 00 00
(000.871493)  vcan0  00000170   [8]  17 00 00 00 00 00 00 00
(000.871703)  vcan0  00000309   [8]  06 6E 00 00 00 00 00 00
(000.877007)  vcan0  00000309   [8]  06 7B 00 00 00 00 00 00
(000.877222)  vcan0  0000014A   [8]  00 00 01 34 4E F9 A8 0C
(000.877441)  vcan0  0000017C   [8]  4B 00 00 00 00 00 00 00
(000.877649)  vcan0  00000170   [8]  DF 00 00 00 00 00 00 00
(000.883033)  vcan0  0000017C   [8]  4B 00 00 00 00 00 00 00
(000.883247)  vcan0  00000309   [8]  06 88 00 00 00 00 00 00
(000.883455)  vcan0  00000170   [8]  72 00 00 00 00 00 00 00
(000.883665)  vcan0  0000014A   [8]  00 00 01 2F 28 70 98 4E
(000.889064)  vcan0  00000309   [8]  06 95 00 00 00 00 00 00
(000.889279)  vcan0  0000014A   [8]  00 00 01 2A 1F 91 4E 0E
(000.889500)  vcan0  0000017C   [8]  4B 00 00 00 00 00 00 00
(000.889709)  vcan0  00000170   [8]  60 00 00 00 00 00 00 00
(000.895252)  vcan0  0000017C   [8]  4B 00 00 00 00 00 00 00
(000.895466)  vcan0  0000014A   [8]  00 00 01 25 2E 0E 45 1A
(000.895676)  vcan0  00000309   [8]  06 A2 00 00 00 00 00 00
(000.895885)  vcan0  00000170   [8]  73 00 00 00 00 00 00 00
(000.901571)  vcan0  00000309   [8]  06 AF 00 00 00 00 00 00
(000.901792)  vcan0  00000170   [8]  68 00 00 00 00 00 00 00
(000.902017)  vcan0  0000014A   [8]  00 00 01 20 58 53 0C 08
(000.902253)  vcan0  0000017C   [8]  4B 00 00 00 00 00 00 00
(000.907576)  vcan0  00000170   [8]  2B 00 00 00 00 00 00 00
(000.907814)  vcan0  0000014A   [8]  00 00 01 1B 91 8B 8F 50
(000.908059)  vcan0  0000017C   [8]  4B 00 00 00 00 00 00 00
(000.908275)  vcan0  00000309   [8]  06 BC 00 00 00 00 00 00
(000.913345)  vcan0  00000170   [8]  01 00 00 00 00 00 00 00
(000.913564)  vcan0  00000309   [8]  06 C9 00 00 00 00 00 00
(000.913775)  vcan0  0000014A   [8]  00 00 01 16 ED 19 6D F0
(000.913996)  vcan0  0000017C   [8]  4B 00 00 00 00 00 00 00
(000.919357)  vcan0  00000170   [8]  C1 00 00 00 00 00 00 00
(000.919589)  vcan0  0000017C   [8]  4B 00 00 00 00 00 00 00
(000.919801)  vcan0  0000014A   [8]  00 00 01 12 56 CA A6 C4
(000.920011)  vcan0  00000309   [8]  06 D6 00 00 00 00 00 00
(000.925208)  vcan0  0000017C   [8]  4B 00 00 00 00 00 00 00
(000.925423)  vcan0  00000170   [8]  69 00 00 00 00 00 00 00
(000.925636)  vcan0  00000309   [8]  06 E3 00 00 00 00 00 00
(000.925845)  vcan0  0000014A   [8]  00 00 01 0D DF E3 83 FA
(000.931802)  vcan0  0000014A   [8]  00 00 01 09 7E 58 68 46
(000.932014)  vcan0  00000170   [8]  DF 00 00 00 00 00 00 00
(000.932234)  vcan0  0000017C   [8]  4B 00 00 00 00 00 00 00
(000.932443)  vcan0  00000309   [8]  06 F0 00 00 00 00 00 00
(000.937503)  vcan0  00000170   [8]  31 00 00 00 00 00 00 00
(000.937734)  vcan0  0000017C   [8]  4B 00 00 00 00 00 00 00
(000.937947)  vcan0  0000014A   [8]  00 00 01 05 33 DF 0C 62
(000.938157)  vcan0  00000309   [8]  06 FD 00 00 00 00 00 00
(000.943622)  vcan0  0000014A   [8]  00 00 01 01 03 06 DB 62
(000.943847)  vcan0  0000017C   [8]  4B 00 00 00 00 00 00 00
(000.944058)  vcan0  00000309   [8]  07 0A 00 00 00 00 00 00
(000.944265)  vcan0  00000170   [8]  15 00 00 00 00 00 00 00
(000.950109)  vcan0  0000014A   [8]  00 00 00 FC E5 B9 9D 30
(000.950320)  vcan0  00000170   [8]  C2 00 00 00 00 00 00 00
(000.950541)  vcan0  0000017C   [8]  4B 00 00 00 00 00 00 00
(000.950751)  vcan0  00000309   [8]  07 17 00 00 00 00 00 00
(000.955417)  vcan0  0000014A   [8]  00 00 00 F8 ED E7 52 68
(000.955631)  vcan0  00000309   [8]  07 24 00 00 00 00 00 00
(000.955850)  vcan0  0000017C   [8]  4B 00 00 00 00 00 00 00
(000.956059)  vcan0  00000170   [8]  C8 00 00 00 00 00 00 00
(000.961205)  vcan0  0000017C   [8]  4B 00 00 00 00 00 00 00
(000.961420)  vcan0  0000014A   [8]  00 00 00 F5 05 69 63 E8
(000.961628)  vcan0  00000170   [8]  34 00 00 00 00 00 00 00
(000.961838)  vcan0  00000309   [8]  07 31 00 00 00 00 00 00
(000.967004)  vcan0  00000309   [8]  07 3E 00 00 00 00 00 00
(000.967230)  vcan0  0000017C   [8]  4B 00 00 00 00 00 00 00
(000.967439)  vcan0  00000170   [8]  8E 00 00 00 00 00 00 00
(000.967651)  vcan0  0000014A   [8]  00 00 00 F1 3A B8 BC 9C
(000.973145)  vcan0  00000309   [8]  07 4A 00 00 00 00 00 00
(000.973370)  vcan0  0000017C   [8]  4B 00 00 00 00 00 00 00
(000.973580)  vcan0  00000170   [8]  80 00 00 00 00 00 00 00
(000.973792)  vcan0  0000014A   [8]  00 00 00 ED 81 55 1A AA
(000.979365)  vcan0  00000309   [8]  07 57 00 00 00 00 00 00
(000.979587)  vcan0  0000017C   [8]  4B 00 00 00 00 00 00 00
(000.979797)  vcan0  00000170   [8]  77 00 00 00 00 00 00 00
(000.980008)  vcan0  0000014A   [8]  00 00 00 E9 E6 16 0F AA
(000.985161)  vcan0  00000309   [8]  07 64 00 00 00 00 00 00
(000.985386)  vcan0  0000017C   [8]  4B 00 00 00 00 00 00 00
(000.985598)  vcan0  0000014A   [8]  00 00 00 E6 3F 41 EB 82
(000.985808)  vcan0  00000170   [8]  4B 00 00 00 00 00 00 00
(000.991392)  vcan0  0000014A   [8]  00 00 00 E3 0E 03 DE DC
(000.991606)  vcan0  00000170   [8]  FF 00 00 00 00 00 00 00
(000.991818)  vcan0  00000309   [8]  07 70 00 00 00 00 00 00
(000.992036)  vcan0  0000017C   [8]  4B 00 00 00 00 00 00 00
(000.997419)  vcan0  0000014A   [8]  00 00 00 DF 11 9F 05 BA
(000.997630)  vcan0  00000170   [8]  DC 00 00 00 00 00 00 00
(000.997851)  vcan0  0000017C   [8]  4B 00 00 00 00 00 00 00
(000.998061)  vcan0  00000309   [8]  07 7D 00 00 00 00 00 00
(001.003300)  vcan0  00000202   [8]  00 CF 00 00 00 00 00 00
(001.003547)  vcan0  0000017C   [8]  4B 00 00 00 00 00 00 00
(001.003758)  vcan0  00000170   [8]  8C 00 00 00 00 00 00 00
(001.003970)  vcan0  00000309   [8]  07 7F 00 00 00 00 00 00
(001.004180)  vcan0  0000014A   [8]  00 00 00 DC A1 D4 0D 06
(001.009146)  vcan0  0000014A   [8]  00 00 00 D8 8A C4 9B B4
(001.009371)  vcan0  0000017C   [8]  4B 00 00 00 00 00 00 00
(001.009580)  vcan0  00000170   [8]  7D 00 00 00 00 00 00 00
(001.009790)  vcan0  00000309   [8]  07 89 00 00 00 00 00 00
(001.015029)  vcan0  000001A3   [8]  00 00 00 00 00 00 00 00
(001.015249)  vcan0  0000014A   [8]  00 00 00 D5 C2 E3 68 26
(001.015469)  vcan0  0000017C   [8]  4B 00 00 00 00 00 00 00
(001.015678)  vcan0  00000170   [8]  97 00 00 00 00 00 00 00
(001.015894)  vcan0  00000326   [8]  00 00 00 00 00 00 00 00
(001.016108)  vcan0  00000374   [8]  00 00 00 00 00 00 00 00
(001.016315)  vcan0  0000018F   [8]  00 00 A0 00 00 00 00 00
(001.016524)  vcan0  00000309   [8]  07 82 00 00 00 00 00 00
(001.016735)  vcan0  0000037B   [8]  00 00 00 00 00 00 00 00
(001.016949)  vcan0  000001A4   [8]  00 67 00 00 00 00 00 00
(001.021002)  vcan0  0000017C   [8]  4B 00 00 00 00 00 00 00
(001.021214)  vcan0  00000170   [8]  6C 00 00 00 00 00 00 00
(001.021426)  vcan0  0000014A   [8]  00 00 00 D2 BA 61 42 88
(001.021636)  vcan0  00000309   [8]  07 8C 00 00 00 00 00 00
(001.027513)  vcan0  00000170   [8]  D4 00 00 00 00 00 00 00
(001.027734)  vcan0  0000014A   [8]  00 00 00 D0 09 91 39 C6
(001.027945)  vcan0  00000309   [8]  07 8D 00 00 00 00 00 00
(001.028162)  vcan0  0000017C   [8]  4B 00 00 00 00 00 00 00
(001.033942)  vcan0  0000014A   [8]  00 00 00 CC 92 23 A2 B2
(001.034164)  vcan0  0000017C   [8]  4B 00 00 00 00 00 00 00
(001.034372)  vcan0  00000170   [8]  0B 00 00 00 00 00 00 00
(001.034582)  vcan0  00000309   [8]  07 97 00 00 00 00 00 00
(001.039374)  vcan0  00000309   [8]  07 97 00 00 00 00 00 00
(001.039598)  vcan0  0000017C   [8]  4B 00 00 00 00 00 00 00
(001.039806)  vcan0  00000170   [8]  25 00 00 00 00 00 00 00
(001.040017)  vcan0  0000014A   [8]  00 00 00 C9 FC 18 F8 A8
(001.046013)  vcan0  00000170   [8]  75 00 00 00 00 00 00 00
(001.046241)  vcan0  0000017C   [8]  4B 00 00 00 00 00 00 00
(001.046453)  vcan0  0000014A   [8]  00 00 00 C7 2B 0A 82 3C
(001.046662)  vcan0  00000309   [8]  07 A3 00 00 00 00 00 00
(001.051390)  vcan0  00000170   [8]  73 00 00 00 00 00 00 00
(001.051607)  vcan0  0000014A   [8]  00 00 00 C4 BA F8 86 1E
(001.051826)  vcan0  0000017C   [8]  4B 00 00 00 00 00 00 00
(001.052036)  vcan0  00000309   [8]  07 A3 00 00 00 00 00 00
(001.057313)  vcan0  0000014A   [8]  00 00 00 C1 B5 B8 33 A2
(001.057543)  vcan0  00000309   [8]  07 B0 00 00 00 00 00 00
(001.057770)  vcan0  00000170   [8]  97 00 00 00 00 00 00 00
(001.058003)  vcan0  0000017C   [8]  4B 00 00 00 00 00 00 00
(001.063337)  vcan0  0000017C   [8]  4B 00 00 00 00 00 00 00
(001.063555)  vcan0  00000309   [8]  07 B1 00 00 00 00 00 00
(001.063766)  vcan0  00000170   [8]  26 00 00 00 00 00 00 00
(001.063977)  vcan0  0000014A   [8]  00 00 00 BF 65 A7 3C 76
(001.069421)  vcan0  00000309   [8]  07 BE 00 00 00 00 00 00
(001.069640)  vcan0  0000014A   [8]  00 00 00 BC D0 37 67 82
(001.069863)  vcan0  0000017C   [8]  4B 00 00 00 00 00 00 00
(001.070074)  vcan0  00000170   [8]  37 00 00 00 00 00 00 00
(001.075545)  vcan0  0000014A   [8]  00 00 00 BA A3 F4 1B B0
(001.075791)  vcan0  0000017C   [8]  4B 00 00 00 00 00 00 00
(001.076040)  vcan0  00000309   [8]  07 C1 00 00 00 00 00 00
(001.076255)  vcan0  00000170   [8]  7B 00 00 00 00 00 00 00
(001.081263)  vcan0  0000017C   [8]  4B 00 00 00 00 00 00 00
(001.081494)  vcan0  0000014A   [8]  00 00 00 B8 00 95 E4 98
(001.081713)  vcan0  00000170   [8]  E9 00 00 00 00 00 00 00
(001.081937)  vcan0  00000309   [8]  07 CE 00 00 00 00 00 00
(001.087436)  vcan0  00000309   [8]  07 D1 00 00 00 00 00 00
(001.087663)  vcan0  0000017C   [8]  4B 00 00 00 00 00 00 00
(001.087874)  vcan0  0000014A   [8]  00 00 00 B5 EA 8D D9 CC
(001.088083)  vcan0  00000170   [8]  A0 00 00 00 00 00 00 00
(001.093539)  vcan0  00000170   [8]  8B 00 00 00 00 00 00 00
(001.093761)  vcan0  00000309   [8]  07 E0 00 00 00 00 00 00
(001.093973)  vcan0  0000014A   [8]  00 00 00 B3 A3 2B 8B 78
(001.094191)  vcan0  0000017C   [8]  4B 00 00 00 00 00 00 00
(001.099614)  vcan0  00000170   [8]  57 00 00 00 00 00 00 00
(001.099837)  vcan0  00000309   [8]  07 E3 00 00 00 00 00 00
(001.100058)  vcan0  0000017C   [8]  4B 00 00 00 00 00 00 00
(001.100269)  vcan0  0000014A   [8]  00 00 00 B1 AF 03 47 AC
(001.105168)  vcan0  0000014A   [8]  00 00 00 AF 57 35 CC 7E
(001.105384)  vcan0  00000309   [8]  07 F2 00 00 00 00 00 00
(001.105594)  vcan0  00000170   [8]  3B 00 00 00 00 00 00 00
(001.105814)  vcan0  0000017C   [8]  4B 00 00 00 00 00 00 00
(001.111043)  vcan0  00000170   [8]  9F 00 00 00 00 00 00 00
(001.111265)  vcan0  0000014A   [8]  00 00 00 AD 80 07 3A 2C
(001.111478)  vcan0  00000309   [8]  07 F5 00 00 00 00 00 00
(001.111697)  vcan0  0000017C   [8]  4B 00 00 00 00 00 00 00
(001.117074)  vcan0  00000309   [8]  08 05 00 00 00 00 00 00
(001.117296)  vcan0  0000017C   [8]  4B 00 00 00 00 00 00 00
(001.117507)  vcan0  0000014A   [8]  00 00 00 AB 7A 03 EA 30
(001.117716)  vcan0  00000170   [8]  C3 00 00 00 00 00 00 00
(001.123124)  vcan0  0000014A   [8]  00 00 00 A9 B9 52 5F 38
(001.123350)  vcan0  0000017C   [8]  4B 00 00 00 00 00 00 00
(001.123561)  vcan0  00000309   [8]  08 09 00 00 00 00 00 00
(001.123770)  vcan0  00000170   [8]  1F 00 00 00 00 00 00 00
(001.129011)  vcan0  0000017C   [8]  4B 00 00 00 00 00 00 00
(001.129224)  vcan0  00000309   [8]  08 19 00 00 00 00 00 00
(001.129435)  vcan0  0000014A   [8]  00 00 00 A7 AE 22 D5 D0
(001.129644)  vcan0  00000170   [8]  40 00 00 00 00 00 00 00
(001.135148)  vcan0  00000170   [8]  E4 00 00 00 00 00 00 00
(001.135366)  vcan0  00000309   [8]  08 1E 00 00 00 00 00 00
(001.135586)  vcan0  0000017C   [8]  4B 00 00 00 00 00 00 00
(001.135795)  vcan0  0000014A   [8]  00 00 00 A6 0A 03 F5 44
(001.141175)  vcan0  00000170   [8]  CD 00 00 00 00 00 00 00
(001.141399)  vcan0  00000309   [8]  08 2E 00 00 00 00 00 00
(001.141620)  vcan0  0000017C   [8]  4B 00 00 00 00 00 00 00
(001.141831)  vcan0  0000014A   [8]  00 00 00 A4 42 06 3D 86
(001.147033)  vcan0  0000017C   [8]  4B 00 00 00 00 00 00 00
(001.147247)  vcan0  00000309   [8]  08 33 00 00 00 00 00 00
(001.147456)  vcan0  00000170   [8]  A2 00 00 00 00 00 00 00
(001.147666)  vcan0  0000014A   [8]  00 00 00 A2 B7 95 0B 9E
(001.153252)  vcan0  0000017C   [8]  4B 00 00 00 00 00 00 00
(001.153467)  vcan0  0000014A   [8]  00 00 00 A0 E3 C3 12 F6
(001.153676)  vcan0  00000170   [8]  00 00 00 00 00 00 00 00
(001.153886)  vcan0  00000309   [8]  08 43 00 00 00 00 00 00
(001.159258)  vcan0  00000309   [8]  08 48 00 00 00 00 00 00
(001.159473)  vcan0  0000014A   [8]  00 00 00 9F 76 05 6E A2
(001.159693)  vcan0  0000017C   [8]  4B 00 00 00 00 00 00 00
(001.159901)  vcan0  00000170   [8]  8A 00 00 00 00 00 00 00
(001.166182)  vcan0  00000170   [8]  FB 00 00 00 00 00 00 00
(001.166410)  vcan0  0000017C   [8]  4B 00 00 00 00 00 00 00
(001.166620)  vcan0  0000014A   [8]  00 00 00 9D DF B6 F6 22
(001.166829)  vcan0  00000309   [8]  08 59 00 00 00 00 00 00
(001.171993)  vcan0  0000014A   [8]  00 00 00 9C 81 30 DE 02
(001.172204)  vcan0  00000170   [8]  4B 00 00 00 00 00 00 00
(001.172416)  vcan0  00000309   [8]  08 5F 00 00 00 00 00 00
(001.172633)  vcan0  0000017C   [8]  4B 00 00 00 00 00 00 00
(001.177437)  vcan0  0000017C   [8]  4B 00 00 00 00 00 00 00
(001.177650)  vcan0  00000309   [8]  08 70 00 00 00 00 00 00
(001.177858)  vcan0  00000170   [8]  64 00 00 00 00 00 00 00
(001.178068)  vcan0  0000014A   [8]  00 00 00 9A ED 43 3F A8
(001.182861)  vcan0  0000017C   [8]  4B 00 00 00 00 00 00 00
(001.183073)  vcan0  00000170   [8]  66 00 00 00 00 00 00 00
(001.183285)  vcan0  00000309   [8]  08 75 00 00 00 00 00 00
(001.183494)  vcan0  0000014A   [8]  00 00 00 99 A8 8F 5C A8
(001.189249)  vcan0  00000170   [8]  A0 00 00 00 00 00 00 00
(001.189474)  vcan0  0000014A   [8]  00 00 00 98 48 27 04 6A
(001.189686)  vcan0  00000309   [8]  08 87 00 00 00 00 00 00
(001.189904)  vcan0  0000017C   [8]  4B 00 00 00 00 00 00 00
(001.195343)  vcan0  0000017C   [8]  4B 00 00 00 00 00 00 00
(001.195555)  vcan0  00000170   [8]  22 00 00 00 00 00 00 00
(001.195767)  vcan0  0000014A   [8]  00 00 00 97 11 98 15 66
(001.195976)  vcan0  00000309   [8]  08 8D 00 00 00 00 00 00
(001.201529)  vcan0  0000014A   [8]  00 00 00 95 A9 59 52 22
(001.201742)  vcan0  00000309   [8]  08 9E 00 00 00 00 00 00
(001.201950)  vcan0  00000170   [8]  5E 00 00 00 00 00 00 00
(001.202170)  vcan0  0000017C   [8]  4B 00 00 00 00 00 00 00
(001.207591)  vcan0  00000170   [8]  DE 00 00 00 00 00 00 00
(001.207809)  vcan0  0000014A   [8]  00 00 00 94 90 8A 91 8C
(001.208028)  vcan0  0000017C   [8]  4B 00 00 00 00 00 00 00
(001.208238)  vcan0  00000309   [8]  08 A4 00 00 00 00 00 00
(001.213117)  vcan0  00000170   [8]  7A 00 00 00 00 00 00 00
(001.213340)  vcan0  00000309   [8]  08 B5 00 00 00 00 00 00
(001.213558)  vcan0  0000014A   [8]  00 00 00 93 5A AA FC 48
(001.213777)  vcan0  0000017C   [8]  4B 00 00 00 00 00 00 00
(001.218934)  vcan0  00000170   [8]  7E 00 00 00 00 00 00 00
(001.219154)  vcan0  0000014A   [8]  00 00 00 92 4D C5 4B C8
(001.219365)  vcan0  00000309   [8]  08 BC 00 00 00 00 00 00
(001.219583)  vcan0  0000017C   [8]  4B 00 00 00 00 00 00 00
(001.225164)  vcan0  0000017C   [8]  4B 00 00 00 00 00 00 00
(001.225378)  vcan0  0000014A   [8]  00 00 00 91 19 FF 1D 7A
(001.225588)  vcan0  00000170   [8]  4D 00 00 00 00 00 00 00
(001.225799)  vcan0  00000309   [8]  08 CD 00 00 00 00 00 00
(001.231433)  vcan0  0000014A   [8]  00 00 00 90 1F 29 71 38
(001.231654)  vcan0  0000017C   [8]  4B 00 00 00 00 00 00 00
(001.231862)  vcan0  00000170   [8]  44 00 00 00 00 00 00 00
(001.232072)  vcan0  00000309   [8]  08 D4 00 00 00 00 00 00
(001.237329)  vcan0  00000309   [8]  08 E6 00 00 00 00 00 00
(001.237539)  vcan0  00000170   [8]  34 00 00 00 00 00 00 00
(001.237750)  vcan0  0000014A   [8]  00 00 00 8F 10 7D 71 28
(001.237968)  vcan0  0000017C   [8]  4B 00 00 00 00 00 00 00
(001.243297)  vcan0  0000017C   [8]  4B 00 00 00 00 00 00 00
(001.243510)  vcan0  0000014A   [8]  00 00 00 8E 26 52 89 44
(001.243718)  vcan0  00000170   [8]  E0 00 00 00 00 00 00 00
(001.243928)  vcan0  00000309   [8]  08 EC 00 00 00 00 00 00
(001.249247)  vcan0  00000309   [8]  08 FE 00 00 00 00 00 00
(001.249459)  vcan0  00000202   [8]  00 84 00 00 00 00 00 00
(001.249671)  vcan0  0000014A   [8]  00 00 00 8D 1B A8 E1 EC
(001.249877)  vcan0  00000170   [8]  B1 00 00 00 00 00 00 00
(001.250096)  vcan0  0000017C   [8]  4B 00 00 00 00 00 00 00
(001.255364)  vcan0  0000014A   [8]  00 00 00 8C 43 14 31 98
(001.255579)  vcan0  00000170   [8]  93 00 00 00 00 00 00 00
(001.255800)  vcan0  0000017C   [8]  4B 00 00 00 00 00 00 00
(001.256010)  vcan0  00000309   [8]  09 05 00 00 00 00 00 00
(001.261288)  vcan0  00000170   [8]  87 00 00 00 00 00 00 00
(001.261593)  vcan0  0000014A   [8]  00 00 00 8B 57 6C 51 9C
(001.261806)  vcan0  00000309   [8]  09 16 00 00 00 00 00 00
(001.262027)  vcan0  0000017C   [8]  4B 00 00 00 00 00 00 00
(001.267432)  vcan0  0000014A   [8]  00 00 00 8A 8A 44 20 E0
(001.267644)  vcan0  00000170   [8]  87 00 00 00 00 00 00 00
(001.267865)  vcan0  0000017C   [8]  4B 00 00 00 00 00 00 00
(001.268075)  vcan0  00000309   [8]  09 1D 00 00 00 00 00 00
(001.273389)  vcan0  00000309   [8]  09 2F 00 00 00 00 00 00
(001.273612)  vcan0  0000017C   [8]  4B 00 00 00 00 00 00 00
(001.273824)  vcan0  0000014A   [8]  00 00 00 89 AB F6 EF 56
(001.274033)  vcan0  00000170   [8]  92 00 00 00 00 00 00 00
(001.279162)  vcan0  0000017C   [8]  4B 00 00 00 00 00 00 00
(001.279376)  vcan0  00000309   [8]  09 36 00 00 00 00 00 00
(001.279587)  vcan0  0000014A   [8]  00 00 00 88 E6 B9 06 A6
(001.279795)  vcan0  00000170   [8]  F6 00 00 00 00 00 00 00
(001.285306)  vcan0  00000309   [8]  09 48 00 00 00 00 00 00
(001.285531)  vcan0  0000017C   [8]  4B 00 00 00 00 00 00 00
(001.285741)  vcan0  00000170   [8]  B1 00 00 00 00 00 00 00
(001.285951)  vcan0  0000014A   [8]  00 00 00 88 22 88 79 16
(001.291313)  vcan0  00000170   [8]  2B 00 00 00 00 00 00 00
(001.291542)  vcan0  0000017C   [8]  4B 00 00 00 00 00 00 00
(001.291754)  vcan0  0000014A   [8]  00 00 00 87 6C D3 2A 7A
(001.291964)  vcan0  00000309   [8]  09 4F 00 00 00 00 00 00
(001.297379)  vcan0  00000309   [8]  09 61 00 00 00 00 00 00
(001.297598)  vcan0  0000014A   [8]  00 00 00 86 A9 DF 55 DC
(001.297820)  vcan0  0000017C   [8]  4B 00 00 00 00 00 00 00
(001.298029)  vcan0  00000170   [8]  29 00 00 00 00 00 00 00
(001.303936)  vcan0  0000014A   [8]  00 00 00 86 07 56 3E 6A
(001.304160)  vcan0  0000017C   [8]  4B 00 00 00 00 00 00 00
(001.304369)  vcan0  00000170   [8]  6C 00 00 00 00 00 00 00
(001.304578)  vcan0  00000309   [8]  09 68 00 00 00 00 00 00
(001.309466)  vcan0  0000014A   [8]  00 00 00 85 5A 6A 27 4E
(001.309691)  vcan0  0000017C   [8]  4B 00 00 00 00 00 00 00
(001.309901)  vcan0  00000309   [8]  09 7A 00 00 00 00 00 00
(001.310110)  vcan0  00000170   [8]  0A 00 00 00 00 00 00 00
(001.315380)  vcan0  00000170   [8]  96 00 00 00 00 00 00 00
(001.315605)  vcan0  0000014A   [8]  00 00 00 84 C1 3D 2E 2A
(001.315828)  vcan0  0000017C   [8]  4B 00 00 00 00 00 00 00
(001.316040)  vcan0  00000309   [8]  09 81 00 00 00 00 00 00
(001.321446)  vcan0  00000309   [8]  09 93 00 00 00 00 00 00
(001.321670)  vcan0  0000017C   [8]  4B 00 00 00 00 00 00 00
(001.321880)  vcan0  00000170   [8]  0D 00 00 00 00 00 00 00
(001.322091)  vcan0  0000014A   [8]  00 00 00 0D 8B A9 6D 7E
(001.327273)  vcan0  00000170   [8]  0F 00 00 00 00 00 00 00
(001.327511)  vcan0  0000014A   [8]  01 FF FF D5 00 4E 3B 14
(001.327748)  vcan0  0000017C   [8]  4B 00 00 00 00 00 00 00
(001.327970)  vcan0  00000309   [8]  09 9A 00 00 00 00 00 00
(001.333904)  vcan0  0000014A   [8]  01 FF FF D4 B9 94 27 E0
(001.334121)  vcan0  00000309   [8]  09 AB 00 00 00 00 00 00
(001.334330)  vcan0  00000170   [8]  75 00 00 00 00 00 00 00
(001.334551)  vcan0  0000017C   [8]  4B 00 00 00 00 00 00 00
(001.339632)  vcan0  00000309   [8]  09 B3 00 00 00 00 00 00
(001.339855)  vcan0  0000017C   [8]  4B 00 00 00 00 00 00 00
(001.340065)  vcan0  00000170   [8]  6C 00 00 00 00 00 00 00
(001.340275)  vcan0  0000014A   [8]  01 FF FF D5 06 D7 1E 72
(001.345389)  vcan0  00000309   [8]  09 C3 00 00 00 00 00 00
(001.345612)  vcan0  0000017C   [8]  4B 00 00 00 00 00 00 00
(001.345822)  vcan0  0000014A   [8]  01 FF FF D6 52 C3 D3 94
(001.346031)  vcan0  00000170   [8]  28 00 00 00 00 00 00 00
(001.351465)  vcan0  0000017C   [8]  4B 00 00 00 00 00 00 00
(001.351676)  vcan0  00000170   [8]  A1 00 00 00 00 00 00 00
(001.351890)  vcan0  0000014A   [8]  01 FF FF D8 1A 3D 69 B0
(001.352101)  vcan0  00000309   [8]  09 CB 00 00 00 00 00 00
(001.357565)  vcan0  00000170   [8]  8F 00 00 00 00 00 00 00
(001.357809)  vcan0  00000309   [8]  09 DA 00 00 00 00 00 00
(001.358083)  vcan0  0000014A   [8]  01 FF FF DB 17 0D 5B 92
(001.358322)  vcan0  0000017C   [8]  4B 00 00 00 00 00 00 00
(001.364065)  vcan0  0000017C   [8]  4B 00 00 00 00 00 00 00
(001.364298)  vcan0  0000014A   [8]  01 FF FF DE 2C C6 88 AC
(001.364519)  vcan0  00000170   [8]  34 00 00 00 00 00 00 00
(001.364745)  vcan0  00000309   [8]  09 E2 00 00 00 00 00 00
(001.369603)  vcan0  00000170   [8]  66 00 00 00 00 00 00 00
(001.369874)  vcan0  0000017C   [8]  4B 00 00 00 00 00 00 00
(001.370110)  vcan0  0000014A   [8]  01 FF FF E1 F7 E6 F2 34
(001.370324)  vcan0  00000309   [8]  09 F2 00 00 00 00 00 00
(001.375493)  vcan0  00000309   [8]  09 F9 00 00 00 00 00 00
(001.375721)  vcan0  0000017C   [8]  4B 00 00 00 00 00 00 00
(001.375933)  vcan0  0000014A   [8]  01 FF FF E5 A3 B2 57 B8
(001.376143)  vcan0  00000170   [8]  84 00 00 00 00 00 00 00
(001.381234)  vcan0  00000309   [8]  0A 0A 00 00 00 00 00 00
(001.381447)  vcan0  00000170   [8]  9E 00 00 00 00 00 00 00
(001.381660)  vcan0  0000014A   [8]  01 FF FF EA 1C 14 69 10
(001.381879)  vcan0  0000017C   [8]  4B 00 00 00 00 00 00 00
(001.387064)  vcan0  0000014A   [8]  01 FF FF EE 4C B5 4D F6
(001.387289)  vcan0  0000017C   [8]  4B 00 00 00 00 00 00 00
(001.387500)  vcan0  00000309   [8]  0A 11 00 00 00 00 00 00
(001.387708)  vcan0  00000170   [8]  F3 00 00 00 00 00 00 00
(001.393131)  vcan0  0000017C   [8]  4B 00 00 00 00 00 00 00
(001.393346)  vcan0  0000014A   [8]  01 FF FF F3 07 DB 78 48
(001.393556)  vcan0  00000170   [8]  72 00 00 00 00 00 00 00
(001.393767)  vcan0  00000309   [8]  0A 22 00 00 00 00 00 00
(001.399112)  vcan0  00000170   [8]  1F 00 00 00 00 00 00 00
(001.399333)  vcan0  0000014A   [8]  01 FF FF F7 58 B6 22 C2
(001.399553)  vcan0  0000017C   [8]  4B 00 00 00 00 00 00 00
(001.399763)  vcan0  00000309   [8]  0A 2A 00 00 00 00 00 00
(001.405137)  vcan0  00000309   [8]  0A 3A 00 00 00 00 00 00
(001.405352)  vcan0  0000014A   [8]  01 FF FF FC 2A 98 7C 2E
(001.405560)  vcan0  00000170   [8]  51 00 00 00 00 00 00 00
(001.405779)  vcan0  0000017C   [8]  4B 00 00 00 00 00 00 00
(001.411271)  vcan0  00000309   [8]  0A 42 00 00 00 00 00 00
(001.411486)  vcan0  0000014A   [8]  00 00 00 00 7F D3 11 00
(001.411695)  vcan0  00000170   [8]  6C 00 00 00 00 00 00 00
(001.411917)  vcan0  0000017C   [8]  4B 00 00 00 00 00 00 00
(001.417094)  vcan0  00000170   [8]  79 00 00 00 00 00 00 00
(001.417314)  vcan0  0000014A   [8]  00 00 00 05 41 C2 BA FA
(001.417525)  vcan0  00000309   [8]  0A 53 00 00 00 00 00 00
(001.417744)  vcan0  0000017C   [8]  3B 8D 00 00 00 00 00 00
(001.423523)  vcan0  0000014A   [8]  00 00 00 09 91 91 A4 1C
(001.423736)  vcan0  00000170   [8]  4A 00 00 00 00 00 00 00
(001.423958)  vcan0  0000017C   [8]  33 7A 00 00 00 00 00 00
(001.424169)  vcan0  00000309   [8]  0A 5B 00 00 00 00 00 00
(001.429165)  vcan0  00000309   [8]  0A 6C 00 00 00 00 00 00
(001.429376)  vcan0  00000170   [8]  75 00 00 00 00 00 00 00
(001.429597)  vcan0  0000017C   [8]  22 2A 00 00 00 00 00 00
(001.429808)  vcan0  0000014A   [8]  00 00 00 0E 2B 11 A7 96
(001.435176)  vcan0  0000014A   [8]  00 00 00 12 59 AC 80 26
(001.435399)  vcan0  0000017C   [8]  1A 81 00 00 00 00 00 00
(001.435607)  vcan0  00000170   [8]  69 00 00 00 00 00 00 00
(001.435817)  vcan0  00000309   [8]  0A 73 00 00 00 00 00 00
(001.441095)  vcan0  0000017C   [8]  0A 30 00 00 00 00 00 00
(001.441313)  vcan0  0000014A   [8]  00 00 00 16 CA 77 03 B8
(001.441525)  vcan0  00000309   [8]  0A 83 00 00 00 00 00 00
(001.441733)  vcan0  00000170   [8]  72 00 00 00 00 00 00 00
(001.447140)  vcan0  00000309   [8]  0A 8A 00 00 00 00 00 00
(001.447350)  vcan0  00000170   [8]  39 00 00 00 00 00 00 00
(001.447568)  vcan0  0000017C   [8]  03 9C 00 00 00 00 00 00
(001.447778)  vcan0  0000014A   [8]  00 00 00 1A C9 A7 D1 24
(001.453271)  vcan0  0000017C   [8]  00 00 00 00 00 00 07 18
(001.453483)  vcan0  00000170   [8]  13 00 00 00 00 00 00 00
(001.453694)  vcan0  0000014A   [8]  00 00 00 1F 00 14 6C A4
(001.453904)  vcan0  00000309   [8]  0A 98 00 00 00 00 00 00
(001.459032)  vcan0  00000309   [8]  0A 9D 00 00 00 00 00 00
(001.459254)  vcan0  0000017C   [8]  00 00 00 00 00 00 0A 48
(001.459464)  vcan0  0000014A   [8]  00 00 00 22 C7 A7 0D 04
(001.459672)  vcan0  00000170   [8]  8F 00 00 00 00 00 00 00
(001.465090)  vcan0  0000017C   [8]  00 00 00 00 00 00 12 08
(001.465303)  vcan0  0000014A   [8]  00 00 00 26 C9 A8 76 D0
(001.465511)  vcan0  00000170   [8]  44 00 00 00 00 00 00 00
(001.465721)  vcan0  00000309   [8]  0A A9 00 00 00 00 00 00
(001.471868)  vcan0  0000014A   [8]  00 00 00 2A 4B 08 0E AE
(001.472079)  vcan0  00000170   [8]  44 00 00 00 00 00 00 00
(001.472299)  vcan0  0000017C   [8]  00 00 00 00 00 00 13 30
(001.472510)  vcan0  00000309   [8]  0A AA 00 00 00 00 00 00
(001.477594)  vcan0  00000170   [8]  1C 00 00 00 00 00 00 00
(001.477817)  vcan0  0000014A   [8]  01 FF FF B3 15 74 85 E4
(001.478038)  vcan0  0000017C   [8]  00 00 00 00 00 00 13 30
(001.478247)  vcan0  00000309   [8]  0A B3 00 00 00 00 00 00
(001.483870)  vcan0  00000170   [8]  6C 00 00 00 00 00 00 00
(001.484087)  vcan0  00000309   [8]  0A B2 00 00 00 00 00 00
(001.484309)  vcan0  0000017C   [8]  00 00 00 00 00 00 13 30
(001.484519)  vcan0  0000014A   [8]  01 FF FF B5 58 FB 0B 84
(001.489175)  vcan0  00000309   [8]  0A B7 00 00 00 00 00 00
(001.489390)  vcan0  0000014A   [8]  01 FF FF B9 2F 9D ED D4
(001.489610)  vcan0  0000017C   [8]  00 00 00 00 00 00 13 30
(001.489818)  vcan0  00000170   [8]  B3 00 00 00 00 00 00 00
(001.494971)  vcan0  0000017C   [8]  00 00 00 00 00 00 13 30
(001.495184)  vcan0  00000309   [8]  0A B3 00 00 00 00 00 00
(001.495394)  vcan0  0000014A   [8]  01 FF FF BC E9 7B 37 32
(001.495602)  vcan0  00000202   [8]  00 F0 00 00 00 00 00 00
(001.495808)  vcan0  00000170   [8]  11 00 00 00 00 00 00 00
(001.501014)  vcan0  0000017C   [8]  00 00 00 00 00 00 13 30
(001.501229)  vcan0  0000014A   [8]  01 FF FF C2 10 0C 6D 1A
(001.501438)  vcan0  00000170   [8]  63 00 00 00 00 00 00 00
(001.501647)  vcan0  00000309   [8]  0A B5 00 00 00 00 00 00
(001.507121)  vcan0  0000014A   [8]  01 FF FF C6 C3 65 7C 94
(001.507346)  vcan0  0000017C   [8]  00 00 00 00 00 00 13 30
(001.507556)  vcan0  00000309   [8]  0A B0 00 00 00 00 00 00
(001.507764)  vcan0  00000170   [8]  85 00 00 00 00 00 00 00
(001.513030)  vcan0  00000170   [8]  FA 00 00 00 00 00 00 00
(001.513252)  vcan0  000001A3   [8]  00 00 00 00 00 00 00 00
(001.513473)  vcan0  0000017C   [8]  00 00 00 00 00 00 13 30
(001.513680)  vcan0  0000018F   [8]  00 00 89 00 00 00 00 00
(001.513890)  vcan0  00000309   [8]  0A B1 00 00 00 00 00 00
(001.514101)  vcan0  0000014A   [8]  01 FF FF CC 8C 62 C1 F8
(001.519307)  vcan0  00000309   [8]  0A AA 00 00 00 00 00 00
(001.519516)  vcan0  00000170   [8]  2B 00 00 00 00 00 00 00
(001.519727)  vcan0  0000014A   [8]  01 FF FF D1 87 5F E3 52
(001.519945)  vcan0  0000017C   [8]  00 00 00 00 00 00 13 30
(001.525669)  vcan0  0000017C   [8]  00 00 00 00 00 00 13 30
(001.525880)  vcan0  00000170   [8]  98 00 00 00 00 00 00 00
(001.526091)  vcan0  0000014A   [8]  01 FF FF D7 73 92 08 82
(001.526300)  vcan0  00000309   [8]  0A AA 00 00 00 00 00 00
(001.531497)  vcan0  00000309   [8]  0A A3 00 00 00 00 00 00
(001.531725)  vcan0  0000014A   [8]  01 FF FF DC 92 20 01 7E
(001.531961)  vcan0  0000017C   [8]  00 00 00 00 00 00 0F 08
(001.532178)  vcan0  00000170   [8]  82 00 00 00 00 00 00 00
(001.537829)  vcan0  00000309   [8]  0A A2 00 00 00 00 00 00
(001.538055)  vcan0  0000017C   [8]  00 00 00 00 00 00 0E E0
(001.538266)  vcan0  0000014A   [8]  01 FF FF E2 9C C6 7C 36
(001.538474)  vcan0  00000170   [8]  BF 00 00 00 00 00 00 00
(001.543536)  vcan0  00000170   [8]  D0 00 00 00 00 00 00 00
(001.543766)  vcan0  0000017C   [8]  00 00 00 00 00 00 09 88
(001.543979)  vcan0  0000014A   [8]  01 FF FF E7 E2 9F 52 DC
(001.544189)  vcan0  00000309   [8]  0A 9A 00 00 00 00 00 00
(001.549084)  vcan0  00000170   [8]  B2 00 00 00 00 00 00 00
(001.549309)  vcan0  0000017C   [8]  00 00 00 00 00 00 09 48
(001.549521)  vcan0  0000014A   [8]  01 FF FF ED CE 7D A6 60
(001.549731)  vcan0  00000309   [8]  0A 9A 00 00 00 00 00 00
(001.555781)  vcan0  0000017C   [8]  00 00 00 00 00 00 03 C8
(001.555998)  vcan0  0000014A   [8]  01 FF FF F2 EB 80 64 78
(001.556207)  vcan0  00000170   [8]  FA 00 00 00 00 00 00 00
(001.556416)  vcan0  00000309   [8]  0A 91 00 00 00 00 00 00
(001.561234)  vcan0  00000309   [8]  0A 91 00 00 00 00 00 00
(001.561479)  vcan0  0000017C   [8]  00 00 00 00 00 00 03 88
(001.561693)  vcan0  00000170   [8]  0B 00 00 00 00 00 00 00
(001.561905)  vcan0  0000014A   [8]  01 FF FF F8 AB A8 4B C0
(001.567344)  vcan0  00000170   [8]  06 00 00 00 00 00 00 00
(001.567569)  vcan0  00000309   [8]  0A 88 00 00 00 00 00 00
(001.567789)  vcan0  0000017C   [8]  03 2B 00 00 00 00 00 00
(001.567999)  vcan0  0000014A   [8]  01 FF FF FD 93 01 72 CA
(001.573174)  vcan0  00000309   [8]  0A 88 00 00 00 00 00 00
(001.573388)  vcan0  0000014A   [8]  00 00 00 03 0E 7B BA 54
(001.573607)  vcan0  0000017C   [8]  03 8B 00 00 00 00 00 00
(001.573815)  vcan0  00000170   [8]  06 00 00 00 00 00 00 00
(001.579215)  vcan0  00000309   [8]  0A 7F 00 00 00 00 00 00
(001.579503)  vcan0  00000170   [8]  A0 00 00 00 00 00 00 00
(001.579717)  vcan0  0000014A   [8]  00 00 00 07 BA D2 3F 02
(001.579937)  vcan0  0000017C   [8]  0C 5C 00 00 00 00 00 00
(001.585186)  vcan0  00000170   [8]  2F 00 00 00 00 00 00 00
(001.585406)  vcan0  0000014A   [8]  00 00 00 0C DE E0 43 14
(001.585626)  vcan0  0000017C   [8]  0C C9 00 00 00 00 00 00
(001.585835)  vcan0  00000309   [8]  0A 7F 00 00 00 00 00 00
(001.591376)  vcan0  00000170   [8]  65 00 00 00 00 00 00 00
(001.591597)  vcan0  00000309   [8]  0A 76 00 00 00 00 00 00
(001.591809)  vcan0  0000014A   [8]  00 00 00 11 47 F0 E1 32
(001.592027)  vcan0  0000017C   [8]  16 11 00 00 00 00 00 00
(001.597216)  vcan0  00000170   [8]  D4 00 00 00 00 00 00 00
(001.597438)  vcan0  00000309   [8]  0A 76 00 00 00 00 00 00
(001.597659)  vcan0  0000017C   [8]  16 96 00 00 00 00 00 00
(001.597869)  vcan0  0000014A   [8]  00 00 00 16 0D FE 1A 32
(001.603269)  vcan0  00000170   [8]  A3 00 00 00 00 00 00 00
(001.603489)  vcan0  0000014A   [8]  00 00 00 1A 33 6E 98 F4
(001.603707)  vcan0  0000017C   [8]  1F EF 00 00 00 00 00 00
(001.603917)  vcan0  00000309   [8]  0A 6C 00 00 00 00 00 00
(001.609347)  vcan0  0000014A   [8]  00 00 00 1E A9 A0 B5 20
(001.609560)  vcan0  00000309   [8]  0A 6C 00 00 00 00 00 00
(001.609768)  vcan0  00000170   [8]  62 00 00 00 00 00 00 00
(001.609986)  vcan0  0000017C   [8]  20 4B 00 00 00 00 00 00
(001.615703)  vcan0  00000170   [8]  6C 00 00 00 00 00 00 00
(001.615929)  vcan0  0000014A   [8]  00 00 00 22 80 16 C5 8A
(001.616142)  vcan0  00000309   [8]  0A 63 00 00 00 00 00 00
(001.616362)  vcan0  0000017C   [8]  29 65 00 00 00 00 00 00
(001.621371)  vcan0  00000309   [8]  0A 63 00 00 00 00 00 00
(001.621584)  vcan0  00000170   [8]  FB 00 00 00 00 00 00 00
(001.621806)  vcan0  0000017C   [8]  29 5A 00 00 00 00 00 00
(001.622017)  vcan0  0000014A   [8]  00 00 00 26 9F 6F 4D 2E
(001.627205)  vcan0  0000017C   [8]  31 EF 00 00 00 00 00 00
(001.627420)  vcan0  0000014A   [8]  00 00 00 2A 2E DF 09 DE
(001.627629)  vcan0  00000170   [8]  BF 00 00 00 00 00 00 00
(001.627839)  vcan0  00000309   [8]  0A 5B 00 00 00 00 00 00
(001.633242)  vcan0  0000014A   [8]  00 00 00 2D FA D5 A7 AC
(001.633465)  vcan0  0000017C   [8]  31 46 00 00 00 00 00 00
(001.633674)  vcan0  00000170   [8]  51 00 00 00 00 00 00 00
(001.633884)  vcan0  00000309   [8]  0A 5C 00 00 00 00 00 00
(001.639939)  vcan0  00000309   [8]  0A 54 00 00 00 00 00 00
(001.640164)  vcan0  0000017C   [8]  39 19 00 00 00 00 00 00
(001.640375)  vcan0  0000014A   [8]  00 00 00 31 3F BC A1 38
(001.640583)  vcan0  00000170   [8]  83 00 00 00 00 00 00 00
(001.645323)  vcan0  0000014A   [8]  00 00 00 34 C3 7B E9 36
(001.645536)  vcan0  00000170   [8]  F9 00 00 00 00 00 00 00
(001.645757)  vcan0  0000017C   [8]  37 A7 00 00 00 00 00 00
(001.645966)  vcan0  00000309   [8]  0A 55 00 00 00 00 00 00
(001.651945)  vcan0  0000017C   [8]  3E 8E 00 00 00 00 00 00
(001.652156)  vcan0  00000170   [8]  55 00 00 00 00 00 00 00
(001.652367)  vcan0  00000309   [8]  0A 4F 00 00 00 00 00 00
(001.652576)  vcan0  0000014A   [8]  00 00 00 37 BE 7B F0 D8
(001.657254)  vcan0  00000309   [8]  0A 51 00 00 00 00 00 00
(001.657477)  vcan0  0000017C   [8]  3C 31 00 00 00 00 00 00
(001.657688)  vcan0  0000014A   [8]  00 00 00 3A F9 86 BD 88
(001.657896)  vcan0  00000170   [8]  D5 00 00 00 00 00 00 00
(001.663071)  vcan0  00000309   [8]  0A 4B 00 00 00 00 00 00
(001.663284)  vcan0  00000170   [8]  FE 00 00 00 00 00 00 00
(001.663505)  vcan0  0000017C   [8]  42 12 00 00 00 00 00 00
(001.663714)  vcan0  0000014A   [8]  00 00 00 3D BB 4F AF 78
(001.668955)  vcan0  00000309   [8]  0A 4F 00 00 00 00 00 00
(001.669170)  vcan0  0000014A   [8]  00 00 00 40 AA F8 9B AE
(001.669378)  vcan0  00000170   [8]  2E 00 00 00 00 00 00 00
(001.669597)  vcan0  0000017C   [8]  3E B6 00 00 00 00 00 00
(001.675258)  vcan0  0000017C   [8]  43 87 00 00 00 00 00 00
(001.675469)  vcan0  00000170   [8]  19 00 00 00 00 00 00 00
(001.675680)  vcan0  00000309   [8]  0A 4A 00 00 00 00 00 00
(001.675889)  vcan0  0000014A   [8]  00 00 00 43 30 2F E7 CA
(001.681651)  vcan0  00000309   [8]  0A 4E 00 00 00 00 00 00
(001.681872)  vcan0  0000017C   [8]  3F 27 00 00 00 00 00 00
(001.682082)  vcan0  0000014A   [8]  00 00 00 45 DB B4 93 02
(001.682290)  vcan0  00000170   [8]  3B 00 00 00 00 00 00 00
(001.687663)  vcan0  00000309   [8]  0A 4B 00 00 00 00 00 00
(001.687876)  vcan0  0000014A   [8]  01 FF FF CE A6 21 0A 38
(001.688084)  vcan0  00000170   [8]  66 00 00 00 00 00 00 00
(001.688301)  vcan0  0000017C   [8]  42 EE 00 00 00 00 00 00
(001.693846)  vcan0  0000017C   [8]  3D C2 00 00 00 00 00 00
(001.694059)  vcan0  00000309   [8]  0A 50 00 00 00 00 00 00
(001.694268)  vcan0  0000014A   [8]  01 FF FF EC C4 76 1A C4
(001.694476)  vcan0  00000170   [8]  4F 00 00 00 00 00 00 00
(001.699711)  vcan0  00000309   [8]  0A 4D 00 00 00 00 00 00
(001.699922)  vcan0  00000170   [8]  16 00 00 00 00 00 00 00
(001.700142)  vcan0  0000017C   [8]  40 BE 00 00 00 00 00 00
(001.700352)  vcan0  0000014A   [8]  01 FF FF EF 23 78 2F BE
(001.705420)  vcan0  00000170   [8]  19 00 00 00 00 00 00 00
(001.705640)  vcan0  00000309   [8]  0A 52 00 00 00 00 00 00
(001.705861)  vcan0  0000017C   [8]  3B B0 00 00 00 00 00 00
(001.706071)  vcan0  0000014A   [8]  01 FF FF F2 A6 0F 30 D4
(001.711355)  vcan0  00000170   [8]  3A 00 00 00 00 00 00 00
(001.711585)  vcan0  0000017C   [8]  3D A4 00 00 00 00 00 00
(001.711796)  vcan0  0000014A   [8]  01 FF FF F5 F4 D2 57 3C
(001.712006)  vcan0  00000309   [8]  0A 50 00 00 00 00 00 00
(001.717255)  vcan0  00000309   [8]  0A 56 00 00 00 00 00 00
(001.717469)  vcan0  0000014A   [8]  01 FF FF FA 0A 98 53 FA
(001.717688)  vcan0  0000017C   [8]  37 EB 00 00 00 00 00 00
(001.717896)  vcan0  00000170   [8]  B0 00 00 00 00 00 00 00
(001.723350)  vcan0  0000017C   [8]  39 55 00 00 00 00 00 00
(001.723560)  vcan0  00000170   [8]  E0 00 00 00 00 00 00 00
(001.723770)  vcan0  00000309   [8]  0A 54 00 00 00 00 00 00
(001.723979)  vcan0  0000014A   [8]  01 FF FF FD A5 CE 0E CC
(001.729376)  vcan0  00000309   [8]  0A 5B 00 00 00 00 00 00
(001.729601)  vcan0  0000017C   [8]  32 9F 00 00 00 00 00 00
(001.729810)  vcan0  00000170   [8]  80 00 00 00 00 00 00 00
(001.730020)  vcan0  0000014A   [8]  00 00 00 01 DE 68 4B 6C
(001.735158)  vcan0  00000170   [8]  72 00 00 00 00 00 00 00
(001.735379)  vcan0  00000309   [8]  0A 5A 00 00 00 00 00 00
(001.735600)  vcan0  0000017C   [8]  33 AD 00 00 00 00 00 00
(001.735810)  vcan0  0000014A   [8]  00 00 00 05 96 9F 93 60
(001.741036)  vcan0  00000170   [8]  58 00 00 00 00 00 00 00
(001.741266)  vcan0  0000017C   [8]  2C 60 00 00 00 00 00 00
(001.741477)  vcan0  0000014A   [8]  00 00 00 09 D9 AD 9E 60
(001.741686)  vcan0  00000309   [8]  0A 61 00 00 00 00 00 00
(001.741893)  vcan0  00000202   [8]  00 F2 00 00 00 00 00 00
(001.746975)  vcan0  0000014A   [8]  00 00 00 0D B7 B4 40 6C
(001.747188)  vcan0  00000309   [8]  0A 60 00 00 00 00 00 00
(001.747406)  vcan0  0000017C   [8]  2D 3C 00 00 00 00 00 00
(001.747613)  vcan0  00000170   [8]  DB 00 00 00 00 00 00 00
(001.753227)  vcan0  00000170   [8]  2C 00 00 00 00 00 00 00
(001.753456)  vcan0  0000017C   [8]  25 BA 00 00 00 00 00 00
(001.753667)  vcan0  00000309   [8]  0A 68 00 00 00 00 00 00
(001.753876)  vcan0  0000014A   [8]  00 00 00 12 03 96 7F 82
(001.759105)  vcan0  0000014A   [8]  00 00 00 15 CD 0F 28 96
(001.759316)  vcan0  00000170   [8]  10 00 00 00 00 00 00 00
(001.759537)  vcan0  0000017C   [8]  26 9F 00 00 00 00 00 00
(001.759746)  vcan0  00000309   [8]  0A 67 00 00 00 00 00 00
(001.764943)  vcan0  00000309   [8]  0A 6E 00 00 00 00 00 00
(001.765156)  vcan0  00000170   [8]  3D 00 00 00 00 00 00 00
(001.765368)  vcan0  0000014A   [8]  00 00 00 19 FA 69 47 C0
(001.765586)  vcan0  0000017C   [8]  1F 39 00 00 00 00 00 00
(001.771177)  vcan0  0000014A   [8]  00 00 00 1D A0 B3 78 26
(001.771395)  vcan0  00000309   [8]  0A 6D 00 00 00 00 00 00
(001.771614)  vcan0  0000017C   [8]  20 5E 00 00 00 00 00 00
(001.771822)  vcan0  00000170   [8]  1C 00 00 00 00 00 00 00
(001.777352)  vcan0  0000014A   [8]  00 00 00 21 9F 72 C4 4E
(001.777563)  vcan0  00000170   [8]  A4 00 00 00 00 00 00 00
(001.777774)  vcan0  00000309   [8]  0A 74 00 00 00 00 00 00
(001.777994)  vcan0  0000017C   [8]  19 57 00 00 00 00 00 00
(001.784701)  vcan0  0000017C   [8]  1A EE 00 00 00 00 00 00
(001.784914)  vcan0  00000309   [8]  0A 72 00 00 00 00 00 00
(001.785124)  vcan0  0000014A   [8]  00 00 00 25 1E CC 4F D8
(001.785332)  vcan0  00000170   [8]  ED 00 00 00 00 00 00 00
(001.789668)  vcan0  0000017C   [8]  14 76 00 00 00 00 00 00
(001.789879)  vcan0  00000170   [8]  E2 00 00 00 00 00 00 00
(001.790090)  vcan0  0000014A   [8]  00 00 00 28 E5 E5 48 CC
(001.790299)  vcan0  00000309   [8]  0A 78 00 00 00 00 00 00
(001.795802)  vcan0  00000170   [8]  F8 00 00 00 00 00 00 00
(001.796036)  vcan0  0000014A   [8]  00 00 00 2C 2C A7 86 52
(001.796255)  vcan0  00000309   [8]  0A 76 00 00 00 00 00 00
(001.796475)  vcan0  0000017C   [8]  16 A3 00 00 00 00 00 00
(001.801630)  vcan0  00000309   [8]  0A 7C 00 00 00 00 00 00
(001.801842)  vcan0  00000170   [8]  4B 00 00 00 00 00 00 00
(001.802054)  vcan0  0000014A   [8]  00 00 00 2F C4 EB 77 1A
(001.802273)  vcan0  0000017C   [8]  10 D7 00 00 00 00 00 00
(001.807881)  vcan0  0000017C   [8]  13 B2 00 00 00 00 00 00
(001.808094)  vcan0  00000309   [8]  0A 79 00 00 00 00 00 00
(001.808303)  vcan0  0000014A   [8]  00 00 00 32 D2 32 CF 16
(001.808511)  vcan0  00000170   [8]  7F 00 00 00 00 00 00 00
(001.813420)  vcan0  0000017C   [8]  0E A0 00 00 00 00 00 00
(001.813636)  vcan0  00000309   [8]  0A 7E 00 00 00 00 00 00
(001.813844)  vcan0  00000170   [8]  68 00 00 00 00 00 00 00
(001.814055)  vcan0  0000014A   [8]  00 00 00 36 27 84 15 F6
(001.819877)  vcan0  0000014A   [8]  00 00 00 39 00 11 A7 AC
(001.820121)  vcan0  00000309   [8]  0A 7A 00 00 00 00 00 00
(001.820354)  vcan0  0000017C   [8]  12 31 00 00 00 00 00 00
(001.820564)  vcan0  00000170   [8]  C5 00 00 00 00 00 00 00
(001.825197)  vcan0  00000309   [8]  0A 7F 00 00 00 00 00 00
(001.825414)  vcan0  0000014A   [8]  00 00 00 3C 17 8A 28 34
(001.825637)  vcan0  00000170   [8]  3C 00 00 00 00 00 00 00
(001.825868)  vcan0  0000017C   [8]  0D D5 00 00 00 00 00 00
(001.831184)  vcan0  0000014A   [8]  00 00 00 3E BF CC 6B 46
(001.831400)  vcan0  00000309   [8]  0A 7A 00 00 00 00 00 00
(001.831619)  vcan0  0000017C   [8]  12 18 00 00 00 00 00 00
(001.831827)  vcan0  00000170   [8]  3E 00 00 00 00 00 00 00
(001.837141)  vcan0  00000170   [8]  78 00 00 00 00 00 00 00
(001.837362)  vcan0  0000014A   [8]  00 00 00 41 94 33 B2 CA
(001.837583)  vcan0  0000017C   [8]  0E 62 00 00 00 00 00 00
(001.837794)  vcan0  00000309   [8]  0A 7E 00 00 00 00 00 00
(001.843093)  vcan0  00000170   [8]  55 00 00 00 00 00 00 00
(001.843328)  vcan0  00000309   [8]  0A 79 00 00 00 00 00 00
(001.843566)  vcan0  0000017C   [8]  13 48 00 00 00 00 00 00
(001.843792)  vcan0  0000014A   [8]  00 00 00 44 09 E9 D0 B6
(001.849284)  vcan0  0000017C   [8]  10 1F 00 00 00 00 00 00
(001.849495)  vcan0  00000170   [8]  65 00 00 00 00 00 00 00
(001.849708)  vcan0  00000309   [8]  0A 7C 00 00 00 00 00 00
(001.849918)  vcan0  0000014A   [8]  00 00 00 46 9E 88 63 FC
(001.855115)  vcan0  00000170   [8]  91 00 00 00 00 00 00 00
(001.855344)  vcan0  0000017C   [8]  15 8E 00 00 00 00 00 00
(001.855557)  vcan0  0000014A   [8]  00 00 00 48 E2 10 13 A4
(001.855767)  vcan0  00000309   [8]  0A 77 00 00 00 00 00 00
(001.861732)  vcan0  00000309   [8]  0A 7A 00 00 00 00 00 00
(001.861955)  vcan0  00000170   [8]  37 00 00 00 00 00 00 00
(001.862196)  vcan0  0000017C   [8]  12 D3 00 00 00 00 00 00
(001.862412)  vcan0  0000014A   [8]  00 00 00 4B 4B 95 AE 50
(001.867341)  vcan0  00000170   [8]  AD 00 00 00 00 00 00 00
(001.867562)  vcan0  0000014A   [8]  00 00 00 4D 57 79 F3 D2
(001.867783)  vcan0  0000017C   [8]  18 AE 00 00 00 00 00 00
(001.867995)  vcan0  00000309   [8]  0A 74 00 00 00 00 00 00
(001.873582)  vcan0  00000309   [8]  0A 76 00 00 00 00 00 00
(001.873794)  vcan0  00000170   [8]  5C 00 00 00 00 00 00 00
(001.874005)  vcan0  0000014A   [8]  00 00 00 4F 85 5D B9 74
(001.874224)  vcan0  0000017C   [8]  16 41 00 00 00 00 00 00
(001.879592)  vcan0  00000170   [8]  A0 00 00 00 00 00 00 00
(001.879823)  vcan0  0000017C   [8]  1C 65 00 00 00 00 00 00
(001.880146)  vcan0  00000309   [8]  0A 70 00 00 00 00 00 00
(001.880361)  vcan0  0000014A   [8]  00 00 00 51 64 46 31 3A
(001.885147)  vcan0  00000309   [8]  0A 72 00 00 00 00 00 00
(001.885368)  vcan0  00000170   [8]  55 00 00 00 00 00 00 00
(001.885594)  vcan0  0000014A   [8]  01 FF FF DA 2E B1 C8 EC
(001.885832)  vcan0  0000017C   [8]  1A 23 00 00 00 00 00 00
(001.891358)  vcan0  0000017C   [8]  20 7D 00 00 00 00 00 00
(001.891596)  vcan0  00000309   [8]  0A 6C 00 00 00 00 00 00
(001.891809)  vcan0  00000170   [8]  75 00 00 00 00 00 00 00
(001.892022)  vcan0  0000014A   [8]  00 00 00 0F 28 F0 41 18
(001.897179)  vcan0  0000017C   [8]  1E D6 00 00 00 00 00 00
(001.897396)  vcan0  0000014A   [8]  00 00 00 11 B1 61 84 AE
(001.897608)  vcan0  00000309   [8]  0A 6E 00 00 00 00 00 00
(001.897817)  vcan0  00000170   [8]  51 00 00 00 00 00 00 00
(001.903179)  vcan0  0000014A   [8]  00 00 00 14 22 74 C7 EE
(001.903492)  vcan0  00000170   [8]  D3 00 00 00 00 00 00 00
(001.903755)  vcan0  00000309   [8]  0A 68 00 00 00 00 00 00
(001.903976)  vcan0  0000017C   [8]  25 1A 00 00 00 00 00 00
(001.909480)  vcan0  00000170   [8]  30 00 00 00 00 00 00 00
(001.909713)  vcan0  0000017C   [8]  23 98 00 00 00 00 00 00
(001.909924)  vcan0  00000309   [8]  0A 69 00 00 00 00 00 00
(001.910134)  vcan0  0000014A   [8]  00 00 00 17 44 C8 68 66
(001.915393)  vcan0  00000170   [8]  E9 00 00 00 00 00 00 00
(001.915613)  vcan0  00000309   [8]  0A 63 00 00 00 00 00 00
(001.915825)  vcan0  0000014A   [8]  00 00 00 19 EE 53 8B 08
(001.916044)  vcan0  0000017C   [8]  29 A9 00 00 00 00 00 00
(001.921312)  vcan0  0000014A   [8]  00 00 00 1D 2A E2 01 74
(001.921594)  vcan0  00000170   [8]  EC 00 00 00 00 00 00 00
(001.921818)  vcan0  0000017C   [8]  27 94 00 00 00 00 00 00
(001.922028)  vcan0  00000309   [8]  0A 65 00 00 00 00 00 00
(001.927210)  vcan0  0000017C   [8]  2D 69 00 00 00 00 00 00
(001.927425)  vcan0  00000309   [8]  0A 5F 00 00 00 00 00 00
(001.927634)  vcan0  00000170   [8]  61 00 00 00 00 00 00 00
(001.927844)  vcan0  0000014A   [8]  00 00 00 1F FB C8 4E 14
(001.933840)  vcan0  00000170   [8]  AC 00 00 00 00 00 00 00
(001.934061)  vcan0  0000014A   [8]  00 00 00 23 36 3B 2E BE
(001.934272)  vcan0  00000309   [8]  0A 62 00 00 00 00 00 00
(001.934489)  vcan0  0000017C   [8]  2A C2 00 00 00 00 00 00
(001.939211)  vcan0  0000017C   [8]  30 36 00 00 00 00 00 00
(001.939424)  vcan0  00000170   [8]  DB 00 00 00 00 00 00 00
(001.939636)  vcan0  00000309   [8]  0A 5D 00 00 00 00 00 00
(001.939851)  vcan0  0000014A   [8]  00 00 00 26 0F 2F C7 80
(001.945074)  vcan0  0000014A   [8]  00 00 00 29 57 BC 1D 2C
(001.945303)  vcan0  0000017C   [8]  2D 01 00 00 00 00 00 00
(001.945512)  vcan0  00000170   [8]  F1 00 00 00 00 00 00 00
(001.945723)  vcan0  00000309   [8]  0A 60 00 00 00 00 00 00
(001.951493)  vcan0  00000309   [8]  0A 5B 00 00 00 00 00 00
(001.951708)  vcan0  0000014A   [8]  00 00 00 2C 39 4F 5C F4
(001.951917)  vcan0  00000170   [8]  54 00 00 00 00 00 00 00
(001.952137)  vcan0  0000017C   [8]  31 FF 00 00 00 00 00 00
(001.957362)  vcan0  00000170   [8]  3D 00 00 00 00 00 00 00
(001.957595)  vcan0  0000017C   [8]  2E 42 00 00 00 00 00 00
(001.957808)  vcan0  0000014A   [8]  00 00 00 2F 67 70 42 32
(001.958018)  vcan0  00000309   [8]  0A 5F 00 00 00 00 00 00
(001.963439)  vcan0  0000017C   [8]  32 C3 00 00 00 00 00 00
(001.963654)  vcan0  00000309   [8]  0A 5A 00 00 00 00 00 00
(001.963864)  vcan0  0000014A   [8]  00 00 00 32 2C F6 23 38
(001.964073)  vcan0  00000170   [8]  24 00 00 00 00 00 00 00
(001.969399)  vcan0  0000017C   [8]  2E 82 00 00 00 00 00 00
(001.969614)  vcan0  0000014A   [8]  00 00 00 35 41 BD C0 82
(001.969824)  vcan0  00000309   [8]  0A 5F 00 00 00 00 00 00
(001.970032)  vcan0  00000170   [8]  D7 00 00 00 00 00 00 00
(001.975202)  vcan0  00000170   [8]  FC 00 00 00 00 00 00 00
(001.975424)  vcan0  0000014A   [8]  00 00 00 37 E0 26 75 46
(001.975637)  vcan0  00000309   [8]  0A 5B 00 00 00 00 00 00
(001.975857)  vcan0  0000017C   [8]  32 89 00 00 00 00 00 00
(001.981328)  vcan0  00000309   [8]  0A 5F 00 00 00 00 00 00
(001.981551)  vcan0  0000014A   [8]  00 00 00 3A CD 2F F4 98
(001.981772)  vcan0  0000017C   [8]  2D D4 00 00 00 00 00 00
(001.981981)  vcan0  00000170   [8]  61 00 00 00 00 00 00 00
(001.987791)  vcan0  0000017C   [8]  31 6F 00 00 00 00 00 00
(001.988020)  vcan0  0000014A   [8]  00 00 00 3D 4C F7 81 F0
(001.988238)  vcan0  00000202   [8]  00 AF 00 00 00 00 00 00
(001.988452)  vcan0  00000170   [8]  09 00 00 00 00 00 00 00
(001.988674)  vcan0  00000309   [8]  0A 5C 00 00 00 00 00 00
(001.993712)  vcan0  0000017C   [8]  2C 58 00 00 00 00 00 00
(001.993930)  vcan0  0000014A   [8]  00 00 00 40 09 D6 4B 46
(001.994141)  vcan0  00000309   [8]  0A 61 00 00 00 00 00 00
(001.994351)  vcan0  00000170   [8]  69 00 00 00 00 00 00 00
(001.999799)  vcan0  0000017C   [8]  2F 99 00 00 00 00 00 00
(002.000015)  vcan0  00000309   [8]  0A 5E 00 00 00 00 00 00
(002.000226)  vcan0  0000014A   [8]  00 00 00 42 62 FD 3C D8
(002.000435)  vcan0  00000170   [8]  99 00 00 00 00 00 00 00
(002.005779)  vcan0  00000309   [8]  0A 63 00 00 00 00 00 00
(002.006007)  vcan0  0000017C   [8]  2A 38 00 00 00 00 00 00
(002.006219)  vcan0  0000014A   [8]  00 00 00 44 EC 48 7D 48
(002.006429)  vcan0  00000170   [8]  CE 00 00 00 00 00 00 00
(002.011444)  vcan0  00000374   [8]  00 00 00 00 00 00 00 00
(002.011658)  vcan0  0000018F   [8]  00 00 85 00 00 00 00 00
(002.011872)  vcan0  000001A3   [8]  00 00 00 00 00 00 00 00
(002.012092)  vcan0  0000017C   [8]  2D 39 00 00 00 00 00 00
(002.012306)  vcan0  000001A4   [8]  00 67 00 00 00 00 00 00
(002.012515)  vcan0  00000309   [8]  0A 60 00 00 00 00 00 00
(002.012726)  vcan0  0000037B   [8]  00 00 00 00 00 00 00 00
(002.012934)  vcan0  0000014A   [8]  00 00 00 47 21 52 99 EE
(002.013140)  vcan0  00000170   [8]  A8 00 00 00 00 00 00 00
(002.013354)  vcan0  00000326   [8]  00 00 00 00 00 00 00 00
(002.017651)  vcan0  0000017C   [8]  27 A8 00 00 00 00 00 00
(002.017866)  vcan0  00000170   [8]  7C 00 00 00 00 00 00 00
(002.018081)  vcan0  00000309   [8]  0A 65 00 00 00 00 00 00
(002.018292)  vcan0  0000014A   [8]  00 00 00 49 7F A0 D2 52
(002.023427)  vcan0  00000170   [8]  0D 00 00 00 00 00 00 00
(002.023654)  vcan0  00000309   [8]  0A 63 00 00 00 00 00 00
(002.023877)  vcan0  0000017C   [8]  2A 83 00 00 00 00 00 00
(002.024090)  vcan0  0000014A   [8]  00 00 00 4B 8B 2E 5D 1A
(002.029821)  vcan0  00000309   [8]  0A 68 00 00 00 00 00 00
(002.030051)  vcan0  0000017C   [8]  24 DE 00 00 00 00 00 00
(002.030262)  vcan0  00000170   [8]  32 00 00 00 00 00 00 00
(002.030474)  vcan0  0000014A   [8]  00 00 00 4D B7 47 75 96
(002.035550)  vcan0  00000309   [8]  0A 65 00 00 00 00 00 00
(002.035763)  vcan0  0000014A   [8]  00 00 00 4F 9D F6 56 90
(002.035972)  vcan0  00000170   [8]  3D 00 00 00 00 00 00 00
(002.036191)  vcan0  0000017C   [8]  27 AE 00 00 00 00 00 00
(002.041477)  vcan0  0000017C   [8]  22 11 00 00 00 00 00 00
(002.041694)  vcan0  0000014A   [8]  00 00 00 51 9E 99 0A 16
(002.041905)  vcan0  00000170   [8]  45 00 00 00 00 00 00 00
(002.042115)  vcan0  00000309   [8]  0A 6B 00 00 00 00 00 00
(002.047611)  vcan0  0000017C   [8]  24 EF 00 00 00 00 00 00
(002.047824)  vcan0  00000170   [8]  75 00 00 00 00 00 00 00
(002.048035)  vcan0  0000014A   [8]  00 00 00 53 5C EF D7 88
(002.048244)  vcan0  00000309   [8]  0A 68 00 00 00 00 00 00
(002.053383)  vcan0  00000170   [8]  41 00 00 00 00 00 00 00
(002.053606)  vcan0  0000014A   [8]  00 00 00 55 32 06 77 6A
(002.053827)  vcan0  0000017C   [8]  1F 71 00 00 00 00 00 00
(002.054037)  vcan0  00000309   [8]  0A 6E 00 00 00 00 00 00
(002.059234)  vcan0  00000309   [8]  0A 6A 00 00 00 00 00 00
(002.059447)  vcan0  00000170   [8]  63 00 00 00 00 00 00 00
(002.059668)  vcan0  0000017C   [8]  22 74 00 00 00 00 00 00
(002.059879)  vcan0  0000014A   [8]  00 00 00 56 C9 FD 45 60
(002.065358)  vcan0  0000014A   [8]  00 00 00 58 79 DC 77 30
(002.065573)  vcan0  00000309   [8]  0A 70 00 00 00 00 00 00
(002.065783)  vcan0  00000170   [8]  A5 00 00 00 00 00 00 00
(002.066008)  vcan0  0000017C   [8]  1D 29 00 00 00 00 00 00
(002.071456)  vcan0  0000014A   [8]  00 00 00 59 EE 8B C4 FC
(002.071670)  vcan0  00000170   [8]  4C 00 00 00 00 00 00 00
(002.071883)  vcan0  00000309   [8]  0A 6C 00 00 00 00 00 00
(002.072103)  vcan0  0000017C   [8]  20 63 00 00 00 00 00 00
(002.077318)  vcan0  00000170   [8]  E9 00 00 00 00 00 00 00
(002.077548)  vcan0  0000017C   [8]  1B 59 00 00 00 00 00 00
(002.077759)  vcan0  0000014A   [8]  00 00 00 5B 72 60 93 A2
(002.077971)  vcan0  00000309   [8]  0A 71 00 00 00 00 00 00
(002.083276)  vcan0  0000014A   [8]  01 FF FF E4 3C CC 75 D6
(002.083499)  vcan0  0000017C   [8]  1E D7 00 00 00 00 00 00
(002.083710)  vcan0  00000170   [8]  2E 00 00 00 00 00 00 00
(002.083919)  vcan0  00000309   [8]  0A 6E 00 00 00 00 00 00
(002.089288)  vcan0  00000309   [8]  0A 73 00 00 00 00 00 00
(002.089510)  vcan0  0000017C   [8]  1A 3E 00 00 00 00 00 00
(002.089720)  vcan0  0000014A   [8]  00 00 00 2A 61 10 F6 36
(002.089930)  vcan0  00000170   [8]  06 00 00 00 00 00 00 00
(002.095160)  vcan0  0000014A   [8]  00 00 00 2C 2E 9B 87 4C
(002.095373)  vcan0  00000309   [8]  0A 6F 00 00 00 00 00 00
(002.095590)  vcan0  0000017C   [8]  1E 14 00 00 00 00 00 00
(002.095799)  vcan0  00000170   [8]  04 00 00 00 00 00 00 00
(002.101154)  vcan0  0000014A   [8]  00 00 00 2E 78 30 FE 5E
(002.101365)  vcan0  00000170   [8]  8B 00 00 00 00 00 00 00
(002.101576)  vcan0  00000309   [8]  0A 73 00 00 00 00 00 00
(002.101793)  vcan0  0000017C   [8]  1A 1F 00 00 00 00 00 00
(002.107175)  vcan0  00000309   [8]  0A 6F 00 00 00 00 00 00
(002.107387)  vcan0  00000170   [8]  67 00 00 00 00 00 00 00
(002.107597)  vcan0  0000014A   [8]  00 00 00 30 7C 26 66 5C
(002.107814)  vcan0  0000017C   [8]  1E 24 00 00 00 00 00 00
(002.113135)  vcan0  00000309   [8]  0A 72 00 00 00 00 00 00
(002.113348)  vcan0  0000014A   [8]  00 00 00 32 E6 1A 4E BC
(002.113566)  vcan0  0000017C   [8]  1A 44 00 00 00 00 00 00
(002.113774)  vcan0  00000170   [8]  B7 00 00 00 00 00 00 00
(002.119268)  vcan0  0000014A   [8]  00 00 00 34 FD 65 FB FA
(002.119479)  vcan0  00000170   [8]  A4 00 00 00 00 00 00 00
(002.119699)  vcan0  0000017C   [8]  1E 97 00 00 00 00 00 00
(002.119909)  vcan0  00000309   [8]  0A 6E 00 00 00 00 00 00
(002.125200)  vcan0  00000170   [8]  AE 00 00 00 00 00 00 00
(002.125418)  vcan0  0000014A   [8]  00 00 00 37 78 BD 52 A8
(002.125639)  vcan0  0000017C   [8]  1A CD 00 00 00 00 00 00
(002.125848)  vcan0  00000309   [8]  0A 72 00 00 00 00 00 00
(002.131185)  vcan0  00000309   [8]  0A 6D 00 00 00 00 00 00
(002.131400)  vcan0  0000014A   [8]  00 00 00 39 94 C4 02 90
(002.131615)  vcan0  00000170   [8]  B3 00 00 00 00 00 00 00
(002.131833)  vcan0  0000017C   [8]  1F 59 00 00 00 00 00 00
(002.137154)  vcan0  0000017C   [8]  1B A9 00 00 00 00 00 00
(002.137368)  vcan0  0000014A   [8]  00 00 00 3C 06 4A 86 1C
(002.137578)  vcan0  00000309   [8]  0A 71 00 00 00 00 00 00
(002.137786)  vcan0  00000170   [8]  FA 00 00 00 00 00 00 00
(002.143476)  vcan0  00000170   [8]  E8 00 00 00 00 00 00 00
(002.143695)  vcan0  00000309   [8]  0A 6C 00 00 00 00 00 00
(002.143913)  vcan0  0000017C   [8]  20 60 00 00 00 00 00 00
(002.144123)  vcan0  0000014A   [8]  00 00 00 3E 38 26 9A 06
(002.149406)  vcan0  00000309   [8]  0A 70 00 00 00 00 00 00
(002.149619)  vcan0  0000014A   [8]  00 00 00 40 A0 06 C8 4A
(002.149827)  vcan0  00000170   [8]  29 00 00 00 00 00 00 00
(002.150045)  vcan0  0000017C   [8]  1C C5 00 00 00 00 00 00
(002.155228)  vcan0  00000170   [8]  30 00 00 00 00 00 00 00
(002.155449)  vcan0  00000309   [8]  0A 6B 00 00 00 00 00 00
(002.155667)  vcan0  0000017C   [8]  21 9B 00 00 00 00 00 00
(002.155877)  vcan0  0000014A   [8]  00 00 00 42 BD 41 F8 58
(002.161199)  vcan0  00000170   [8]  5E 00 00 00 00 00 00 00
(002.161425)  vcan0  0000017C   [8]  1E 0D 00 00 00 00 00 00
(002.161635)  vcan0  0000014A   [8]  00 00 00 45 14 60 89 8A
(002.161844)  vcan0  00000309   [8]  0A 6F 00 00 00 00 00 00
(002.167353)  vcan0  0000017C   [8]  22 F3 00 00 00 00 00 00
(002.167567)  vcan0  00000309   [8]  0A 6A 00 00 00 00 00 00
(002.167775)  vcan0  00000170   [8]  D9 00 00 00 00 00 00 00
(002.167985)  vcan0  0000014A   [8]  00 00 00 47 1A 51 83 A8
(002.173238)  vcan0  0000017C   [8]  1F 6A 00 00 00 00 00 00
(002.173451)  vcan0  0000014A   [8]  00 00 00 49 4D 2D B4 AE
(002.173660)  vcan0  00000309   [8]  0A 6D 00 00 00 00 00 00
(002.173868)  vcan0  00000170   [8]  3E 00 00 00 00 00 00 00
(002.179189)  vcan0  00000309   [8]  0A 68 00 00 00 00 00 00
(002.179399)  vcan0  00000170   [8]  D3 00 00 00 00 00 00 00
(002.179609)  vcan0  0000014A   [8]  00 00 00 4B 3A 0A F5 BA
(002.179826)  vcan0  0000017C   [8]  24 54 00 00 00 00 00 00
(002.185383)  vcan0  00000170   [8]  15 00 00 00 00 00 00 00
(002.185602)  vcan0  00000309   [8]  0A 6C 00 00 00 00 00 00
(002.185813)  vcan0  0000014A   [8]  00 00 00 4D 4E 12 C6 4C
(002.186031)  vcan0  0000017C   [8]  20 C6 00 00 00 00 00 00
(002.191091)  vcan0  0000014A   [8]  00 00 00 4F 1A CD 3F BC
(002.191303)  vcan0  00000170   [8]  61 00 00 00 00 00 00 00
(002.191523)  vcan0  0000017C   [8]  25 A8 00 00 00 00 00 00
(002.191732)  vcan0  00000309   [8]  0A 67 00 00 00 00 00 00
(002.197304)  vcan0  0000014A   [8]  00 00 00 51 08 EA A5 2C
(002.197518)  vcan0  00000309   [8]  0A 6B 00 00 00 00 00 00
(002.197735)  vcan0  0000017C   [8]  22 0A 00 00 00 00 00 00
(002.197943)  vcan0  00000170   [8]  04 00 00 00 00 00 00 00
(002.203799)  vcan0  0000014A   [8]  00 00 00 52 BA 43 E6 06
(002.204012)  vcan0  00000170   [8]  63 00 00 00 00 00 00 00
(002.204234)  vcan0  0000017C   [8]  26 DC 00 00 00 00 00 00
(002.204444)  vcan0  00000309   [8]  0A 66 00 00 00 00 00 00
(002.209514)  vcan0  0000014A   [8]  00 00 00 54 7E 9D DB 6C
(002.209727)  vcan0  00000170   [8]  BD 00 00 00 00 00 00 00
(002.209951)  vcan0  0000017C   [8]  23 26 00 00 00 00 00 00
(002.210163)  vcan0  00000309   [8]  0A 6A 00 00 00 00 00 00
(002.215549)  vcan0  0000014A   [8]  00 00 00 56 0C 71 79 1E
(002.215768)  vcan0  00000309   [8]  0A 65 00 00 00 00 00 00
(002.215977)  vcan0  00000170   [8]  33 00 00 00 00 00 00 00
(002.216197)  vcan0  0000017C   [8]  27 DE 00 00 00 00 00 00
(002.221560)  vcan0  0000017C   [8]  24 0A 00 00 00 00 00 00
(002.221778)  vcan0  0000014A   [8]  00 00 00 57 BB 4C 30 3C
(002.221991)  vcan0  00000170   [8]  F2 00 00 00 00 00 00 00
(002.222201)  vcan0  00000309   [8]  0A 69 00 00 00 00 00 00
(002.227307)  vcan0  0000017C   [8]  28 A1 00 00 00 00 00 00
(002.227525)  vcan0  0000014A   [8]  00 00 00 59 27 C4 98 54
(002.227736)  vcan0  00000309   [8]  0A 64 00 00 00 00 00 00
(002.227946)  vcan0  00000170   [8]  0C 00 00 00 00 00 00 00
(002.233243)  vcan0  00000170   [8]  6B 00 00 00 00 00 00 00
(002.233465)  vcan0  00000309   [8]  0A 68 00 00 00 00 00 00
(002.233677)  vcan0  0000014A   [8]  00 00 00 5A B0 18 E5 34
(002.233884)  vcan0  00000202   [8]  00 CD 00 00 00 00 00 00
(002.234103)  vcan0  0000017C   [8]  24 AB 00 00 00 00 00 00
(002.239203)  vcan0  0000017C   [8]  29 1F 00 00 00 00 00 00
(002.239420)  vcan0  00000309   [8]  0A 64 00 00 00 00 00 00
(002.239630)  vcan0  0000014A   [8]  00 00 00 5B FF BE 9B 98
(002.239839)  vcan0  00000170   [8]  FD 00 00 00 00 00 00 00
(002.245319)  vcan0  00000170   [8]  87 00 00 00 00 00 00 00
(002.245538)  vcan0  0000014A   [8]  00 00 00 5D 6C 44 B1 76
(002.245749)  vcan0  00000309   [8]  0A 68 00 00 00 00 00 00
(002.245969)  vcan0  0000017C   [8]  25 05 00 00 00 00 00 00
(002.251327)  vcan0  00000170   [8]  91 00 00 00 00 00 00 00
(002.251548)  vcan0  00000309   [8]  0A 64 00 00 00 00 00 00
(002.251760)  vcan0  0000014A   [8]  00 00 00 5E 9B D9 D0 DA
(002.251979)  vcan0  0000017C   [8]  29 55 00 00 00 00 00 00
(002.257268)  vcan0  00000170   [8]  94 00 00 00 00 00 00 00
(002.257490)  vcan0  00000309   [8]  0A 68 00 00 00 00 00 00
(002.257702)  vcan0  0000014A   [8]  00 00 00 5F E3 D2 4A CC
(002.257925)  vcan0  0000017C   [8]  25 18 00 00 00 00 00 00
(002.263233)  vcan0  0000014A   [8]  00 00 00 60 FE 66 EB 2E
(002.263444)  vcan0  00000170   [8]  8A 00 00 00 00 00 00 00
(002.263656)  vcan0  00000309   [8]  0A 64 00 00 00 00 00 00
(002.263874)  vcan0  0000017C   [8]  29 46 00 00 00 00 00 00
(002.269370)  vcan0  00000170   [8]  8D 00 00 00 00 00 00 00
(002.269596)  vcan0  0000017C   [8]  24 E9 00 00 00 00 00 00
(002.269807)  vcan0  0000014A   [8]  00 00 00 62 29 8C 43 AA
(002.270016)  vcan0  00000309   [8]  0A 68 00 00 00 00 00 00
(002.275272)  vcan0  0000017C   [8]  28 F7 00 00 00 00 00 00
(002.275494)  vcan0  00000170   [8]  85 00 00 00 00 00 00 00
(002.275718)  vcan0  00000309   [8]  0A 64 00 00 00 00 00 00
(002.275940)  vcan0  0000014A   [8]  00 00 00 63 25 D8 CB 66
(002.281488)  vcan0  00000170   [8]  9C 00 00 00 00 00 00 00
(002.281715)  vcan0  00000309   [8]  0A 68 00 00 00 00 00 00
(002.281927)  vcan0  0000014A   [8]  00 00 00 64 3D 1B 96 D4
(002.282147)  vcan0  0000017C   [8]  24 7F 00 00 00 00 00 00
(002.287286)  vcan0  0000014A   [8]  01 FF FF EF B9 56 05 1C
(002.287513)  vcan0  0000017C   [8]  28 74 00 00 00 00 00 00
(002.287723)  vcan0  00000170   [8]  FF 00 00 00 00 00 00 00
(002.287935)  vcan0  00000309   [8]  0A 64 00 00 00 00 00 00
(002.293401)  vcan0  0000017C   [8]  24 0C 00 00 00 00 00 00
(002.293616)  vcan0  00000309   [8]  0A 69 00 00 00 00 00 00
(002.293826)  vcan0  00000170   [8]  CC 00 00 00 00 00 00 00
(002.294037)  vcan0  0000014A   [8]  00 00 00 3F 58 35 98 A2
(002.299557)  vcan0  00000170   [8]  47 00 00 00 00 00 00 00
(002.299783)  vcan0  0000014A   [8]  00 00 00 40 AD 47 B4 FA
(002.300008)  vcan0  0000017C   [8]  27 EF 00 00 00 00 00 00
(002.300219)  vcan0  00000309   [8]  0A 65 00 00 00 00 00 00
(002.305614)  vcan0  0000014A   [8]  00 00 00 42 56 79 C7 70
(002.305841)  vcan0  0000017C   [8]  23 9B 00 00 00 00 00 00
(002.306054)  vcan0  00000309   [8]  0A 69 00 00 00 00 00 00
(002.306263)  vcan0  00000170   [8]  50 00 00 00 00 00 00 00
(002.311639)  vcan0  0000014A   [8]  00 00 00 43 CA 52 E0 F6
(002.311856)  vcan0  00000309   [8]  0A 66 00 00 00 00 00 00
(002.312065)  vcan0  00000170   [8]  2D 00 00 00 00 00 00 00
(002.312284)  vcan0  0000017C   [8]  27 6A 00 00 00 00 00 00
(002.317473)  vcan0  00000309   [8]  0A 6A 00 00 00 00 00 00
(002.317692)  vcan0  0000014A   [8]  00 00 00 45 8E E6 51 42
(002.317901)  vcan0  00000170   [8]  21 00 00 00 00 00 00 00
(002.318120)  vcan0  0000017C   [8]  22 F1 00 00 00 00 00 00
(002.323230)  vcan0  0000014A   [8]  00 00 00 47 12 DE 0C 9C
(002.323444)  vcan0  00000170   [8]  9F 00 00 00 00 00 00 00
(002.323657)  vcan0  00000309   [8]  0A 66 00 00 00 00 00 00
(002.323876)  vcan0  0000017C   [8]  26 C0 00 00 00 00 00 00
(002.329709)  vcan0  0000014A   [8]  00 00 00 48 E3 71 1B 2E
(002.329922)  vcan0  00000170   [8]  06 00 00 00 00 00 00 00
(002.330136)  vcan0  00000309   [8]  0A 6B 00 00 00 00 00 00
(002.330355)  vcan0  0000017C   [8]  22 30 00 00 00 00 00 00
(002.335772)  vcan0  0000017C   [8]  25 FF 00 00 00 00 00 00
(002.335992)  vcan0  0000014A   [8]  00 00 00 4A 6D 9A B4 AA
(002.336201)  vcan0  00000170   [8]  FC 00 00 00 00 00 00 00
(002.336412)  vcan0  00000309   [8]  0A 67 00 00 00 00 00 00
(002.341797)  vcan0  0000017C   [8]  21 68 00 00 00 00 00 00
(002.342014)  vcan0  0000014A   [8]  00 00 00 4C 34 03 4C 52
(002.342224)  vcan0  00000170   [8]  F6 00 00 00 00 00 00 00
(002.342434)  vcan0  00000309   [8]  0A 6B 00 00 00 00 00 00
(002.347651)  vcan0  0000017C   [8]  25 3B 00 00 00 00 00 00
(002.347865)  vcan0  00000170   [8]  9D 00 00 00 00 00 00 00
(002.348077)  vcan0  0000014A   [8]  00 00 00 4D C9 36 E1 2E
(002.348287)  vcan0  00000309   [8]  0A 68 00 00 00 00 00 00
(002.353926)  vcan0  00000309   [8]  0A 6C 00 00 00 00 00 00
(002.354139)  vcan0  00000170   [8]  1B 00 00 00 00 00 00 00
(002.354361)  vcan0  0000017C   [8]  20 A8 00 00 00 00 00 00
(002.354571)  vcan0  0000014A   [8]  00 00 00 4F 8B B3 19 4C
(002.359592)  vcan0  00000309   [8]  0A 68 00 00 00 00 00 00
(002.359814)  vcan0  0000017C   [8]  24 86 00 00 00 00 00 00
(002.360054)  vcan0  0000014A   [8]  00 00 00 51 19 85 D7 7A
(002.360263)  vcan0  00000170   [8]  70 00 00 00 00 00 00 00
(002.365171)  vcan0  0000014A   [8]  00 00 00 52 CE 25 93 8E
(002.365397)  vcan0  0000017C   [8]  1F FD 00 00 00 00 00 00
(002.365607)  vcan0  00000170   [8]  10 00 00 00 00 00 00 00
(002.365818)  vcan0  00000309   [8]  0A 6D 00 00 00 00 00 00
(002.371346)  vcan0  0000017C   [8]  23 EB 00 00 00 00 00 00
(002.371562)  vcan0  0000014A   [8]  00 00 00 54 43 AB 15 A0
(002.371772)  vcan0  00000170   [8]  67 00 00 00 00 00 00 00
(002.371982)  vcan0  00000309   [8]  0A 69 00 00 00 00 00 00
(002.377401)  vcan0  00000170   [8]  73 00 00 00 00 00 00 00
(002.377634)  vcan0  0000017C   [8]  1F 73 00 00 00 00 00 00
(002.377847)  vcan0  0000014A   [8]  00 00 00 55 E5 60 F5 DE
(002.378057)  vcan0  00000309   [8]  0A 6D 00 00 00 00 00 00
(002.383312)  vcan0  00000170   [8]  AB 00 00 00 00 00 00 00
(002.383535)  vcan0  00000309   [8]  0A 69 00 00 00 00 00 00
(002.383748)  vcan0  0000014A   [8]  00 00 00 57 48 A9 A1 CC
(002.383971)  vcan0  0000017C   [8]  23 75 00 00 00 00 00 00
(002.389304)  vcan0  00000309   [8]  0A 6E 00 00 00 00 00 00
(002.389527)  vcan0  0000017C   [8]  1F 11 00 00 00 00 00 00
(002.389738)  vcan0  0000014A   [8]  00 00 00 58 D0 AF 7F 5A
(002.389948)  vcan0  00000170   [8]  E8 00 00 00 00 00 00 00
(002.395479)  vcan0  0000017C   [8]  23 28 00 00 00 00 00 00
(002.395694)  vcan0  00000309   [8]  0A 6A 00 00 00 00 00 00
(002.395905)  vcan0  0000014A   [8]  00 00 00 5A 19 6D 4C 3A
(002.396114)  vcan0  00000170   [8]  5E 00 00 00 00 00 00 00
(002.401378)  vcan0  0000014A   [8]  00 00 00 5B 87 FF 8B 0E
(002.401592)  vcan0  00000309   [8]  0A 6E 00 00 00 00 00 00
(002.401801)  vcan0  00000170   [8]  5E 00 00 00 00 00 00 00
(002.402020)  vcan0  0000017C   [8]  1E DB 00 00 00 00 00 00
(002.407342)  vcan0  0000014A   [8]  00 00 00 5C BD DE 40 CE
(002.407558)  vcan0  00000309   [8]  0A 6A 00 00 00 00 00 00
(002.407778)  vcan0  0000017C   [8]  23 09 00 00 00 00 00 00
(002.407986)  vcan0  00000170   [8]  F4 00 00 00 00 00 00 00
(002.413286)  vcan0  00000309   [8]  0A 6E 00 00 00 00 00 00
(002.413502)  vcan0  0000014A   [8]  00 00 00 5E 13 6C A3 20
(002.413712)  vcan0  00000170   [8]  68 00 00 00 00 00 00 00
(002.413931)  vcan0  0000017C   [8]  1E D1 00 00 00 00 00 00
(002.419417)  vcan0  00000170   [8]  5D 00 00 00 00 00 00 00
(002.419653)  vcan0  0000017C   [8]  23 14 00 00 00 00 00 00
(002.419866)  vcan0  00000309   [8]  0A 6A 00 00 00 00 00 00
(002.420077)  vcan0  0000014A   [8]  00 00 00 5F 30 4E 53 44
(002.425970)  vcan0  00000170   [8]  67 00 00 00 00 00 00 00
(002.426225)  vcan0  0000017C   [8]  1E F0 00 00 00 00 00 00
