(000.000000)  vcan0  1FFFFFFF   [8]  00 00 00 00 00 00 00 00
(000.003217)  vcan0  00000309   [8]  00 68 00 00 00 00 00 00
(000.003441)  vcan0  000001A4   [8]  00 67 00 00 00 00 00 00
(000.003652)  vcan0  00000170   [8]  4B 00 00 00 00 00 00 00
(000.003859)  vcan0  00000202   [8]  00 87 00 00 00 00 00 00
(000.004066)  vcan0  0000018F   [8]  00 00 3B 00 00 00 00 00
(000.004283)  vcan0  00000374   [8]  00 00 00 00 00 00 00 00
(000.004498)  vcan0  00000326   [8]  00 00 00 00 00 00 00 00
(000.004710)  vcan0  0000037B   [8]  00 00 00 00 00 00 00 00
(000.004930)  vcan0  0000017C   [8]  4B 00 00 00 00 00 00 00
(000.005140)  vcan0  000001A3   [8]  00 00 00 00 00 00 00 00
(000.005351)  vcan0  0000014A   [8]  00 00 00 EE 6B 28 1D CE
(000.008852)  vcan0  0000017C   [8]  4B 00 00 00 00 00 00 00
(000.009063)  vcan0  00000170   [8]  C7 00 00 00 00 00 00 00
(000.009276)  vcan0  00000309   [8]  00 84 00 00 00 00 00 00
(000.009488)  vcan0  0000014A   [8]  00 00 01 65 A0 BC 3B 9A
(000.014534)  vcan0  0000014A   [8]  00 00 01 DC D6 50 EE 6C
(000.014757)  vcan0  0000017C   [8]  4B 00 00 00 00 00 00 00
(000.014967)  vcan0  00000309   [8]  00 A0 00 00 00 00 00 00
(000.015174)  vcan0  00000170   [8]  31 00 00 00 00 00 00 00
(000.019464)  vcan0  0000014A   [8]  00 00 02 54 0B E4 77 36
(000.019675)  vcan0  00000170   [8]  4C 00 00 00 00 00 00 00
(000.019896)  vcan0  0000017C   [8]  4B 00 00 00 00 00 00 00
(000.020107)  vcan0  00000309   [8]  00 BC 00 00 00 00 00 00
(000.025354)  vcan0  0000017C   [8]  4B 00 00 00 00 00 00 00
(000.025564)  vcan0  00000170   [8]  60 00 00 00 00 00 00 00
(000.025775)  vcan0  0000014A   [8]  00 00 02 CB 41 78 00 00
(000.025985)  vcan0  00000309   [8]  00 D8 00 00 00 00 00 00
(000.031533)  vcan0  0000017C   [8]  4B 00 00 00 00 00 00 00
(000.031743)  vcan0  00000170   [8]  9A 00 00 00 00 00 00 00
(000.031954)  vcan0  00000309   [8]  00 F5 00 00 00 00 00 00
(000.032163)  vcan0  0000014A   [8]  00 00 03 42 77 0D DC D6
(000.037837)  vcan0  00000309   [8]  01 11 00 00 00 00 00 00
(000.038058)  vcan0  0000017C   [8]  4B 00 00 00 00 00 00 00
(000.038266)  vcan0  00000170   [8]  F9 00 00 00 00 00 00 00
(000.038475)  vcan0  0000014A   [8]  00 00 03 48 BA 62 59 04
(000.043396)  vcan0  00000170   [8]  51 00 00 00 00 00 00 00
(000.043613)  vcan0  00000309   [8]  01 2D 00 00 00 00 00 00
(000.043823)  vcan0  0000014A   [8]  00 00 03 49 A5 16 9F A6
(000.044039)  vcan0  0000017C   [8]  4B 00 00 00 00 00 00 00
(000.049277)  vcan0  0000017C   [8]  4B 00 00 00 00 00 00 00
(000.049493)  vcan0  00000309   [8]  01 49 00 00 00 00 00 00
(000.049702)  vcan0  0000014A   [8]  00 00 03 4A 8F CA E6 48
(000.049910)  vcan0  00000170   [8]  9B 00 00 00 00 00 00 00
(000.055378)  vcan0  00000170   [8]  0D 00 00 00 00 00 00 00
(000.055594)  vcan0  0000014A   [8]  00 00 03 4B 7A 7F 2C EA
(000.055804)  vcan0  00000309   [8]  01 66 00 00 00 00 00 00
(000.056021)  vcan0  0000017C   [8]  4B 00 00 00 00 00 00 00
(000.061290)  vcan0  0000014A   [8]  00 00 03 4B 7A 7F 2C EA
(000.061511)  vcan0  0000017C   [8]  4B 00 00 00 00 00 00 00
(000.061721)  vcan0  00000309   [8]  01 82 00 00 00 00 00 00
(000.061928)  vcan0  00000170   [8]  AB 00 00 00 00 00 00 00
(000.067196)  vcan0  00000309   [8]  01 9E 00 00 00 00 00 00
(000.067416)  vcan0  0000017C   [8]  4B 00 00 00 00 00 00 00
(000.067624)  vcan0  00000170   [8]  AF 00 00 00 00 00 00 00
(000.067834)  vcan0  0000014A   [8]  00 00 03 4B 7A 7F 2C EA
(000.073362)  vcan0  00000170   [8]  22 00 00 00 00 00 00 00
(000.073587)  vcan0  0000014A   [8]  00 00 03 4B 7A 7F 2C EA
(000.073809)  vcan0  0000017C   [8]  4B 00 00 00 00 00 00 00
(000.074020)  vcan0  00000309   [8]  01 BA 00 00 00 00 00 00
(000.079747)  vcan0  0000014A   [8]  00 00 03 4B 7A 7F 2C EA
(000.079992)  vcan0  0000017C   [8]  4B 00 00 00 00 00 00 00
(000.080211)  vcan0  00000170   [8]  69 00 00 00 00 00 00 00
(000.080434)  vcan0  00000309   [8]  01 D6 00 00 00 00 00 00
(000.085361)  vcan0  0000017C   [8]  4B 00 00 00 00 00 00 00
(000.085577)  vcan0  0000014A   [8]  00 00 03 4B 7A 7F 2C EA
(000.085788)  vcan0  00000309   [8]  01 F3 00 00 00 00 00 00
(000.085997)  vcan0  00000170   [8]  DA 00 00 00 00 00 00 00
(000.091344)  vcan0  00000309   [8]  02 0F 00 00 00 00 00 00
(000.091567)  vcan0  00000170   [8]  C0 00 00 00 00 00 00 00
(000.091797)  vcan0  0000014A   [8]  00 00 03 4B 7A 7F 2C EA
(000.092035)  vcan0  0000017C   [8]  4B 00 00 00 00 00 00 00
(000.097309)  vcan0  00000170   [8]  50 00 00 00 00 00 00 00
(000.097531)  vcan0  0000014A   [8]  00 00 03 4B 7A 7F 2C EA
(000.097743)  vcan0  00000309   [8]  02 2B 00 00 00 00 00 00
(000.097963)  vcan0  0000017C   [8]  4B 00 00 00 00 00 00 00
(000.103383)  vcan0  0000014A   [8]  00 00 03 4B 7A 7F 2C EA
(000.103594)  vcan0  00000170   [8]  C4 00 00 00 00 00 00 00
(000.103806)  vcan0  00000309   [8]  02 47 00 00 00 00 00 00
(000.104026)  vcan0  0000017C   [8]  4B 00 00 00 00 00 00 00
(000.109149)  vcan0  0000017C   [8]  4B 00 00 00 00 00 00 00
(000.109363)  vcan0  00000170   [8]  90 00 00 00 00 00 00 00
(000.109577)  vcan0  0000014A   [8]  00 00 03 4B 7A 7F 2C EA
(000.109788)  vcan0  00000309   [8]  02 64 00 00 00 00 00 00
(000.115450)  vcan0  0000017C   [8]  4B 00 00 00 00 00 00 00
(000.115665)  vcan0  00000309   [8]  02 80 00 00 00 00 00 00
(000.115875)  vcan0  0000014A   [8]  00 00 03 4B 7A 7F 2C EA
(000.116083)  vcan0  00000170   [8]  B5 00 00 00 00 00 00 00
(000.121163)  vcan0  0000014A   [8]  00 00 03 4B 7A 7F 2C EA
(000.121387)  vcan0  0000017C   [8]  4B 00 00 00 00 00 00 00
(000.121595)  vcan0  00000170   [8]  FD 00 00 00 00 00 00 00
(000.121805)  vcan0  00000309   [8]  02 9C 00 00 00 00 00 00
(000.127528)  vcan0  0000017C   [8]  4B 00 00 00 00 00 00 00
(000.127742)  vcan0  00000309   [8]  02 B8 00 00 00 00 00 00
(000.127952)  vcan0  00000170   [8]  80 00 00 00 00 00 00 00
(000.128162)  vcan0  0000014A   [8]  00 00 03 4B 7A 7F 2C EA
(000.133824)  vcan0  0000014A   [8]  00 00 03 4B 7A 7F 2C EA
(000.134042)  vcan0  00000309   [8]  02 D4 00 00 00 00 00 00
(000.134261)  vcan0  0000017C   [8]  4B 00 00 00 00 00 00 00
(000.134471)  vcan0  00000170   [8]  36 00 00 00 00 00 00 00
(000.139121)  vcan0  00000309   [8]  02 F1 00 00 00 00 00 00
(000.139335)  vcan0  0000014A   [8]  00 00 03 4B 7A 7F 2C EA
(000.139554)  vcan0  0000017C   [8]  4B 00 00 00 00 00 00 00
(000.139763)  vcan0  00000170   [8]  34 00 00 00 00 00 00 00
(000.146228)  vcan0  00000309   [8]  03 0D 00 00 00 00 00 00
(000.146451)  vcan0  0000017C   [8]  4B 00 00 00 00 00 00 00
(000.146660)  vcan0  00000170   [8]  C3 00 00 00 00 00 00 00
(000.146870)  vcan0  0000014A   [8]  00 00 03 4B 7A 7F 2C EA
(000.151606)  vcan0  00000170   [8]  6A 00 00 00 00 00 00 00
(000.151827)  vcan0  00000309   [8]  03 29 00 00 00 00 00 00
(000.152038)  vcan0  0000014A   [8]  00 00 03 4B 7A 7F 2C EA
(000.152256)  vcan0  0000017C   [8]  4B 00 00 00 00 00 00 00
(000.157421)  vcan0  00000309   [8]  03 45 00 00 00 00 00 00
(000.157641)  vcan0  0000017C   [8]  4B 00 00 00 00 00 00 00
(000.157850)  vcan0  00000170   [8]  83 00 00 00 00 00 00 00
(000.158060)  vcan0  0000014A   [8]  00 00 03 4B 7A 7F 2C EA
(000.163364)  vcan0  0000017C   [8]  4B 00 00 00 00 00 00 00
(000.163603)  vcan0  0000014A   [8]  00 00 03 4B 7A 7F 2C EA
(000.163816)  vcan0  00000170   [8]  2C 00 00 00 00 00 00 00
(000.164029)  vcan0  00000309   [8]  03 62 00 00 00 00 00 00
(000.169460)  vcan0  0000014A   [8]  00 00 03 4B 7A 7F 2C EA
(000.169676)  vcan0  00000309   [8]  03 7E 00 00 00 00 00 00
(000.169901)  vcan0  0000017C   [8]  4B 00 00 00 00 00 00 00
(000.170111)  vcan0  00000170   [8]  A3 00 00 00 00 00 00 00
(000.176068)  vcan0  0000014A   [8]  00 00 03 4B 7A 7F 2C EA
(000.176292)  vcan0  0000017C   [8]  4B 00 00 00 00 00 00 00
(000.176505)  vcan0  00000309   [8]  03 9A 00 00 00 00 00 00
(000.176715)  vcan0  00000170   [8]  ED 00 00 00 00 00 00 00
(000.182109)  vcan0  0000014A   [8]  00 00 03 4B 7A 7F 2C EA
(000.182319)  vcan0  00000170   [8]  76 00 00 00 00 00 00 00
(000.182539)  vcan0  0000017C   [8]  4B 00 00 00 00 00 00 00
(000.182748)  vcan0  00000309   [8]  03 B6 00 00 00 00 00 00
(000.187429)  vcan0  00000170   [8]  53 00 00 00 00 00 00 00
(000.187659)  vcan0  0000017C   [8]  4B 00 00 00 00 00 00 00
(000.187871)  vcan0  0000014A   [8]  00 00 03 4B 7A 7F 2C EA
(000.188081)  vcan0  00000309   [8]  03 D2 00 00 00 00 00 00
(000.193270)  vcan0  0000014A   [8]  00 00 03 4B 7A 7F 2C EA
(000.193493)  vcan0  0000017C   [8]  4B 00 00 00 00 00 00 00
(000.193704)  vcan0  00000309   [8]  03 EF 00 00 00 00 00 00
(000.193913)  vcan0  00000170   [8]  E7 00 00 00 00 00 00 00
(000.199149)  vcan0  0000014A   [8]  00 00 03 4B 7A 7F 2C EA
(000.199363)  vcan0  00000309   [8]  04 0B 00 00 00 00 00 00
(000.199572)  vcan0  00000170   [8]  5B 00 00 00 00 00 00 00
(000.199791)  vcan0  0000017C   [8]  4B 00 00 00 00 00 00 00
(000.205749)  vcan0  0000014A   [8]  00 00 03 4B 7A 7F 2C EA
(000.205965)  vcan0  00000170   [8]  BD 00 00 00 00 00 00 00
(000.206186)  vcan0  0000017C   [8]  4B 00 00 00 00 00 00 00
(000.206397)  vcan0  00000309   [8]  04 27 00 00 00 00 00 00
(000.211529)  vcan0  00000309   [8]  04 20 00 00 00 00 00 00
(000.211740)  vcan0  00000170   [8]  28 00 00 00 00 00 00 00
(000.211963)  vcan0  0000017C   [8]  4B 00 00 00 00 00 00 00
(000.212174)  vcan0  0000014A   [8]  00 00 03 4B 7A 7F 2C EA
(000.217625)  vcan0  0000014A   [8]  00 00 03 4B 7A 7F 2C EA
(000.217841)  vcan0  00000309   [8]  03 97 00 00 00 00 00 00
(000.218050)  vcan0  00000170   [8]  27 00 00 00 00 00 00 00
(000.218269)  vcan0  0000017C   [8]  4B 00 00 00 00 00 00 00
(000.223369)  vcan0  00000309   [8]  03 21 00 00 00 00 00 00
(000.223592)  vcan0  0000017C   [8]  4B 00 00 00 00 00 00 00
(000.223803)  vcan0  0000014A   [8]  00 00 03 4B 7A 7F 2C EA
(000.224012)  vcan0  00000170   [8]  79 00 00 00 00 00 00 00
(000.229225)  vcan0  00000170   [8]  DC 00 00 00 00 00 00 00
(000.229444)  vcan0  00000309   [8]  02 B8 00 00 00 00 00 00
(000.229664)  vcan0  0000017C   [8]  4B 00 00 00 00 00 00 00
(000.229874)  vcan0  0000014A   [8]  00 00 03 4B 7A 7F 2C EA
(000.235601)  vcan0  0000014A   [8]  00 00 03 4B 7A 7F 2C EA
(000.235825)  vcan0  0000017C   [8]  4B 00 00 00 00 00 00 00
(000.236037)  vcan0  00000309   [8]  02 59 00 00 00 00 00 00
(000.236246)  vcan0  00000170   [8]  10 00 00 00 00 00 00 00
(000.241372)  vcan0  0000017C   [8]  4B 00 00 00 00 00 00 00
(000.241584)  vcan0  00000170   [8]  2D 00 00 00 00 00 00 00
(000.241796)  vcan0  00000309   [8]  02 05 00 00 00 00 00 00
(000.242008)  vcan0  0000014A   [8]  00 00 03 4B 7A 7F 2C EA
(000.247455)  vcan0  0000014A   [8]  00 00 03 4B 7A 7F 2C EA
(000.247668)  vcan0  00000202   [8]  00 6B 00 00 00 00 00 00
(000.247894)  vcan0  0000017C   [8]  4B 00 00 00 00 00 00 00
(000.248106)  vcan0  00000309   [8]  01 B9 00 00 00 00 00 00
(000.248312)  vcan0  00000170   [8]  EE 00 00 00 00 00 00 00
(000.253398)  vcan0  0000017C   [8]  4B 00 00 00 00 00 00 00
(000.253640)  vcan0  00000309   [8]  01 76 00 00 00 00 00 00
(000.253853)  vcan0  00000170   [8]  3D 00 00 00 00 00 00 00
(000.254066)  vcan0  0000014A   [8]  00 00 03 4B 7A 7F 2C EA
(000.259407)  vcan0  00000170   [8]  11 00 00 00 00 00 00 00
(000.259640)  vcan0  0000017C   [8]  4B 00 00 00 00 00 00 00
(000.259853)  vcan0  00000309   [8]  01 3A 00 00 00 00 00 00
(000.260064)  vcan0  0000014A   [8]  00 00 03 4B 7A 7F 2C EA
(000.265352)  vcan0  00000170   [8]  D2 00 00 00 00 00 00 00
(000.265583)  vcan0  0000017C   [8]  4B 00 00 00 00 00 00 00
(000.265795)  vcan0  0000014A   [8]  00 00 03 4B 7A 7F 2C EA
(000.266006)  vcan0  00000309   [8]  01 05 00 00 00 00 00 00
(000.271601)  vcan0  00000309   [8]  00 D6 00 00 00 00 00 00
(000.271826)  vcan0  0000017C   [8]  4B 00 00 00 00 00 00 00
(000.272038)  vcan0  0000014A   [8]  00 00 03 4B 7A 7F 2C EA
(000.272247)  vcan0  00000170   [8]  65 00 00 00 00 00 00 00
(000.277500)  vcan0  00000170   [8]  0C 00 00 00 00 00 00 00
(000.277723)  vcan0  00000309   [8]  00 AC 00 00 00 00 00 00
(000.277947)  vcan0  0000017C   [8]  4B 00 00 00 00 00 00 00
(000.278160)  vcan0  0000014A   [8]  00 00 03 4B 7A 7F 2C EA
(000.283946)  vcan0  0000017C   [8]  4B 00 00 00 00 00 00 00
(000.284161)  vcan0  00000170   [8]  3E 00 00 00 00 00 00 00
(000.284375)  vcan0  00000309   [8]  00 87 00 00 00 00 00 00
(000.284587)  vcan0  0000014A   [8]  00 00 03 4B 7A 7F 2C EA
(000.289616)  vcan0  00000309   [8]  00 67 00 00 00 00 00 00
(000.289832)  vcan0  0000014A   [8]  00 00 03 4B 7A 7F 2C EA
(000.290054)  vcan0  0000017C   [8]  4B 00 00 00 00 00 00 00
(000.290264)  vcan0  00000170   [8]  A4 00 00 00 00 00 00 00
(000.295392)  vcan0  00000170   [8]  8E 00 00 00 00 00 00 00
(000.295622)  vcan0  0000017C   [8]  4B 00 00 00 00 00 00 00
(000.295834)  vcan0  0000014A   [8]  00 00 03 4B 7A 7F 2C EA
(000.296045)  vcan0  00000309   [8]  00 4A 00 00 00 00 00 00
(000.301286)  vcan0  0000017C   [8]  4B 00 00 00 00 00 00 00
(000.301501)  vcan0  0000014A   [8]  00 00 03 4B 7A 7F 2C EA
(000.301711)  vcan0  00000309   [8]  00 31 00 00 00 00 00 00
(000.301920)  vcan0  00000170   [8]  5C 00 00 00 00 00 00 00
(000.307432)  vcan0  00000309   [8]  00 1C 00 00 00 00 00 00
(000.307644)  vcan0  00000170   [8]  8F 00 00 00 00 00 00 00
(000.307857)  vcan0  0000014A   [8]  00 00 03 4B 7A 7F 2C EA
(000.308077)  vcan0  0000017C   [8]  4B 00 00 00 00 00 00 00
(000.313435)  vcan0  00000170   [8]  66 00 00 00 00 00 00 00
(000.313659)  vcan0  00000309   [8]  00 09 00 00 00 00 00 00
(000.313871)  vcan0  0000014A   [8]  00 00 03 4B 7A 7F 2C EA
(000.314095)  vcan0  0000017C   [8]  4B 00 00 00 00 00 00 00
(000.319636)  vcan0  0000017C   [8]  4B 00 00 00 00 00 00 00
(000.319847)  vcan0  00000170   [8]  5F 00 00 00 00 00 00 00
(000.320059)  vcan0  00000309   [8]  00 07 00 00 00 00 00 00
(000.320269)  vcan0  0000014A   [8]  00 00 03 4B 7A 7F 2C EA
(000.325434)  vcan0  00000170   [8]  BD 00 00 00 00 00 00 00
(000.325666)  vcan0  0000017C   [8]  4B 00 00 00 00 00 00 00
(000.325883)  vcan0  0000014A   [8]  00 00 03 4B 7A 7F 2C EA
(000.326093)  vcan0  00000309   [8]  00 15 00 00 00 00 00 00
(000.331445)  vcan0  0000014A   [8]  00 00 03 4B 7A 7F 2C EA
(000.331663)  vcan0  00000309   [8]  00 21 00 00 00 00 00 00
(000.331874)  vcan0  00000170   [8]  94 00 00 00 00 00 00 00
(000.332095)  vcan0  0000017C   [8]  4B 00 00 00 00 00 00 00
(000.337462)  vcan0  00000170   [8]  03 00 00 00 00 00 00 00
(000.338145)  vcan0  0000014A   [8]  00 00 03 4B 7A 7F 2C EA
(000.338360)  vcan0  00000309   [8]  00 2B 00 00 00 00 00 00
(000.338580)  vcan0  0000017C   [8]  4B 00 00 00 00 00 00 00
(000.343605)  vcan0  00000309   [8]  00 34 00 00 00 00 00 00
(000.343831)  vcan0  0000017C   [8]  4B 00 00 00 00 00 00 00
(000.344043)  vcan0  0000014A   [8]  00 00 03 4B 7A 7F 2C EA
(000.344253)  vcan0  00000170   [8]  E4 00 00 00 00 00 00 00
(000.349393)  vcan0  00000309   [8]  00 3B 00 00 00 00 00 00
(000.349606)  vcan0  00000170   [8]  8D 00 00 00 00 00 00 00
(000.349819)  vcan0  0000014A   [8]  00 00 03 4B 7A 7F 2C EA
(000.350038)  vcan0  0000017C   [8]  4B 00 00 00 00 00 00 00
(000.355302)  vcan0  0000014A   [8]  00 00 03 4B 7A 7F 2C EA
(000.355515)  vcan0  00000170   [8]  87 00 00 00 00 00 00 00
(000.355727)  vcan0  00000309   [8]  00 40 00 00 00 00 00 00
(000.355947)  vcan0  0000017C   [8]  4B 00 00 00 00 00 00 00
(000.361670)  vcan0  00000170   [8]  33 00 00 00 00 00 00 00
(000.361907)  vcan0  0000017C   [8]  4B 00 00 00 00 00 00 00
(000.362120)  vcan0  0000014A   [8]  00 00 03 4B 7A 7F 2C EA
(000.362330)  vcan0  00000309   [8]  00 45 00 00 00 00 00 00
(000.367353)  vcan0  0000017C   [8]  4B 00 00 00 00 00 00 00
(000.367566)  vcan0  00000170   [8]  B6 00 00 00 00 00 00 00
(000.367778)  vcan0  0000014A   [8]  00 00 03 4B 7A 7F 2C EA
(000.367988)  vcan0  00000309   [8]  00 49 00 00 00 00 00 00
(000.373873)  vcan0  00000309   [8]  00 4B 00 00 00 00 00 00
(000.374086)  vcan0  0000014A   [8]  00 00 03 4B 7A 7F 2C EA
(000.374303)  vcan0  0000017C   [8]  4B 00 00 00 00 00 00 00
(000.374510)  vcan0  00000170   [8]  E8 00 00 00 00 00 00 00
(000.380131)  vcan0  00000170   [8]  50 00 00 00 00 00 00 00
(000.380352)  vcan0  0000014A   [8]  00 00 03 4B 7A 7F 2C EA
(000.380570)  vcan0  0000017C   [8]  4B 00 00 00 00 00 00 00
(000.380780)  vcan0  00000309   [8]  00 4D 00 00 00 00 00 00
(000.385751)  vcan0  00000170   [8]  36 00 00 00 00 00 00 00
(000.385971)  vcan0  0000014A   [8]  00 00 03 4B 7A 7F 2C EA
(000.386193)  vcan0  0000017C   [8]  4B 00 00 00 00 00 00 00
(000.386405)  vcan0  00000309   [8]  00 4F 00 00 00 00 00 00
(000.391264)  vcan0  0000017C   [8]  4B 00 00 00 00 00 00 00
(000.391478)  vcan0  00000309   [8]  00 4F 00 00 00 00 00 00
(000.391689)  vcan0  0000014A   [8]  00 00 03 4B 74 4B 45 3C
(000.391899)  vcan0  00000170   [8]  5E 00 00 00 00 00 00 00
(000.397718)  vcan0  0000017C   [8]  4B 00 00 00 00 00 00 00
(000.397936)  vcan0  00000309   [8]  00 6D 00 00 00 00 00 00
(000.398146)  vcan0  00000170   [8]  30 00 00 00 00 00 00 00
(000.398358)  vcan0  0000014A   [8]  00 00 03 48 48 01 90 E4
(000.403395)  vcan0  0000014A   [8]  00 00 03 46 D0 54 8A 52
(000.403608)  vcan0  00000170   [8]  47 00 00 00 00 00 00 00
(000.403823)  vcan0  00000309   [8]  00 8E 00 00 00 00 00 00
(000.404044)  vcan0  0000017C   [8]  4B 00 00 00 00 00 00 00
(000.409419)  vcan0  00000170   [8]  5A 00 00 00 00 00 00 00
(000.409640)  vcan0  00000309   [8]  00 C9 00 00 00 00 00 00
(000.409853)  vcan0  0000014A   [8]  00 00 03 42 A1 E4 2F 9C
(000.410075)  vcan0  0000017C   [8]  4B 00 00 00 00 00 00 00
(000.415370)  vcan0  00000309   [8]  00 FC 00 00 00 00 00 00
(000.415595)  vcan0  0000017C   [8]  4B 00 00 00 00 00 00 00
(000.415807)  vcan0  0000014A   [8]  00 00 03 3E 68 BD 16 2C
(000.416016)  vcan0  00000170   [8]  3F 00 00 00 00 00 00 00
(000.421323)  vcan0  00000309   [8]  01 08 00 00 00 00 00 00
(000.421536)  vcan0  00000170   [8]  2E 00 00 00 00 00 00 00
(000.421758)  vcan0  0000017C   [8]  4B 00 00 00 00 00 00 00
(000.421968)  vcan0  0000014A   [8]  00 00 03 3A 7E B6 40 D8
(000.427396)  vcan0  00000170   [8]  C7 00 00 00 00 00 00 00
(000.427612)  vcan0  00000309   [8]  01 44 00 00 00 00 00 00
(000.427831)  vcan0  0000017C   [8]  4B 00 00 00 00 00 00 00
(000.428040)  vcan0  0000014A   [8]  00 00 03 35 68 06 44 0A
(000.433258)  vcan0  00000170   [8]  7E 00 00 00 00 00 00 00
(000.433478)  vcan0  00000309   [8]  01 74 00 00 00 00 00 00
(000.433690)  vcan0  0000014A   [8]  00 00 03 30 79 07 01 EE
(000.433910)  vcan0  0000017C   [8]  4B 00 00 00 00 00 00 00
(000.439286)  vcan0  0000017C   [8]  4B 00 00 00 00 00 00 00
(000.439501)  vcan0  00000309   [8]  01 9B 00 00 00 00 00 00
(000.439709)  vcan0  00000170   [8]  9A 00 00 00 00 00 00 00
(000.439920)  vcan0  0000014A   [8]  00 00 03 2B 40 CC 39 D4
(000.445276)  vcan0  00000309   [8]  01 C2 00 00 00 00 00 00
(000.445491)  vcan0  0000014A   [8]  00 00 03 25 E7 C0 EA 24
(000.445700)  vcan0  00000170   [8]  F5 00 00 00 00 00 00 00
(000.445920)  vcan0  0000017C   [8]  4B 00 00 00 00 00 00 00
(000.451531)  vcan0  00000309   [8]  01 E3 00 00 00 00 00 00
(000.451747)  vcan0  0000014A   [8]  00 00 03 20 0A F5 C1 9C
(000.451968)  vcan0  0000017C   [8]  4B 00 00 00 00 00 00 00
(000.452177)  vcan0  00000170   [8]  BE 00 00 00 00 00 00 00
(000.457282)  vcan0  0000017C   [8]  4B 00 00 00 00 00 00 00
(000.457497)  vcan0  0000014A   [8]  00 00 03 1A 14 FD D8 82
(000.457706)  vcan0  00000170   [8]  D6 00 00 00 00 00 00 00
(000.457916)  vcan0  00000309   [8]  02 09 00 00 00 00 00 00
(000.479308)  vcan0  00000170   [8]  AD 00 00 00 00 00 00 00
(000.479538)  vcan0  0000014A   [8]  00 00 03 13 AF 7B 95 C8
(000.479751)  vcan0  00000309   [8]  02 27 00 00 00 00 00 00
(000.479971)  vcan0  0000017C   [8]  4B 00 00 00 00 00 00 00
(000.486046)  vcan0  00000309   [8]  02 48 00 00 00 00 00 00
(000.486276)  vcan0  0000017C   [8]  4B 00 00 00 00 00 00 00
(000.486486)  vcan0  00000170   [8]  12 00 00 00 00 00 00 00
(000.486698)  vcan0  0000014A   [8]  00 00 03 0D 42 D7 EE A2
(000.488755)  vcan0  0000017C   [8]  4B 00 00 00 00 00 00 00
(000.488971)  vcan0  00000309   [8]  02 63 00 00 00 00 00 00
(000.489181)  vcan0  00000170   [8]  8C 00 00 00 00 00 00 00
(000.489393)  vcan0  0000014A   [8]  00 00 03 06 78 FF CB 7C
(000.494446)  vcan0  00000170   [8]  9F 00 00 00 00 00 00 00
(000.494671)  vcan0  0000014A   [8]  00 00 02 FF B0 7B 97 20
(000.494898)  vcan0  0000017C   [8]  4B 00 00 00 00 00 00 00
(000.495109)  vcan0  00000309   [8]  02 7F 00 00 00 00 00 00
(000.500164)  vcan0  00000170   [8]  9F 00 00 00 00 00 00 00
(000.500387)  vcan0  00000309   [8]  02 99 00 00 00 00 00 00
(000.500599)  vcan0  0000014A   [8]  00 00 02 F8 8E 40 F8 9A
(000.500819)  vcan0  0000017C   [8]  4B 00 00 00 00 00 00 00
(000.506192)  vcan0  0000017C   [8]  4B 00 00 00 00 00 00 00
(000.506409)  vcan0  00000309   [8]  02 B3 00 00 00 00 00 00
(000.506619)  vcan0  00000202   [8]  00 2C 00 00 00 00 00 00
(000.506830)  vcan0  0000014A   [8]  00 00 02 F1 66 6C 1D 78
(000.507037)  vcan0  00000170   [8]  6F 00 00 00 00 00 00 00
(000.512404)  vcan0  0000014A   [8]  00 00 02 EA 01 25 38 88
(000.512619)  vcan0  00000170   [8]  1E 00 00 00 00 00 00 00
(000.512842)  vcan0  0000017C   [8]  4B 00 00 00 00 00 00 00
(000.513053)  vcan0  00000309   [8]  02 CC 00 00 00 00 00 00
(000.513260)  vcan0  0000018F   [8]  00 00 4F 00 00 00 00 00
(000.513472)  vcan0  000001A3   [8]  00 00 00 00 00 00 00 00
(000.518129)  vcan0  00000309   [8]  02 E4 00 00 00 00 00 00
(000.518345)  vcan0  0000014A   [8]  00 00 02 E2 91 BC 97 DA
(000.518554)  vcan0  00000170   [8]  F1 00 00 00 00 00 00 00
(000.518773)  vcan0  0000017C   [8]  4B 00 00 00 00 00 00 00
(000.524115)  vcan0  00000309   [8]  02 FA 00 00 00 00 00 00
(000.524331)  vcan0  0000014A   [8]  00 00 02 DA F1 3B C4 72
(000.524541)  vcan0  00000170   [8]  4F 00 00 00 00 00 00 00
(000.524761)  vcan0  0000017C   [8]  4B 00 00 00 00 00 00 00
(000.530243)  vcan0  0000017C   [8]  4B 00 00 00 00 00 00 00
(000.530456)  vcan0  00000170   [8]  2B 00 00 00 00 00 00 00
(000.530670)  vcan0  00000309   [8]  03 11 00 00 00 00 00 00
(000.530883)  vcan0  0000014A   [8]  00 00 02 D3 42 4E 3F 60
(000.536171)  vcan0  0000014A   [8]  00 00 02 CB 75 82 91 C6
(000.536382)  vcan0  00000170   [8]  2E 00 00 00 00 00 00 00
(000.536594)  vcan0  00000309   [8]  03 26 00 00 00 00 00 00
(000.536812)  vcan0  0000017C   [8]  4B 00 00 00 00 00 00 00
(000.542149)  vcan0  00000170   [8]  11 00 00 00 00 00 00 00
(000.542384)  vcan0  0000017C   [8]  4B 00 00 00 00 00 00 00
(000.542597)  vcan0  00000309   [8]  03 3B 00 00 00 00 00 00
(000.542807)  vcan0  0000014A   [8]  00 00 02 C3 96 86 47 46
(000.548160)  vcan0  0000017C   [8]  4B 00 00 00 00 00 00 00
(000.548377)  vcan0  00000170   [8]  57 00 00 00 00 00 00 00
(000.548591)  vcan0  00000309   [8]  03 4F 00 00 00 00 00 00
(000.548802)  vcan0  0000014A   [8]  00 00 02 BB A5 F0 B6 E6
(000.554349)  vcan0  00000309   [8]  03 64 00 00 00 00 00 00
(000.554574)  vcan0  0000017C   [8]  4B 00 00 00 00 00 00 00
(000.554783)  vcan0  00000170   [8]  B3 00 00 00 00 00 00 00
(000.554995)  vcan0  0000014A   [8]  00 00 02 B3 9C 78 E7 70
(000.560211)  vcan0  0000017C   [8]  4B 00 00 00 00 00 00 00
(000.560430)  vcan0  0000014A   [8]  00 00 02 AB 8E 70 48 AA
(000.560645)  vcan0  00000309   [8]  03 77 00 00 00 00 00 00
(000.560856)  vcan0  00000170   [8]  B8 00 00 00 00 00 00 00
(000.566583)  vcan0  0000017C   [8]  4B 00 00 00 00 00 00 00
(000.566797)  vcan0  00000170   [8]  6E 00 00 00 00 00 00 00
(000.567010)  vcan0  00000309   [8]  03 8A 00 00 00 00 00 00
(000.567221)  vcan0  0000014A   [8]  00 00 02 A3 6A 3F E8 BE
(000.572542)  vcan0  0000017C   [8]  4B 00 00 00 00 00 00 00
(000.572760)  vcan0  0000014A   [8]  00 00 02 9B 48 27 0B 82
(000.572972)  vcan0  00000309   [8]  03 9C 00 00 00 00 00 00
(000.573181)  vcan0  00000170   [8]  2D 00 00 00 00 00 00 00
(000.578164)  vcan0  00000309   [8]  03 AF 00 00 00 00 00 00
(000.578387)  vcan0  0000017C   [8]  4B 00 00 00 00 00 00 00
(000.578597)  vcan0  0000014A   [8]  00 00 02 93 0C 0F E1 86
(000.578807)  vcan0  00000170   [8]  88 00 00 00 00 00 00 00
(000.584219)  vcan0  0000017C   [8]  4B 00 00 00 00 00 00 00
(000.584434)  vcan0  0000014A   [8]  00 00 02 8A DF 7C CE C6
(000.584644)  vcan0  00000309   [8]  03 C1 00 00 00 00 00 00
(000.584854)  vcan0  00000170   [8]  D4 00 00 00 00 00 00 00
(000.591337)  vcan0  0000017C   [8]  4B 00 00 00 00 00 00 00
(000.591564)  vcan0  00000309   [8]  03 D3 00 00 00 00 00 00
(000.591780)  vcan0  0000014A   [8]  00 00 02 82 8F E1 19 1E
(000.591996)  vcan0  00000170   [8]  7B 00 00 00 00 00 00 00
(000.597480)  vcan0  0000017C   [8]  4B 00 00 00 00 00 00 00
(000.597720)  vcan0  00000309   [8]  03 E4 00 00 00 00 00 00
(000.597952)  vcan0  0000014A   [8]  00 00 02 7A 5C 8C 17 DC
(000.598177)  vcan0  00000170   [8]  40 00 00 00 00 00 00 00
(000.603415)  vcan0  0000017C   [8]  4B 00 00 00 00 00 00 00
(000.603649)  vcan0  00000309   [8]  03 F5 00 00 00 00 00 00
(000.603875)  vcan0  0000014A   [8]  00 00 02 72 09 C6 22 08
(000.604096)  vcan0  00000170   [8]  6D 00 00 00 00 00 00 00
(000.609180)  vcan0  0000017C   [8]  4B 00 00 00 00 00 00 00
(000.609412)  vcan0  0000014A   [8]  00 00 02 69 D1 E4 F9 8E
(000.609634)  vcan0  00000170   [8]  62 00 00 00 00 00 00 00
(000.609860)  vcan0  00000309   [8]  04 06 00 00 00 00 00 00
(000.615532)  vcan0  00000170   [8]  45 00 00 00 00 00 00 00
(000.615796)  vcan0  0000014A   [8]  00 00 02 61 81 3D 82 8C
(000.616025)  vcan0  00000309   [8]  04 17 00 00 00 00 00 00
(000.616272)  vcan0  0000017C   [8]  4B 00 00 00 00 00 00 00
(000.621302)  vcan0  0000014A   [8]  00 00 02 59 4D BC 44 68
(000.621555)  vcan0  0000017C   [8]  4B 00 00 00 00 00 00 00
(000.621776)  vcan0  00000170   [8]  13 00 00 00 00 00 00 00
(000.622004)  vcan0  00000309   [8]  04 27 00 00 00 00 00 00
(000.626902)  vcan0  00000170   [8]  50 00 00 00 00 00 00 00
(000.627139)  vcan0  00000309   [8]  04 37 00 00 00 00 00 00
(000.627382)  vcan0  0000017C   [8]  4B 00 00 00 00 00 00 00
(000.627610)  vcan0  0000014A   [8]  00 00 02 51 01 43 D2 C6
(000.633377)  vcan0  00000170   [8]  CC 00 00 00 00 00 00 00
(000.633637)  vcan0  0000014A   [8]  00 00 02 48 D5 6B 03 BE
(000.633865)  vcan0  00000309   [8]  04 47 00 00 00 00 00 00
(000.634113)  vcan0  0000017C   [8]  4B 00 00 00 00 00 00 00
(000.639054)  vcan0  0000014A   [8]  00 00 02 40 93 DE DD E2
(000.639286)  vcan0  0000017C   [8]  4B 00 00 00 00 00 00 00
(000.639500)  vcan0  00000170   [8]  2F 00 00 00 00 00 00 00
(000.639713)  vcan0  00000309   [8]  04 57 00 00 00 00 00 00
(000.644852)  vcan0  00000309   [8]  04 67 00 00 00 00 00 00
(000.645078)  vcan0  00000170   [8]  10 00 00 00 00 00 00 00
(000.645325)  vcan0  0000017C   [8]  4B 00 00 00 00 00 00 00
(000.645540)  vcan0  0000014A   [8]  00 00 02 38 74 D1 FC 36
(000.650315)  vcan0  0000017C   [8]  4B 00 00 00 00 00 00 00
(000.650529)  vcan0  00000170   [8]  BE 00 00 00 00 00 00 00
(000.650742)  vcan0  00000309   [8]  04 77 00 00 00 00 00 00
(000.650954)  vcan0  0000014A   [8]  00 00 02 30 43 39 AF D2
(000.656669)  vcan0  0000014A   [8]  00 00 02 28 2B 67 CF 12
(000.656886)  vcan0  00000170   [8]  BA 00 00 00 00 00 00 00
(000.657110)  vcan0  0000017C   [8]  4B 00 00 00 00 00 00 00
(000.657322)  vcan0  00000309   [8]  04 86 00 00 00 00 00 00
(000.662487)  vcan0  00000170   [8]  01 00 00 00 00 00 00 00
(000.662725)  vcan0  0000017C   [8]  4B 00 00 00 00 00 00 00
(000.662939)  vcan0  0000014A   [8]  00 00 02 20 17 C4 F3 B0
(000.663150)  vcan0  00000309   [8]  04 95 00 00 00 00 00 00
(000.668591)  vcan0  00000170   [8]  A4 00 00 00 00 00 00 00
(000.668841)  vcan0  0000017C   [8]  4B 00 00 00 00 00 00 00
(000.669057)  vcan0  0000014A   [8]  00 00 02 18 13 DE 10 A8
(000.669268)  vcan0  00000309   [8]  04 A5 00 00 00 00 00 00
(000.674629)  vcan0  00000170   [8]  7E 00 00 00 00 00 00 00
(000.674867)  vcan0  00000309   [8]  04 B4 00 00 00 00 00 00
(000.675106)  vcan0  0000017C   [8]  4B 00 00 00 00 00 00 00
(000.675329)  vcan0  0000014A   [8]  00 00 02 10 18 E3 3F 30
(000.680511)  vcan0  0000017C   [8]  4B 00 00 00 00 00 00 00
(000.680726)  vcan0  00000170   [8]  EF 00 00 00 00 00 00 00
(000.680939)  vcan0  0000014A   [8]  00 00 02 08 31 F4 04 18
(000.681150)  vcan0  00000309   [8]  04 C3 00 00 00 00 00 00
(000.686186)  vcan0  00000170   [8]  76 00 00 00 00 00 00 00
(000.686409)  vcan0  00000309   [8]  04 D1 00 00 00 00 00 00
(000.686629)  vcan0  0000017C   [8]  4B 00 00 00 00 00 00 00
(000.686839)  vcan0  0000014A   [8]  00 00 02 00 56 D7 95 62
(000.692222)  vcan0  00000309   [8]  04 E0 00 00 00 00 00 00
(000.692448)  vcan0  0000017C   [8]  4B 00 00 00 00 00 00 00
(000.692660)  vcan0  0000014A   [8]  00 00 01 F8 89 F2 4B 44
(000.692869)  vcan0  00000170   [8]  0A 00 00 00 00 00 00 00
(000.698581)  vcan0  00000170   [8]  1D 00 00 00 00 00 00 00
(000.698817)  vcan0  0000017C   [8]  4B 00 00 00 00 00 00 00
(000.699031)  vcan0  00000309   [8]  04 EF 00 00 00 00 00 00
(000.699243)  vcan0  0000014A   [8]  00 00 01 F0 D2 75 D6 7C
(000.704457)  vcan0  0000017C   [8]  4B 00 00 00 00 00 00 00
(000.704672)  vcan0  00000309   [8]  04 FD 00 00 00 00 00 00
(000.704885)  vcan0  00000170   [8]  E4 00 00 00 00 00 00 00
(000.705096)  vcan0  0000014A   [8]  00 00 01 E9 26 1D 8E 9C
(000.710317)  vcan0  00000309   [8]  05 0C 00 00 00 00 00 00
(000.710531)  vcan0  0000014A   [8]  00 00 01 E1 8D F6 1D D8
(000.710740)  vcan0  00000170   [8]  19 00 00 00 00 00 00 00
(000.710963)  vcan0  0000017C   [8]  4B 00 00 00 00 00 00 00
(000.716661)  vcan0  0000017C   [8]  4B 00 00 00 00 00 00 00
(000.716875)  vcan0  00000170   [8]  A6 00 00 00 00 00 00 00
(000.717088)  vcan0  0000014A   [8]  00 00 01 DA 06 7A 76 38
(000.717298)  vcan0  00000309   [8]  05 1A 00 00 00 00 00 00
(000.722177)  vcan0  00000170   [8]  87 00 00 00 00 00 00 00
(000.722398)  vcan0  0000014A   [8]  00 00 01 D2 96 B2 5F A2
(000.722620)  vcan0  0000017C   [8]  4B 00 00 00 00 00 00 00
(000.722830)  vcan0  00000309   [8]  05 28 00 00 00 00 00 00
(000.728415)  vcan0  00000170   [8]  AF 00 00 00 00 00 00 00
(000.728640)  vcan0  00000309   [8]  05 36 00 00 00 00 00 00
(000.728851)  vcan0  0000014A   [8]  00 00 01 CB 31 82 C3 2A
(000.729072)  vcan0  0000017C   [8]  4B 00 00 00 00 00 00 00
(000.734381)  vcan0  0000014A   [8]  00 00 01 C3 E4 EA E4 4A
(000.734608)  vcan0  0000017C   [8]  4B 00 00 00 00 00 00 00
(000.734820)  vcan0  00000309   [8]  05 44 00 00 00 00 00 00
(000.735029)  vcan0  00000170   [8]  A5 00 00 00 00 00 00 00
(000.740308)  vcan0  00000170   [8]  67 00 00 00 00 00 00 00
(000.740532)  vcan0  0000014A   [8]  00 00 01 BC AD BE 2E CC
(000.740744)  vcan0  00000309   [8]  05 52 00 00 00 00 00 00
(000.740964)  vcan0  0000017C   [8]  4B 00 00 00 00 00 00 00
(000.746368)  vcan0  0000017C   [8]  4B 00 00 00 00 00 00 00
(000.746586)  vcan0  0000014A   [8]  00 00 01 B5 87 AF 58 B8
(000.746796)  vcan0  00000309   [8]  05 60 00 00 00 00 00 00
(000.747005)  vcan0  00000170   [8]  F6 00 00 00 00 00 00 00
(000.752242)  vcan0  0000014A   [8]  00 00 01 AE 78 FD ED F6
(000.752467)  vcan0  0000017C   [8]  4B 00 00 00 00 00 00 00
(000.752676)  vcan0  00000170   [8]  05 00 00 00 00 00 00 00
(000.752890)  vcan0  00000309   [8]  05 6E 00 00 00 00 00 00
(000.753097)  vcan0  00000202   [8]  00 DE 00 00 00 00 00 00
(000.758056)  vcan0  0000014A   [8]  00 00 01 A7 7D 6F 44 F0
(000.758271)  vcan0  00000309   [8]  05 7C 00 00 00 00 00 00
(000.758491)  vcan0  0000017C   [8]  4B 00 00 00 00 00 00 00
(000.758700)  vcan0  00000170   [8]  AE 00 00 00 00 00 00 00
(000.764136)  vcan0  00000309   [8]  05 8A 00 00 00 00 00 00
(000.764350)  vcan0  0000014A   [8]  00 00 01 A0 9B 1F FC D8
(000.764558)  vcan0  00000170   [8]  27 00 00 00 00 00 00 00
(000.764777)  vcan0  0000017C   [8]  4B 00 00 00 00 00 00 00
(000.770752)  vcan0  00000170   [8]  6D 00 00 00 00 00 00 00
(000.770990)  vcan0  00000309   [8]  05 98 00 00 00 00 00 00
(000.771214)  vcan0  0000017C   [8]  4B 00 00 00 00 00 00 00
(000.771424)  vcan0  0000014A   [8]  00 00 01 99 CA 25 4B 44
(000.776393)  vcan0  0000017C   [8]  4B 00 00 00 00 00 00 00
(000.776607)  vcan0  00000309   [8]  05 A6 00 00 00 00 00 00
(000.776817)  vcan0  00000170   [8]  D0 00 00 00 00 00 00 00
(000.777028)  vcan0  0000014A   [8]  00 00 01 93 14 09 94 EA
(000.782159)  vcan0  00000170   [8]  DA 00 00 00 00 00 00 00
(000.782393)  vcan0  0000017C   [8]  4B 00 00 00 00 00 00 00
(000.782605)  vcan0  0000014A   [8]  00 00 01 8C 70 C9 9C DE
(000.782816)  vcan0  00000309   [8]  05 B3 00 00 00 00 00 00
(000.788194)  vcan0  00000309   [8]  05 C1 00 00 00 00 00 00
(000.788418)  vcan0  0000017C   [8]  4B 00 00 00 00 00 00 00
(000.788628)  vcan0  00000170   [8]  38 00 00 00 00 00 00 00
(000.788840)  vcan0  0000014A   [8]  00 00 01 85 E7 8C 99 AA
(000.794431)  vcan0  00000170   [8]  E4 00 00 00 00 00 00 00
(000.794670)  vcan0  0000014A   [8]  00 00 01 7F 73 95 7F 1C
(000.794899)  vcan0  00000309   [8]  05 CE 00 00 00 00 00 00
(000.795136)  vcan0  0000017C   [8]  4B 00 00 00 00 00 00 00
(000.800229)  vcan0  0000014A   [8]  00 00 01 79 17 16 96 68
(000.800448)  vcan0  00000309   [8]  05 DC 00 00 00 00 00 00
(000.800658)  vcan0  00000170   [8]  5E 00 00 00 00 00 00 00
(000.800878)  vcan0  0000017C   [8]  4B 00 00 00 00 00 00 00
(000.806212)  vcan0  00000170   [8]  7C 00 00 00 00 00 00 00
(000.806466)  vcan0  00000309   [8]  05 EA 00 00 00 00 00 00
(000.806687)  vcan0  0000017C   [8]  4B 00 00 00 00 00 00 00
(000.806899)  vcan0  0000014A   [8]  00 00 01 72 D0 AA 7A 6E
(000.812691)  vcan0  00000309   [8]  05 F7 00 00 00 00 00 00
(000.812909)  vcan0  00000170   [8]  F9 00 00 00 00 00 00 00
(000.813122)  vcan0  0000014A   [8]  00 00 01 6C A5 AA 36 80
(000.813344)  vcan0  0000017C   [8]  4B 00 00 00 00 00 00 00
(000.818175)  vcan0  0000017C   [8]  4B 00 00 00 00 00 00 00
(000.818390)  vcan0  00000309   [8]  06 04 00 00 00 00 00 00
(000.818601)  vcan0  0000014A   [8]  00 00 01 66 8E 1E 31 EA
(000.818810)  vcan0  00000170   [8]  93 00 00 00 00 00 00 00
(000.824691)  vcan0  0000014A   [8]  00 00 01 60 92 38 3A 88
(000.824915)  vcan0  0000017C   [8]  4B 00 00 00 00 00 00 00
(000.825126)  vcan0  00000309   [8]  06 12 00 00 00 00 00 00
(000.825335)  vcan0  00000170   [8]  74 00 00 00 00 00 00 00
(000.830036)  vcan0  00000170   [8]  7A 00 00 00 00 00 00 00
(000.830261)  vcan0  00000309   [8]  06 1F 00 00 00 00 00 00
(000.830484)  vcan0  0000017C   [8]  4B 00 00 00 00 00 00 00
(000.830695)  vcan0  0000014A   [8]  00 00 01 5A AB DF 2F 36
(000.836381)  vcan0  0000017C   [8]  4B 00 00 00 00 00 00 00
(000.836596)  vcan0  0000014A   [8]  00 00 01 54 E0 20 6F C0
(000.836808)  vcan0  00000309   [8]  06 2D 00 00 00 00 00 00
(000.837019)  vcan0  00000170   [8]  99 00 00 00 00 00 00 00
(000.842183)  vcan0  0000014A   [8]  00 00 01 4F 2B FB A4 D0
(000.842408)  vcan0  0000017C   [8]  4B 00 00 00 00 00 00 00
(000.842620)  vcan0  00000309   [8]  06 3A 00 00 00 00 00 00
(000.842828)  vcan0  00000170   [8]  C8 00 00 00 00 00 00 00
(000.848100)  vcan0  0000014A   [8]  00 00 01 49 8B 3D 20 F6
(000.848312)  vcan0  00000170   [8]  AF 00 00 00 00 00 00 00
(000.848527)  vcan0  00000309   [8]  06 47 00 00 00 00 00 00
(000.848747)  vcan0  0000017C   [8]  4B 00 00 00 00 00 00 00
(000.854458)  vcan0  0000017C   [8]  4B 00 00 00 00 00 00 00
(000.854673)  vcan0  00000309   [8]  06 55 00 00 00 00 00 00
(000.854885)  vcan0  0000014A   [8]  00 00 01 44 0A 3C 67 34
(000.855093)  vcan0  00000170   [8]  28 00 00 00 00 00 00 00
(000.860539)  vcan0  00000309   [8]  06 62 00 00 00 00 00 00
(000.860753)  vcan0  0000014A   [8]  00 00 01 3E 9E 0E 55 CA
(000.860962)  vcan0  00000170   [8]  9E 00 00 00 00 00 00 00
(000.861179)  vcan0  0000017C   [8]  4B 00 00 00 00 00 00 00
(000.866205)  vcan0  0000017C   [8]  4B 00 00 00 00 00 00 00
(000.866425)  vcan0  0000014A   [8]  00 00 01 39 4E 05 36 1C
(000.866635)  vcan0  00000170   [8]  7B 00 00 00 00 00 00 00
(000.866846)  vcan0  00000309   [8]  06 6F 00 00 00 00 00 00
(000.872286)  vcan0  00000309   [8]  06 7C 00 00 00 00 00 00
(000.872500)  vcan0  00000170   [8]  21 00 00 00 00 00 00 00
(000.872713)  vcan0  0000014A   [8]  00 00 01 34 12 06 82 C6
(000.872933)  vcan0  0000017C   [8]  4B 00 00 00 00 00 00 00
(000.878202)  vcan0  00000309   [8]  06 89 00 00 00 00 00 00
(000.878414)  vcan0  00000170   [8]  55 00 00 00 00 00 00 00
(000.878628)  vcan0  0000014A   [8]  00 00 01 2E F1 0F 89 7C
(000.878847)  vcan0  0000017C   [8]  4B 00 00 00 00 00 00 00
(000.884170)  vcan0  0000014A   [8]  00 00 01 29 E7 7F 4B B4
(000.884384)  vcan0  00000309   [8]  06 96 00 00 00 00 00 00
(000.884593)  vcan0  00000170   [8]  C4 00 00 00 00 00 00 00
(000.884813)  vcan0  0000017C   [8]  4B 00 00 00 00 00 00 00
(000.890202)  vcan0  0000014A   [8]  00 00 01 24 F0 C4 FA 1E
(000.890416)  vcan0  00000309   [8]  06 A4 00 00 00 00 00 00
(000.890634)  vcan0  0000017C   [8]  4B 00 00 00 00 00 00 00
(000.890843)  vcan0  00000170   [8]  4E 00 00 00 00 00 00 00
(000.896506)  vcan0  00000170   [8]  1A 00 00 00 00 00 00 00
(000.896728)  vcan0  0000014A   [8]  00 00 01 20 1D 36 38 24
(000.896940)  vcan0  00000309   [8]  06 B1 00 00 00 00 00 00
(000.897159)  vcan0  0000017C   [8]  4B 00 00 00 00 00 00 00
(000.902204)  vcan0  00000309   [8]  06 BE 00 00 00 00 00 00
(000.902416)  vcan0  00000170   [8]  0D 00 00 00 00 00 00 00
(000.902636)  vcan0  0000017C   [8]  4B 00 00 00 00 00 00 00
(000.902846)  vcan0  0000014A   [8]  00 00 01 1B 54 6E 81 36
(000.908805)  vcan0  0000017C   [8]  4B 00 00 00 00 00 00 00
(000.909034)  vcan0  00000170   [8]  64 00 00 00 00 00 00 00
(000.909260)  vcan0  00000309   [8]  06 CB 00 00 00 00 00 00
(000.909483)  vcan0  0000014A   [8]  00 00 01 16 B2 84 CE C4
(000.914281)  vcan0  00000309   [8]  06 D8 00 00 00 00 00 00
(000.914497)  vcan0  00000170   [8]  E6 00 00 00 00 00 00 00
(000.914720)  vcan0  0000017C   [8]  4B 00 00 00 00 00 00 00
(000.914932)  vcan0  0000014A   [8]  00 00 01 12 1C 72 90 CE
(000.920483)  vcan0  00000170   [8]  8F 00 00 00 00 00 00 00
(000.920707)  vcan0  00000309   [8]  06 E5 00 00 00 00 00 00
(000.920929)  vcan0  0000017C   [8]  4B 00 00 00 00 00 00 00
(000.921140)  vcan0  0000014A   [8]  00 00 01 0D A5 AD 30 B2
(000.926265)  vcan0  0000014A   [8]  00 00 01 09 44 65 05 52
(000.926481)  vcan0  00000309   [8]  06 F2 00 00 00 00 00 00
(000.926701)  vcan0  0000017C   [8]  4B 00 00 00 00 00 00 00
(000.926910)  vcan0  00000170   [8]  B0 00 00 00 00 00 00 00
(000.932427)  vcan0  00000170   [8]  72 00 00 00 00 00 00 00
(000.932651)  vcan0  0000014A   [8]  00 00 01 04 F7 99 F1 96
(000.932872)  vcan0  0000017C   [8]  4B 00 00 00 00 00 00 00
(000.933083)  vcan0  00000309   [8]  06 FF 00 00 00 00 00 00
(000.938223)  vcan0  0000014A   [8]  00 00 01 00 C8 88 EF AC
(000.938436)  vcan0  00000170   [8]  8E 00 00 00 00 00 00 00
(000.938658)  vcan0  0000017C   [8]  4B 00 00 00 00 00 00 00
(000.938868)  vcan0  00000309   [8]  07 0B 00 00 00 00 00 00
(000.944125)  vcan0  00000170   [8]  CC 00 00 00 00 00 00 00
(000.944345)  vcan0  0000014A   [8]  00 00 00 FC A7 E2 E0 62
(000.944565)  vcan0  0000017C   [8]  4B 00 00 00 00 00 00 00
(000.944775)  vcan0  00000309   [8]  07 18 00 00 00 00 00 00
(000.950126)  vcan0  00000309   [8]  07 25 00 00 00 00 00 00
(000.950342)  vcan0  0000014A   [8]  00 00 00 F8 B5 A9 13 2C
(000.950551)  vcan0  00000170   [8]  7D 00 00 00 00 00 00 00
(000.950771)  vcan0  0000017C   [8]  4B 00 00 00 00 00 00 00
(000.956261)  vcan0  00000170   [8]  82 00 00 00 00 00 00 00
(000.956493)  vcan0  0000017C   [8]  4B 00 00 00 00 00 00 00
(000.956705)  vcan0  0000014A   [8]  00 00 00 F4 CF EE F2 CC
(000.956916)  vcan0  00000309   [8]  07 32 00 00 00 00 00 00
(000.962307)  vcan0  0000014A   [8]  00 00 00 F1 05 9D 2C 64
(000.962523)  vcan0  00000309   [8]  07 3F 00 00 00 00 00 00
(000.962732)  vcan0  00000170   [8]  3B 00 00 00 00 00 00 00
(000.962953)  vcan0  0000017C   [8]  4B 00 00 00 00 00 00 00
(000.968297)  vcan0  0000017C   [8]  4B 00 00 00 00 00 00 00
(000.968510)  vcan0  00000170   [8]  15 00 00 00 00 00 00 00
(000.968723)  vcan0  0000014A   [8]  00 00 00 ED 4A 75 44 6C
(000.968933)  vcan0  00000309   [8]  07 4C 00 00 00 00 00 00
(000.974053)  vcan0  00000170   [8]  B9 00 00 00 00 00 00 00
(000.974293)  vcan0  00000309   [8]  07 59 00 00 00 00 00 00
(000.974524)  vcan0  0000014A   [8]  00 00 00 E9 B7 9C FF 54
(000.974748)  vcan0  0000017C   [8]  4B 00 00 00 00 00 00 00
(000.980190)  vcan0  0000014A   [8]  00 00 00 E6 0F 9D 16 30
(000.980425)  vcan0  00000309   [8]  07 65 00 00 00 00 00 00
(000.980645)  vcan0  0000017C   [8]  4B 00 00 00 00 00 00 00
(000.980855)  vcan0  00000170   [8]  C9 00 00 00 00 00 00 00
(000.986208)  vcan0  0000014A   [8]  00 00 00 E2 DB C1 11 2E
(000.986444)  vcan0  00000309   [8]  07 71 00 00 00 00 00 00
(000.986654)  vcan0  00000170   [8]  A7 00 00 00 00 00 00 00
(000.986874)  vcan0  0000017C   [8]  4B 00 00 00 00 00 00 00
(000.992211)  vcan0  00000309   [8]  07 7E 00 00 00 00 00 00
(000.992424)  vcan0  00000170   [8]  F0 00 00 00 00 00 00 00
(000.992637)  vcan0  0000014A   [8]  00 00 00 DE E5 D3 10 0E
(000.992856)  vcan0  0000017C   [8]  4B 00 00 00 00 00 00 00
(000.998214)  vcan0  00000309   [8]  07 80 00 00 00 00 00 00
(000.998428)  vcan0  00000170   [8]  CD 00 00 00 00 00 00 00
(000.998640)  vcan0  0000014A   [8]  00 00 00 DC 73 58 13 A2
(000.998860)  vcan0  0000017C   [8]  4B 00 00 00 00 00 00 00
(000.999067)  vcan0  00000202   [8]  00 26 00 00 00 00 00 00
(001.004163)  vcan0  0000017C   [8]  4B 00 00 00 00 00 00 00
(001.004378)  vcan0  0000014A   [8]  00 00 00 D8 56 FA A6 38
(001.004590)  vcan0  00000309   [8]  07 8B 00 00 00 00 00 00
(001.004799)  vcan0  00000170   [8]  60 00 00 00 00 00 00 00
(001.010217)  vcan0  0000018F   [8]  00 00 41 00 00 00 00 00
(001.010446)  vcan0  00000326   [8]  00 00 00 00 00 00 00 00
(001.010667)  vcan0  0000017C   [8]  4B 00 00 00 00 00 00 00
(001.010883)  vcan0  0000037B   [8]  00 00 00 00 00 00 00 00
(001.011098)  vcan0  00000374   [8]  00 00 00 00 00 00 00 00
(001.011305)  vcan0  00000170   [8]  B4 00 00 00 00 00 00 00
(001.011519)  vcan0  000001A4   [8]  00 67 00 00 00 00 00 00
(001.011729)  vcan0  000001A3   [8]  00 00 00 00 00 00 00 00
(001.011937)  vcan0  0000014A   [8]  00 00 00 D5 96 D3 58 1E
(001.012146)  vcan0  00000309   [8]  07 83 00 00 00 00 00 00
(001.016190)  vcan0  00000170   [8]  C5 00 00 00 00 00 00 00
(001.016424)  vcan0  0000017C   [8]  4B 00 00 00 00 00 00 00
(001.016635)  vcan0  00000309   [8]  07 8E 00 00 00 00 00 00
(001.016845)  vcan0  0000014A   [8]  00 00 00 D2 8C 6D 7D DA
(001.022795)  vcan0  0000017C   [8]  4B 00 00 00 00 00 00 00
(001.023021)  vcan0  00000170   [8]  CC 00 00 00 00 00 00 00
(001.023247)  vcan0  00000309   [8]  07 8E 00 00 00 00 00 00
(001.023470)  vcan0  0000014A   [8]  00 00 00 CF DE 78 8B AE
(001.028181)  vcan0  0000014A   [8]  00 00 00 CC 65 42 06 7C
(001.028397)  vcan0  00000309   [8]  07 99 00 00 00 00 00 00
(001.028617)  vcan0  0000017C   [8]  4B 00 00 00 00 00 00 00
(001.028826)  vcan0  00000170   [8]  3E 00 00 00 00 00 00 00
(001.034146)  vcan0  0000017C   [8]  4B 00 00 00 00 00 00 00
(001.034362)  vcan0  0000014A   [8]  00 00 00 C9 D7 45 13 94
(001.034573)  vcan0  00000309   [8]  07 98 00 00 00 00 00 00
(001.034781)  vcan0  00000170   [8]  50 00 00 00 00 00 00 00
(001.040064)  vcan0  00000309   [8]  07 A4 00 00 00 00 00 00
(001.040290)  vcan0  0000017C   [8]  4B 00 00 00 00 00 00 00
(001.040501)  vcan0  0000014A   [8]  00 00 00 C6 FE 03 A5 48
(001.040710)  vcan0  00000170   [8]  7E 00 00 00 00 00 00 00
(001.046308)  vcan0  00000309   [8]  07 A5 00 00 00 00 00 00
(001.046532)  vcan0  0000017C   [8]  4B 00 00 00 00 00 00 00
(001.046743)  vcan0  0000014A   [8]  00 00 00 C4 91 7A 35 36
(001.046951)  vcan0  00000170   [8]  2A 00 00 00 00 00 00 00
(001.052757)  vcan0  0000014A   [8]  00 00 00 C1 90 50 2B 1A
(001.052982)  vcan0  0000017C   [8]  4B 00 00 00 00 00 00 00
(001.053193)  vcan0  00000309   [8]  07 B1 00 00 00 00 00 00
(001.053402)  vcan0  00000170   [8]  00 00 00 00 00 00 00 00
(001.058692)  vcan0  00000170   [8]  9B 00 00 00 00 00 00 00
(001.058914)  vcan0  00000309   [8]  07 B3 00 00 00 00 00 00
(001.059126)  vcan0  0000014A   [8]  00 00 00 BF 41 03 12 54
(001.059345)  vcan0  0000017C   [8]  4B 00 00 00 00 00 00 00
(001.064488)  vcan0  0000014A   [8]  00 00 00 BC AB B5 00 0E
(001.064756)  vcan0  00000309   [8]  07 C0 00 00 00 00 00 00
(001.064968)  vcan0  00000170   [8]  C4 00 00 00 00 00 00 00
(001.065190)  vcan0  0000017C   [8]  4B 00 00 00 00 00 00 00
(001.070792)  vcan0  00000170   [8]  9C 00 00 00 00 00 00 00
(001.071024)  vcan0  0000014A   [8]  00 00 00 BA 81 F8 AE A4
(001.071249)  vcan0  0000017C   [8]  4B 00 00 00 00 00 00 00
(001.071460)  vcan0  00000309   [8]  07 C2 00 00 00 00 00 00
(001.076327)  vcan0  0000014A   [8]  00 00 00 B7 D7 1F B9 D8
(001.076551)  vcan0  0000017C   [8]  4B 00 00 00 00 00 00 00
(001.076762)  vcan0  00000309   [8]  07 D0 00 00 00 00 00 00
(001.076972)  vcan0  00000170   [8]  AA 00 00 00 00 00 00 00
(001.082762)  vcan0  00000170   [8]  2E 00 00 00 00 00 00 00
(001.083023)  vcan0  0000017C   [8]  4B 00 00 00 00 00 00 00
(001.083256)  vcan0  0000014A   [8]  00 00 00 B5 C9 F7 D1 E2
(001.083481)  vcan0  00000309   [8]  07 D3 00 00 00 00 00 00
(001.088296)  vcan0  0000014A   [8]  00 00 00 B3 7D 0A FE 40
(001.088521)  vcan0  0000017C   [8]  4B 00 00 00 00 00 00 00
(001.088732)  vcan0  00000309   [8]  07 E1 00 00 00 00 00 00
(001.088942)  vcan0  00000170   [8]  0D 00 00 00 00 00 00 00
(001.094196)  vcan0  00000170   [8]  E0 00 00 00 00 00 00 00
(001.094428)  vcan0  0000017C   [8]  4B 00 00 00 00 00 00 00
(001.094641)  vcan0  0000014A   [8]  00 00 00 B1 8B 71 90 86
(001.094851)  vcan0  00000309   [8]  07 E4 00 00 00 00 00 00
(001.100568)  vcan0  0000017C   [8]  4B 00 00 00 00 00 00 00
(001.100815)  vcan0  00000170   [8]  D9 00 00 00 00 00 00 00
(001.101029)  vcan0  0000014A   [8]  00 00 00 AF 36 15 3B D0
(001.101240)  vcan0  00000309   [8]  07 F3 00 00 00 00 00 00
(001.106330)  vcan0  0000017C   [8]  4B 00 00 00 00 00 00 00
(001.106546)  vcan0  0000014A   [8]  00 00 00 AD 5F 2A 79 58
(001.106755)  vcan0  00000170   [8]  F4 00 00 00 00 00 00 00
(001.106965)  vcan0  00000309   [8]  07 F7 00 00 00 00 00 00
(001.112217)  vcan0  00000309   [8]  08 06 00 00 00 00 00 00
(001.112432)  vcan0  0000014A   [8]  00 00 00 AB 5B 23 E5 82
(001.112642)  vcan0  00000170   [8]  70 00 00 00 00 00 00 00
(001.112862)  vcan0  0000017C   [8]  4B 00 00 00 00 00 00 00
(001.118316)  vcan0  00000170   [8]  58 00 00 00 00 00 00 00
(001.118538)  vcan0  00000309   [8]  08 0B 00 00 00 00 00 00
(001.118761)  vcan0  0000017C   [8]  4B 00 00 00 00 00 00 00
(001.118972)  vcan0  0000014A   [8]  00 00 00 A9 A0 DA EF C4
(001.124678)  vcan0  0000017C   [8]  4B 00 00 00 00 00 00 00
(001.124893)  vcan0  00000170   [8]  D7 00 00 00 00 00 00 00
(001.125106)  vcan0  00000309   [8]  08 1A 00 00 00 00 00 00
(001.125316)  vcan0  0000014A   [8]  00 00 00 A7 8D 1D 0B AA
(001.130619)  vcan0  00000309   [8]  08 1F 00 00 00 00 00 00
(001.130833)  vcan0  0000014A   [8]  00 00 00 A5 E7 FE ED 86
(001.131044)  vcan0  00000170   [8]  01 00 00 00 00 00 00 00
(001.131264)  vcan0  0000017C   [8]  4B 00 00 00 00 00 00 00
(001.136384)  vcan0  00000309   [8]  08 2F 00 00 00 00 00 00
(001.136610)  vcan0  0000017C   [8]  4B 00 00 00 00 00 00 00
(001.136820)  vcan0  00000170   [8]  7D 00 00 00 00 00 00 00
(001.137031)  vcan0  0000014A   [8]  00 00 00 A4 22 86 BB AA
(001.142331)  vcan0  0000017C   [8]  4B 00 00 00 00 00 00 00
(001.142547)  vcan0  0000014A   [8]  00 00 00 A2 96 0B 1F D6
(001.142757)  vcan0  00000170   [8]  5D 00 00 00 00 00 00 00
(001.142968)  vcan0  00000309   [8]  08 34 00 00 00 00 00 00
(001.148370)  vcan0  00000309   [8]  08 45 00 00 00 00 00 00
(001.148589)  vcan0  0000014A   [8]  00 00 00 A0 CA 53 AC 92
(001.148812)  vcan0  0000017C   [8]  4B 00 00 00 00 00 00 00
(001.149025)  vcan0  00000170   [8]  F7 00 00 00 00 00 00 00
(001.154214)  vcan0  00000309   [8]  08 4A 00 00 00 00 00 00
(001.154433)  vcan0  0000014A   [8]  00 00 00 9F 59 DA AA C8
(001.154643)  vcan0  00000170   [8]  BB 00 00 00 00 00 00 00
(001.154862)  vcan0  0000017C   [8]  4B 00 00 00 00 00 00 00
(001.160182)  vcan0  0000014A   [8]  00 00 00 9D C4 65 05 1C
(001.160397)  vcan0  00000309   [8]  08 5B 00 00 00 00 00 00
(001.160617)  vcan0  0000017C   [8]  4B 00 00 00 00 00 00 00
(001.160826)  vcan0  00000170   [8]  3B 00 00 00 00 00 00 00
(001.166388)  vcan0  00000309   [8]  08 60 00 00 00 00 00 00
(001.166601)  vcan0  00000170   [8]  09 00 00 00 00 00 00 00
(001.166814)  vcan0  0000014A   [8]  00 00 00 9C 68 22 D1 CE
(001.167034)  vcan0  0000017C   [8]  4B 00 00 00 00 00 00 00
(001.172122)  vcan0  0000017C   [8]  4B 00 00 00 00 00 00 00
(001.172335)  vcan0  00000170   [8]  FE 00 00 00 00 00 00 00
(001.172548)  vcan0  0000014A   [8]  00 00 00 9A CF 23 06 4E
(001.172758)  vcan0  00000309   [8]  08 71 00 00 00 00 00 00
(001.178504)  vcan0  00000170   [8]  03 00 00 00 00 00 00 00
(001.178743)  vcan0  0000014A   [8]  00 00 00 99 8E 9A 3A D6
(001.178983)  vcan0  0000017C   [8]  4B 00 00 00 00 00 00 00
(001.179206)  vcan0  00000309   [8]  08 77 00 00 00 00 00 00
(001.184229)  vcan0  0000017C   [8]  4B 00 00 00 00 00 00 00
(001.184445)  vcan0  00000309   [8]  08 88 00 00 00 00 00 00
(001.184656)  vcan0  0000014A   [8]  00 00 00 98 30 E9 9C BA
(001.184865)  vcan0  00000170   [8]  90 00 00 00 00 00 00 00
(001.190164)  vcan0  0000017C   [8]  4B 00 00 00 00 00 00 00
(001.190381)  vcan0  0000014A   [8]  00 00 00 96 FA 9C 99 46
(001.190593)  vcan0  00000309   [8]  08 8E 00 00 00 00 00 00
(001.190802)  vcan0  00000170   [8]  FB 00 00 00 00 00 00 00
(001.196362)  vcan0  0000014A   [8]  00 00 00 95 96 66 BB 1E
(001.196576)  vcan0  00000170   [8]  10 00 00 00 00 00 00 00
(001.196789)  vcan0  00000309   [8]  08 9F 00 00 00 00 00 00
(001.197008)  vcan0  0000017C   [8]  4B 00 00 00 00 00 00 00
(001.202517)  vcan0  0000017C   [8]  4B 00 00 00 00 00 00 00
(001.202730)  vcan0  00000170   [8]  A4 00 00 00 00 00 00 00
(001.202944)  vcan0  0000014A   [8]  00 00 00 94 79 96 11 92
(001.203155)  vcan0  00000309   [8]  08 A6 00 00 00 00 00 00
(001.208186)  vcan0  0000014A   [8]  00 00 00 93 48 93 8C 24
(001.208401)  vcan0  00000309   [8]  08 B7 00 00 00 00 00 00
(001.208610)  vcan0  00000170   [8]  9F 00 00 00 00 00 00 00
(001.208830)  vcan0  0000017C   [8]  4B 00 00 00 00 00 00 00
(001.214250)  vcan0  00000170   [8]  BE 00 00 00 00 00 00 00
(001.214472)  vcan0  00000309   [8]  08 BD 00 00 00 00 00 00
(001.214685)  vcan0  0000014A   [8]  00 00 00 92 3B 52 E8 92
(001.214904)  vcan0  0000017C   [8]  4B 00 00 00 00 00 00 00
(001.220574)  vcan0  00000170   [8]  BA 00 00 00 00 00 00 00
(001.220825)  vcan0  0000017C   [8]  4B 00 00 00 00 00 00 00
(001.221052)  vcan0  0000014A   [8]  00 00 00 90 FF B9 F2 92
(001.221275)  vcan0  00000309   [8]  08 CF 00 00 00 00 00 00
(001.226612)  vcan0  0000014A   [8]  00 00 00 90 0D 8F 4B D4
(001.226839)  vcan0  00000309   [8]  08 D5 00 00 00 00 00 00
(001.227075)  vcan0  0000017C   [8]  4B 00 00 00 00 00 00 00
(001.227292)  vcan0  00000170   [8]  7E 00 00 00 00 00 00 00
(001.232532)  vcan0  00000170   [8]  F8 00 00 00 00 00 00 00
(001.232770)  vcan0  0000014A   [8]  00 00 00 8F 00 C3 37 D6
(001.232996)  vcan0  00000309   [8]  08 E7 00 00 00 00 00 00
(001.233234)  vcan0  0000017C   [8]  4B 00 00 00 00 00 00 00
(001.238579)  vcan0  0000017C   [8]  4B 00 00 00 00 00 00 00
(001.238796)  vcan0  0000014A   [8]  00 00 00 8E 18 0E 4B E8
(001.239008)  vcan0  00000309   [8]  08 EE 00 00 00 00 00 00
(001.239218)  vcan0  00000170   [8]  2A 00 00 00 00 00 00 00
(001.244554)  vcan0  0000017C   [8]  4B 00 00 00 00 00 00 00
(001.244786)  vcan0  00000202   [8]  00 38 00 00 00 00 00 00
(001.245001)  vcan0  00000170   [8]  30 00 00 00 00 00 00 00
(001.245217)  vcan0  0000014A   [8]  00 00 00 8D 0A 2F 9F B0
(001.245428)  vcan0  00000309   [8]  08 FF 00 00 00 00 00 00
(001.250688)  vcan0  00000309   [8]  09 06 00 00 00 00 00 00
(001.250904)  vcan0  0000014A   [8]  00 00 00 8C 2E D2 9E 66
(001.251124)  vcan0  0000017C   [8]  4B 00 00 00 00 00 00 00
(001.251333)  vcan0  00000170   [8]  A5 00 00 00 00 00 00 00
(001.256732)  vcan0  0000017C   [8]  4B 00 00 00 00 00 00 00
(001.256962)  vcan0  00000309   [8]  09 18 00 00 00 00 00 00
(001.257179)  vcan0  00000170   [8]  50 00 00 00 00 00 00 00
(001.257400)  vcan0  0000014A   [8]  00 00 00 8B 4C D7 7A D2
(001.262865)  vcan0  0000017C   [8]  4B 00 00 00 00 00 00 00
(001.263082)  vcan0  00000309   [8]  09 1F 00 00 00 00 00 00
(001.263294)  vcan0  0000014A   [8]  00 00 00 8A 76 B9 78 94
(001.263504)  vcan0  00000170   [8]  95 00 00 00 00 00 00 00
(001.268890)  vcan0  0000017C   [8]  4B 00 00 00 00 00 00 00
(001.269109)  vcan0  0000014A   [8]  00 00 00 89 9A 85 06 5E
(001.269321)  vcan0  00000170   [8]  67 00 00 00 00 00 00 00
(001.269535)  vcan0  00000309   [8]  09 31 00 00 00 00 00 00
(001.274435)  vcan0  00000170   [8]  1C 00 00 00 00 00 00 00
(001.274666)  vcan0  00000309   [8]  09 38 00 00 00 00 00 00
(001.274883)  vcan0  0000014A   [8]  00 00 00 88 DF A9 D2 D8
(001.275105)  vcan0  0000017C   [8]  4B 00 00 00 00 00 00 00
(001.280328)  vcan0  00000309   [8]  09 49 00 00 00 00 00 00
(001.280540)  vcan0  00000170   [8]  99 00 00 00 00 00 00 00
(001.280760)  vcan0  0000017C   [8]  4B 00 00 00 00 00 00 00
(001.280971)  vcan0  0000014A   [8]  00 00 00 88 10 99 DA 62
(001.286297)  vcan0  0000017C   [8]  4B 00 00 00 00 00 00 00
(001.286511)  vcan0  00000309   [8]  09 51 00 00 00 00 00 00
(001.286721)  vcan0  00000170   [8]  D2 00 00 00 00 00 00 00
(001.286932)  vcan0  0000014A   [8]  00 00 00 87 61 1A 57 BE
(001.292222)  vcan0  0000014A   [8]  00 00 00 86 9D B6 C0 E4
(001.292438)  vcan0  00000309   [8]  09 62 00 00 00 00 00 00
(001.292658)  vcan0  0000017C   [8]  4B 00 00 00 00 00 00 00
(001.292868)  vcan0  00000170   [8]  77 00 00 00 00 00 00 00
(001.298307)  vcan0  00000309   [8]  09 6A 00 00 00 00 00 00
(001.298530)  vcan0  0000017C   [8]  4B 00 00 00 00 00 00 00
(001.298741)  vcan0  0000014A   [8]  00 00 00 85 FD 55 1B 54
(001.298950)  vcan0  00000170   [8]  2D 00 00 00 00 00 00 00
(001.304143)  vcan0  0000014A   [8]  00 00 00 85 4E B7 71 30
(001.304366)  vcan0  0000017C   [8]  4B 00 00 00 00 00 00 00
(001.304575)  vcan0  00000170   [8]  DF 00 00 00 00 00 00 00
(001.304785)  vcan0  00000309   [8]  09 7B 00 00 00 00 00 00
(001.310095)  vcan0  00000309   [8]  09 83 00 00 00 00 00 00
(001.310306)  vcan0  00000170   [8]  CC 00 00 00 00 00 00 00
(001.310517)  vcan0  0000014A   [8]  00 00 00 84 B5 1F 4B 4A
(001.310735)  vcan0  0000017C   [8]  4B 00 00 00 00 00 00 00
(001.316245)  vcan0  00000309   [8]  09 94 00 00 00 00 00 00
(001.316467)  vcan0  0000017C   [8]  4B 00 00 00 00 00 00 00
(001.316675)  vcan0  00000170   [8]  20 00 00 00 00 00 00 00
(001.316888)  vcan0  0000014A   [8]  00 00 00 0D 7F 8B 8A 9E
(001.322141)  vcan0  00000170   [8]  8E 00 00 00 00 00 00 00
(001.322368)  vcan0  0000017C   [8]  4B 00 00 00 00 00 00 00
(001.322580)  vcan0  0000014A   [8]  01 FF FF D4 DE D8 64 32
(001.322789)  vcan0  00000309   [8]  09 9C 00 00 00 00 00 00
(001.328261)  vcan0  00000170   [8]  40 00 00 00 00 00 00 00
(001.328481)  vcan0  00000309   [8]  09 AD 00 00 00 00 00 00
(001.328691)  vcan0  0000014A   [8]  01 FF FF D4 9A 15 3B 06
(001.328911)  vcan0  0000017C   [8]  4B 00 00 00 00 00 00 00
(001.334694)  vcan0  0000017C   [8]  4B 00 00 00 00 00 00 00
(001.334910)  vcan0  0000014A   [8]  01 FF FF D4 EB 44 DB A4
(001.335119)  vcan0  00000170   [8]  4C 00 00 00 00 00 00 00
(001.335329)  vcan0  00000309   [8]  09 B5 00 00 00 00 00 00
(001.341052)  vcan0  0000017C   [8]  4B 00 00 00 00 00 00 00
(001.341282)  vcan0  0000014A   [8]  01 FF FF D6 32 F3 69 1C
(001.341505)  vcan0  00000170   [8]  F3 00 00 00 00 00 00 00
(001.341737)  vcan0  00000309   [8]  09 C4 00 00 00 00 00 00
(001.346671)  vcan0  00000170   [8]  85 00 00 00 00 00 00 00
(001.346899)  vcan0  0000014A   [8]  01 FF FF D8 00 4A C1 2C
(001.347125)  vcan0  0000017C   [8]  4B 00 00 00 00 00 00 00
(001.347336)  vcan0  00000309   [8]  09 CD 00 00 00 00 00 00
(001.352441)  vcan0  00000170   [8]  52 00 00 00 00 00 00 00
(001.352667)  vcan0  0000017C   [8]  4B 00 00 00 00 00 00 00
(001.352912)  vcan0  0000014A   [8]  01 FF FF DA FC 9B CE 86
(001.353121)  vcan0  00000309   [8]  09 DB 00 00 00 00 00 00
(001.358297)  vcan0  0000017C   [8]  4B 00 00 00 00 00 00 00
(001.358512)  vcan0  0000014A   [8]  01 FF FF DE 0F F2 F7 76
(001.358721)  vcan0  00000170   [8]  11 00 00 00 00 00 00 00
(001.358932)  vcan0  00000309   [8]  09 E4 00 00 00 00 00 00
(001.364112)  vcan0  0000014A   [8]  01 FF FF E1 E0 A8 F5 82
(001.364327)  vcan0  00000309   [8]  09 F3 00 00 00 00 00 00
(001.364547)  vcan0  0000017C   [8]  4B 00 00 00 00 00 00 00
(001.364756)  vcan0  00000170   [8]  B3 00 00 00 00 00 00 00
(001.370193)  vcan0  0000014A   [8]  01 FF FF E5 88 72 BC 90
(001.370409)  vcan0  00000309   [8]  09 FB 00 00 00 00 00 00
(001.370629)  vcan0  0000017C   [8]  4B 00 00 00 00 00 00 00
(001.370837)  vcan0  00000170   [8]  18 00 00 00 00 00 00 00
(001.376256)  vcan0  0000017C   [8]  4B 00 00 00 00 00 00 00
(001.376470)  vcan0  00000309   [8]  0A 0B 00 00 00 00 00 00
(001.376679)  vcan0  00000170   [8]  3C 00 00 00 00 00 00 00
(001.376892)  vcan0  0000014A   [8]  01 FF FF E9 FE 4A 0A EE
(001.382309)  vcan0  0000017C   [8]  4B 00 00 00 00 00 00 00
(001.382522)  vcan0  00000309   [8]  0A 13 00 00 00 00 00 00
(001.382730)  vcan0  00000170   [8]  91 00 00 00 00 00 00 00
(001.382940)  vcan0  0000014A   [8]  01 FF FF EE 3A 36 1C 80
(001.388246)  vcan0  00000309   [8]  0A 23 00 00 00 00 00 00
(001.388459)  vcan0  00000170   [8]  86 00 00 00 00 00 00 00
(001.388671)  vcan0  0000014A   [8]  01 FF FF F2 EA 0F F0 1E
(001.388893)  vcan0  0000017C   [8]  4B 00 00 00 00 00 00 00
(001.394179)  vcan0  0000017C   [8]  4B 00 00 00 00 00 00 00
(001.394392)  vcan0  00000170   [8]  30 00 00 00 00 00 00 00
(001.394603)  vcan0  00000309   [8]  0A 2B 00 00 00 00 00 00
(001.394814)  vcan0  0000014A   [8]  01 FF FF F7 4A CA 14 A8
(001.400261)  vcan0  0000017C   [8]  4B 00 00 00 00 00 00 00
(001.400477)  vcan0  0000014A   [8]  01 FF FF FC 0E 49 A1 9E
(001.400687)  vcan0  00000309   [8]  0A 3C 00 00 00 00 00 00
(001.400895)  vcan0  00000170   [8]  F1 00 00 00 00 00 00 00
(001.406293)  vcan0  00000309   [8]  0A 44 00 00 00 00 00 00
(001.406507)  vcan0  0000014A   [8]  00 00 00 00 71 A6 FB 9E
(001.406726)  vcan0  0000017C   [8]  4B 00 00 00 00 00 00 00
(001.406934)  vcan0  00000170   [8]  A7 00 00 00 00 00 00 00
(001.412278)  vcan0  0000017C   [8]  3A 12 00 00 00 00 00 00
(001.412490)  vcan0  00000170   [8]  FE 00 00 00 00 00 00 00
(001.412701)  vcan0  00000309   [8]  0A 55 00 00 00 00 00 00
(001.412911)  vcan0  0000014A   [8]  00 00 00 05 2E 62 DB 08
(001.418433)  vcan0  0000014A   [8]  00 00 00 09 7D C4 55 FC
(001.418647)  vcan0  00000309   [8]  0A 5D 00 00 00 00 00 00
(001.418856)  vcan0  00000170   [8]  11 00 00 00 00 00 00 00
(001.419075)  vcan0  0000017C   [8]  31 FF 00 00 00 00 00 00
(001.424116)  vcan0  00000309   [8]  0A 6E 00 00 00 00 00 00
(001.424331)  vcan0  0000014A   [8]  00 00 00 0E 20 37 67 2A
(001.424550)  vcan0  0000017C   [8]  20 B0 00 00 00 00 00 00
(001.424758)  vcan0  00000170   [8]  D9 00 00 00 00 00 00 00
(001.430053)  vcan0  0000017C   [8]  19 07 00 00 00 00 00 00
(001.430268)  vcan0  00000309   [8]  0A 75 00 00 00 00 00 00
(001.430477)  vcan0  00000170   [8]  23 00 00 00 00 00 00 00
(001.430687)  vcan0  0000014A   [8]  00 00 00 12 49 AB 43 6A
(001.436651)  vcan0  00000170   [8]  AF 00 00 00 00 00 00 00
(001.436869)  vcan0  00000309   [8]  0A 85 00 00 00 00 00 00
(001.437088)  vcan0  0000017C   [8]  08 B7 00 00 00 00 00 00
(001.437298)  vcan0  0000014A   [8]  00 00 00 16 C0 F1 DC 1A
(001.443181)  vcan0  00000170   [8]  64 00 00 00 00 00 00 00
(001.443400)  vcan0  0000014A   [8]  00 00 00 1A BF 37 80 D4
(001.443621)  vcan0  0000017C   [8]  02 23 00 00 00 00 00 00
(001.443830)  vcan0  00000309   [8]  0A 8B 00 00 00 00 00 00
(001.448870)  vcan0  00000170   [8]  80 00 00 00 00 00 00 00
(001.449100)  vcan0  00000309   [8]  0A 9A 00 00 00 00 00 00
(001.449324)  vcan0  0000017C   [8]  00 00 00 00 00 00 08 08
(001.449535)  vcan0  0000014A   [8]  00 00 00 1E F4 0E FC 3E
(001.454768)  vcan0  0000017C   [8]  00 00 00 00 00 00 0B 38
(001.454983)  vcan0  00000309   [8]  0A 9E 00 00 00 00 00 00
(001.455192)  vcan0  00000170   [8]  41 00 00 00 00 00 00 00
(001.455402)  vcan0  0000014A   [8]  00 00 00 22 BC 64 9B 84
(001.460420)  vcan0  0000014A   [8]  00 00 00 26 BD C4 C9 18
(001.460644)  vcan0  0000017C   [8]  00 00 00 00 00 00 12 F8
(001.460852)  vcan0  00000170   [8]  9D 00 00 00 00 00 00 00
(001.461063)  vcan0  00000309   [8]  0A AA 00 00 00 00 00 00
(001.466877)  vcan0  0000017C   [8]  00 00 00 00 00 00 13 30
(001.467103)  vcan0  00000309   [8]  0A AC 00 00 00 00 00 00
(001.467313)  vcan0  00000170   [8]  F4 00 00 00 00 00 00 00
(001.467524)  vcan0  0000014A   [8]  00 00 00 2A 3F 31 2F 38
(001.472240)  vcan0  0000014A   [8]  01 FF FF B3 09 9D 11 6A
(001.472464)  vcan0  0000017C   [8]  00 00 00 00 00 00 13 30
(001.472674)  vcan0  00000309   [8]  0A B5 00 00 00 00 00 00
(001.472888)  vcan0  00000170   [8]  41 00 00 00 00 00 00 00
(001.478320)  vcan0  0000017C   [8]  00 00 00 00 00 00 13 30
(001.478534)  vcan0  00000309   [8]  0A B3 00 00 00 00 00 00
(001.478742)  vcan0  00000170   [8]  D1 00 00 00 00 00 00 00
(001.478953)  vcan0  0000014A   [8]  01 FF FF B5 4E F0 98 3E
(001.484556)  vcan0  00000170   [8]  9C 00 00 00 00 00 00 00
(001.484773)  vcan0  0000014A   [8]  01 FF FF B9 1B 89 07 46
(001.484985)  vcan0  00000309   [8]  0A B9 00 00 00 00 00 00
(001.485203)  vcan0  0000017C   [8]  00 00 00 00 00 00 13 30
(001.490505)  vcan0  0000014A   [8]  01 FF FF BC DA A1 17 5A
(001.490730)  vcan0  0000017C   [8]  00 00 00 00 00 00 13 30
(001.490940)  vcan0  00000202   [8]  00 75 00 00 00 00 00 00
(001.491146)  vcan0  00000170   [8]  12 00 00 00 00 00 00 00
(001.491357)  vcan0  00000309   [8]  0A B5 00 00 00 00 00 00
(001.496559)  vcan0  0000014A   [8]  01 FF FF C2 02 F7 28 4A
(001.496781)  vcan0  0000017C   [8]  00 00 00 00 00 00 13 30
(001.496990)  vcan0  00000170   [8]  41 00 00 00 00 00 00 00
(001.497199)  vcan0  00000309   [8]  0A B7 00 00 00 00 00 00
(001.502341)  vcan0  00000309   [8]  0A B2 00 00 00 00 00 00
(001.502553)  vcan0  00000170   [8]  F1 00 00 00 00 00 00 00
(001.502773)  vcan0  0000017C   [8]  00 00 00 00 00 00 13 30
(001.502983)  vcan0  0000014A   [8]  01 FF FF C6 B6 C1 24 04
(001.508270)  vcan0  00000170   [8]  0D 00 00 00 00 00 00 00
(001.508480)  vcan0  0000018F   [8]  00 00 E4 00 00 00 00 00
(001.508697)  vcan0  00000309   [8]  0A B2 00 00 00 00 00 00
(001.508918)  vcan0  0000017C   [8]  00 00 00 00 00 00 13 30
(001.509128)  vcan0  0000014A   [8]  01 FF FF CC 7B 5F A9 16
(001.509342)  vcan0  000001A3   [8]  00 00 00 00 00 00 00 00
(001.514475)  vcan0  00000309   [8]  0A AC 00 00 00 00 00 00
(001.514699)  vcan0  0000017C   [8]  00 00 00 00 00 00 13 30
(001.514908)  vcan0  00000170   [8]  14 00 00 00 00 00 00 00
(001.515118)  vcan0  0000014A   [8]  01 FF FF D1 77 82 28 4A
(001.520652)  vcan0  0000014A   [8]  01 FF FF D7 6B 92 49 A8
(001.520865)  vcan0  00000170   [8]  82 00 00 00 00 00 00 00
(001.521085)  vcan0  0000017C   [8]  00 00 00 00 00 00 13 30
(001.521295)  vcan0  00000309   [8]  0A AC 00 00 00 00 00 00
(001.526168)  vcan0  0000017C   [8]  00 00 00 00 00 00 0F F0
(001.526381)  vcan0  00000309   [8]  0A A4 00 00 00 00 00 00
(001.526591)  vcan0  0000014A   [8]  01 FF FF DC 82 10 37 76
(001.526800)  vcan0  00000170   [8]  04 00 00 00 00 00 00 00
(001.532296)  vcan0  00000170   [8]  6A 00 00 00 00 00 00 00
(001.532524)  vcan0  0000017C   [8]  00 00 00 00 00 00 0F C8
(001.532735)  vcan0  00000309   [8]  0A A4 00 00 00 00 00 00
(001.532946)  vcan0  0000014A   [8]  01 FF FF E2 99 FB 1C F0
(001.538135)  vcan0  00000309   [8]  0A 9B 00 00 00 00 00 00
(001.538345)  vcan0  00000170   [8]  04 00 00 00 00 00 00 00
(001.538557)  vcan0  0000014A   [8]  01 FF FF E7 D0 CD 96 DA
(001.538775)  vcan0  0000017C   [8]  00 00 00 00 00 00 0A 60
(001.544369)  vcan0  00000309   [8]  0A 9B 00 00 00 00 00 00
(001.544590)  vcan0  0000017C   [8]  00 00 00 00 00 00 0A 10
(001.544799)  vcan0  00000170   [8]  8F 00 00 00 00 00 00 00
(001.545009)  vcan0  0000014A   [8]  01 FF FF ED C5 75 0F 3E
(001.550375)  vcan0  0000017C   [8]  00 00 00 00 00 00 04 78
(001.550585)  vcan0  00000170   [8]  35 00 00 00 00 00 00 00
(001.550795)  vcan0  00000309   [8]  0A 92 00 00 00 00 00 00
(001.551005)  vcan0  0000014A   [8]  01 FF FF F2 E8 DE 59 06
(001.556105)  vcan0  00000309   [8]  0A 92 00 00 00 00 00 00
(001.556330)  vcan0  0000017C   [8]  00 00 00 00 00 00 04 30
(001.556539)  vcan0  00000170   [8]  90 00 00 00 00 00 00 00
(001.556750)  vcan0  0000014A   [8]  01 FF FF F8 9E F0 28 CA
(001.562256)  vcan0  0000014A   [8]  01 FF FF FD 8B 90 4F CA
(001.562467)  vcan0  00000170   [8]  7A 00 00 00 00 00 00 00
(001.562686)  vcan0  0000017C   [8]  02 48 00 00 00 00 00 00
(001.562897)  vcan0  00000309   [8]  0A 89 00 00 00 00 00 00
(001.568315)  vcan0  00000170   [8]  12 00 00 00 00 00 00 00
(001.568536)  vcan0  0000014A   [8]  00 00 00 02 FF AE 68 BC
(001.568756)  vcan0  0000017C   [8]  02 B9 00 00 00 00 00 00
(001.568967)  vcan0  00000309   [8]  0A 89 00 00 00 00 00 00
(001.574481)  vcan0  0000017C   [8]  0B 8F 00 00 00 00 00 00
(001.574694)  vcan0  00000309   [8]  0A 80 00 00 00 00 00 00
(001.574904)  vcan0  0000014A   [8]  00 00 00 07 B2 46 CD 60
(001.575112)  vcan0  00000170   [8]  CB 00 00 00 00 00 00 00
(001.580438)  vcan0  00000170   [8]  98 00 00 00 00 00 00 00
(001.580661)  vcan0  00000309   [8]  0A 80 00 00 00 00 00 00
(001.580872)  vcan0  0000014A   [8]  00 00 00 0C D0 7C E1 9A
(001.581092)  vcan0  0000017C   [8]  0C 05 00 00 00 00 00 00
(001.586427)  vcan0  00000170   [8]  96 00 00 00 00 00 00 00
(001.586646)  vcan0  00000309   [8]  0A 77 00 00 00 00 00 00
(001.586857)  vcan0  0000014A   [8]  00 00 00 11 3D 97 D9 5A
(001.587075)  vcan0  0000017C   [8]  15 5A 00 00 00 00 00 00
(001.592426)  vcan0  00000170   [8]  9E 00 00 00 00 00 00 00
(001.592645)  vcan0  0000014A   [8]  00 00 00 16 0D 4A D2 9E
(001.592856)  vcan0  00000309   [8]  0A 76 00 00 00 00 00 00
(001.593075)  vcan0  0000017C   [8]  15 EE 00 00 00 00 00 00
(001.598258)  vcan0  00000170   [8]  AB 00 00 00 00 00 00 00
(001.598478)  vcan0  0000014A   [8]  00 00 00 1A 25 45 6C A2
(001.598699)  vcan0  0000017C   [8]  1F 59 00 00 00 00 00 00
(001.598909)  vcan0  00000309   [8]  0A 6D 00 00 00 00 00 00
(001.604421)  vcan0  0000017C   [8]  1F C7 00 00 00 00 00 00
(001.604636)  vcan0  00000309   [8]  0A 6D 00 00 00 00 00 00
(001.604846)  vcan0  0000014A   [8]  00 00 00 1E A5 D2 E4 B4
(001.605055)  vcan0  00000170   [8]  32 00 00 00 00 00 00 00
(001.610307)  vcan0  00000309   [8]  0A 63 00 00 00 00 00 00
(001.610522)  vcan0  0000014A   [8]  00 00 00 22 75 7D B6 6C
(001.610742)  vcan0  0000017C   [8]  28 F6 00 00 00 00 00 00
(001.610951)  vcan0  00000170   [8]  99 00 00 00 00 00 00 00
(001.616349)  vcan0  00000170   [8]  E9 00 00 00 00 00 00 00
(001.616582)  vcan0  0000017C   [8]  29 01 00 00 00 00 00 00
(001.616793)  vcan0  0000014A   [8]  00 00 00 26 9B AB 61 F2
(001.617002)  vcan0  00000309   [8]  0A 64 00 00 00 00 00 00
(001.622148)  vcan0  00000170   [8]  D2 00 00 00 00 00 00 00
(001.622365)  vcan0  00000309   [8]  0A 5B 00 00 00 00 00 00
(001.622583)  vcan0  0000017C   [8]  31 AF 00 00 00 00 00 00
(001.622793)  vcan0  0000014A   [8]  00 00 00 2A 27 74 E3 00
(001.628197)  vcan0  0000014A   [8]  00 00 00 2D F8 DC 69 98
(001.628408)  vcan0  00000170   [8]  2F 00 00 00 00 00 00 00
(001.628620)  vcan0  00000309   [8]  0A 5C 00 00 00 00 00 00
(001.628836)  vcan0  0000017C   [8]  31 1E 00 00 00 00 00 00
(001.634222)  vcan0  0000014A   [8]  00 00 00 31 3B 48 A1 FA
(001.634432)  vcan0  00000170   [8]  1C 00 00 00 00 00 00 00
(001.634644)  vcan0  00000309   [8]  0A 54 00 00 00 00 00 00
(001.634861)  vcan0  0000017C   [8]  39 0C 00 00 00 00 00 00
(001.640078)  vcan0  0000014A   [8]  00 00 00 34 B9 F9 F5 28
(001.640292)  vcan0  00000309   [8]  0A 55 00 00 00 00 00 00
(001.640511)  vcan0  0000017C   [8]  37 B0 00 00 00 00 00 00
(001.640718)  vcan0  00000170   [8]  5A 00 00 00 00 00 00 00
(001.646532)  vcan0  00000309   [8]  0A 4E 00 00 00 00 00 00
(001.646754)  vcan0  0000017C   [8]  3E B1 00 00 00 00 00 00
(001.646965)  vcan0  0000014A   [8]  00 00 00 37 BA CA 5B 7A
(001.647173)  vcan0  00000170   [8]  D0 00 00 00 00 00 00 00
(001.652180)  vcan0  00000170   [8]  8E 00 00 00 00 00 00 00
(001.652400)  vcan0  00000309   [8]  0A 51 00 00 00 00 00 00
(001.652619)  vcan0  0000017C   [8]  3C 69 00 00 00 00 00 00
(001.652829)  vcan0  0000014A   [8]  00 00 00 3A F8 6A AF DE
(001.658244)  vcan0  00000170   [8]  B0 00 00 00 00 00 00 00
(001.658474)  vcan0  0000017C   [8]  42 60 00 00 00 00 00 00
(001.658686)  vcan0  00000309   [8]  0A 4B 00 00 00 00 00 00
(001.658896)  vcan0  0000014A   [8]  00 00 00 3D B2 A8 4D 46
(001.664337)  vcan0  00000170   [8]  9E 00 00 00 00 00 00 00
(001.664558)  vcan0  00000309   [8]  0A 4E 00 00 00 00 00 00
(001.664779)  vcan0  0000017C   [8]  3F 16 00 00 00 00 00 00
(001.664989)  vcan0  0000014A   [8]  00 00 00 40 9F 54 AA BC
(001.670425)  vcan0  00000170   [8]  93 00 00 00 00 00 00 00
(001.670658)  vcan0  0000017C   [8]  43 FA 00 00 00 00 00 00
(001.670869)  vcan0  00000309   [8]  0A 49 00 00 00 00 00 00
(001.671080)  vcan0  0000014A   [8]  00 00 00 43 28 D5 2D BC
(001.676831)  vcan0  0000014A   [8]  00 00 00 45 D3 A9 7A 6E
(001.677047)  vcan0  00000170   [8]  C0 00 00 00 00 00 00 00
(001.677261)  vcan0  00000309   [8]  0A 4E 00 00 00 00 00 00
(001.677483)  vcan0  0000017C   [8]  3F A8 00 00 00 00 00 00
(001.682617)  vcan0  00000170   [8]  99 00 00 00 00 00 00 00
(001.682853)  vcan0  0000017C   [8]  43 7C 00 00 00 00 00 00
(001.683068)  vcan0  0000014A   [8]  01 FF FF CE 9E 15 A7 22
(001.683278)  vcan0  00000309   [8]  0A 4A 00 00 00 00 00 00
(001.688295)  vcan0  0000014A   [8]  01 FF FF EC B6 4E 18 78
(001.688507)  vcan0  00000170   [8]  58 00 00 00 00 00 00 00
(001.688729)  vcan0  0000017C   [8]  3E 5A 00 00 00 00 00 00
(001.688939)  vcan0  00000309   [8]  0A 4F 00 00 00 00 00 00
(001.694460)  vcan0  00000309   [8]  0A 4C 00 00 00 00 00 00
(001.694690)  vcan0  0000017C   [8]  41 5D 00 00 00 00 00 00
(001.694903)  vcan0  0000014A   [8]  01 FF FF EF 17 EB D1 C4
(001.695113)  vcan0  00000170   [8]  DB 00 00 00 00 00 00 00
(001.700304)  vcan0  00000309   [8]  0A 51 00 00 00 00 00 00
(001.700520)  vcan0  0000014A   [8]  01 FF FF F2 9A 1C F5 D2
(001.700730)  vcan0  00000170   [8]  08 00 00 00 00 00 00 00
(001.700952)  vcan0  0000017C   [8]  3C 53 00 00 00 00 00 00
(001.706421)  vcan0  0000017C   [8]  3E 48 00 00 00 00 00 00
(001.706636)  vcan0  00000170   [8]  73 00 00 00 00 00 00 00
(001.706848)  vcan0  00000309   [8]  0A 4F 00 00 00 00 00 00
(001.707059)  vcan0  0000014A   [8]  01 FF FF F5 EB 32 69 14
(001.712309)  vcan0  0000014A   [8]  01 FF FF FA 01 A9 59 5C
(001.712524)  vcan0  00000309   [8]  0A 55 00 00 00 00 00 00
(001.712733)  vcan0  00000170   [8]  B8 00 00 00 00 00 00 00
(001.712952)  vcan0  0000017C   [8]  38 8C 00 00 00 00 00 00
(001.718207)  vcan0  00000309   [8]  0A 54 00 00 00 00 00 00
(001.718421)  vcan0  0000014A   [8]  01 FF FF FD 97 A2 8E 6E
(001.718630)  vcan0  00000170   [8]  8E 00 00 00 00 00 00 00
(001.718850)  vcan0  0000017C   [8]  39 F2 00 00 00 00 00 00
(001.724156)  vcan0  00000170   [8]  37 00 00 00 00 00 00 00
(001.724382)  vcan0  00000309   [8]  0A 5A 00 00 00 00 00 00
(001.724595)  vcan0  0000014A   [8]  00 00 00 01 D9 89 7C 8C
(001.724814)  vcan0  0000017C   [8]  33 34 00 00 00 00 00 00
(001.730399)  vcan0  0000014A   [8]  00 00 00 05 8D 19 D6 BE
(001.730612)  vcan0  00000170   [8]  4D 00 00 00 00 00 00 00
(001.730824)  vcan0  00000309   [8]  0A 59 00 00 00 00 00 00
(001.731046)  vcan0  0000017C   [8]  34 38 00 00 00 00 00 00
(001.736300)  vcan0  0000017C   [8]  2C DE 00 00 00 00 00 00
(001.736512)  vcan0  00000202   [8]  00 4F 00 00 00 00 00 00
(001.736725)  vcan0  0000014A   [8]  00 00 00 09 D2 9A C7 40
(001.736932)  vcan0  00000170   [8]  2B 00 00 00 00 00 00 00
(001.737142)  vcan0  00000309   [8]  0A 61 00 00 00 00 00 00
(001.742372)  vcan0  0000017C   [8]  2D AD 00 00 00 00 00 00
(001.742586)  vcan0  00000309   [8]  0A 60 00 00 00 00 00 00
(001.742796)  vcan0  00000170   [8]  08 00 00 00 00 00 00 00
(001.743006)  vcan0  0000014A   [8]  00 00 00 0D AA D8 06 BE
(001.748516)  vcan0  0000014A   [8]  00 00 00 11 FB EC E6 60
(001.748728)  vcan0  00000170   [8]  8D 00 00 00 00 00 00 00
(001.748941)  vcan0  00000309   [8]  0A 67 00 00 00 00 00 00
(001.749160)  vcan0  0000017C   [8]  26 1B 00 00 00 00 00 00
(001.754322)  vcan0  00000170   [8]  D3 00 00 00 00 00 00 00
(001.754544)  vcan0  0000014A   [8]  00 00 00 15 C2 76 19 76
(001.754757)  vcan0  00000309   [8]  0A 66 00 00 00 00 00 00
(001.754989)  vcan0  0000017C   [8]  26 EF 00 00 00 00 00 00
(001.760728)  vcan0  0000014A   [8]  00 00 00 19 F1 80 B4 40
(001.760943)  vcan0  00000170   [8]  3D 00 00 00 00 00 00 00
(001.761156)  vcan0  00000309   [8]  0A 6E 00 00 00 00 00 00
(001.761375)  vcan0  0000017C   [8]  1F 78 00 00 00 00 00 00
(001.766723)  vcan0  0000017C   [8]  20 8B 00 00 00 00 00 00
(001.766934)  vcan0  00000170   [8]  88 00 00 00 00 00 00 00
(001.767145)  vcan0  0000014A   [8]  00 00 00 1D 99 82 F1 70
(001.767354)  vcan0  00000309   [8]  0A 6D 00 00 00 00 00 00
(001.772626)  vcan0  00000309   [8]  0A 74 00 00 00 00 00 00
(001.772846)  vcan0  0000017C   [8]  19 72 00 00 00 00 00 00
(001.773055)  vcan0  00000170   [8]  A7 00 00 00 00 00 00 00
(001.773265)  vcan0  0000014A   [8]  00 00 00 21 94 01 2C DC
(001.778429)  vcan0  0000017C   [8]  1A F7 00 00 00 00 00 00
(001.778642)  vcan0  00000170   [8]  6D 00 00 00 00 00 00 00
(001.778855)  vcan0  0000014A   [8]  00 00 00 25 15 38 05 EC
(001.779065)  vcan0  00000309   [8]  0A 72 00 00 00 00 00 00
(001.784660)  vcan0  00000309   [8]  0A 78 00 00 00 00 00 00
(001.784887)  vcan0  0000017C   [8]  14 6F 00 00 00 00 00 00
(001.785103)  vcan0  0000014A   [8]  00 00 00 28 DC 66 88 4E
(001.785311)  vcan0  00000170   [8]  3A 00 00 00 00 00 00 00
(001.790185)  vcan0  0000014A   [8]  00 00 00 2C 2A 7F B7 50
(001.790398)  vcan0  00000170   [8]  A0 00 00 00 00 00 00 00
(001.790611)  vcan0  00000309   [8]  0A 76 00 00 00 00 00 00
(001.790830)  vcan0  0000017C   [8]  16 8C 00 00 00 00 00 00
(001.796636)  vcan0  00000309   [8]  0A 7C 00 00 00 00 00 00
(001.796850)  vcan0  00000170   [8]  8A 00 00 00 00 00 00 00
(001.797064)  vcan0  0000014A   [8]  00 00 00 2F B6 0C F9 AC
(001.797285)  vcan0  0000017C   [8]  10 B2 00 00 00 00 00 00
(001.802220)  vcan0  0000017C   [8]  13 7F 00 00 00 00 00 00
(001.802437)  vcan0  00000309   [8]  0A 79 00 00 00 00 00 00
(001.802649)  vcan0  0000014A   [8]  00 00 00 32 CC BC F3 B2
(001.802858)  vcan0  00000170   [8]  FF 00 00 00 00 00 00 00
(001.808342)  vcan0  00000309   [8]  0A 7E 00 00 00 00 00 00
(001.808565)  vcan0  0000017C   [8]  0E 62 00 00 00 00 00 00
(001.808776)  vcan0  00000170   [8]  C8 00 00 00 00 00 00 00
(001.808988)  vcan0  0000014A   [8]  00 00 00 36 1C 7A 1A 96
(001.814272)  vcan0  0000014A   [8]  00 00 00 38 FF 53 50 E0
(001.814485)  vcan0  00000170   [8]  57 00 00 00 00 00 00 00
(001.814698)  vcan0  00000309   [8]  0A 7B 00 00 00 00 00 00
(001.814917)  vcan0  0000017C   [8]  11 E9 00 00 00 00 00 00
(001.820367)  vcan0  0000017C   [8]  0D 85 00 00 00 00 00 00
(001.820582)  vcan0  0000014A   [8]  00 00 00 3C 0C 3E 66 82
(001.820793)  vcan0  00000309   [8]  0A 7F 00 00 00 00 00 00
(001.821003)  vcan0  00000170   [8]  ED 00 00 00 00 00 00 00
(001.826409)  vcan0  0000017C   [8]  11 C1 00 00 00 00 00 00
(001.826624)  vcan0  00000170   [8]  13 00 00 00 00 00 00 00
(001.826838)  vcan0  0000014A   [8]  00 00 00 3E BB 71 BE 08
(001.827049)  vcan0  00000309   [8]  0A 7B 00 00 00 00 00 00
(001.832274)  vcan0  0000017C   [8]  0E 07 00 00 00 00 00 00
(001.832489)  vcan0  00000309   [8]  0A 7E 00 00 00 00 00 00
(001.832701)  vcan0  0000014A   [8]  00 00 00 41 91 16 8B 62
(001.832911)  vcan0  00000170   [8]  EA 00 00 00 00 00 00 00
(001.838031)  vcan0  00000309   [8]  0A 7A 00 00 00 00 00 00
(001.838253)  vcan0  0000017C   [8]  12 E9 00 00 00 00 00 00
(001.838462)  vcan0  00000170   [8]  95 00 00 00 00 00 00 00
(001.838672)  vcan0  0000014A   [8]  00 00 00 44 06 13 8F 9E
(001.844168)  vcan0  0000017C   [8]  0F BF 00 00 00 00 00 00
(001.844405)  vcan0  00000170   [8]  4D 00 00 00 00 00 00 00
(001.844618)  vcan0  0000014A   [8]  00 00 00 46 9C 76 FD EE
(001.844828)  vcan0  00000309   [8]  0A 7D 00 00 00 00 00 00
(001.850132)  vcan0  00000309   [8]  0A 77 00 00 00 00 00 00
(001.850349)  vcan0  0000014A   [8]  00 00 00 48 DE 13 67 C6
(001.850571)  vcan0  0000017C   [8]  15 2E 00 00 00 00 00 00
(001.850779)  vcan0  00000170   [8]  43 00 00 00 00 00 00 00
(001.856415)  vcan0  0000014A   [8]  00 00 00 4B 48 12 14 DE
(001.856631)  vcan0  00000309   [8]  0A 7A 00 00 00 00 00 00
(001.856840)  vcan0  00000170   [8]  FF 00 00 00 00 00 00 00
(001.857061)  vcan0  0000017C   [8]  12 76 00 00 00 00 00 00
(001.862349)  vcan0  00000170   [8]  F8 00 00 00 00 00 00 00
(001.862572)  vcan0  00000309   [8]  0A 74 00 00 00 00 00 00
(001.862784)  vcan0  0000014A   [8]  00 00 00 4D 4F 10 44 DC
(001.863003)  vcan0  0000017C   [8]  18 54 00 00 00 00 00 00
(001.868198)  vcan0  0000014A   [8]  00 00 00 4F 84 3E 78 3A
(001.868410)  vcan0  00000170   [8]  D3 00 00 00 00 00 00 00
(001.868621)  vcan0  00000309   [8]  0A 77 00 00 00 00 00 00
(001.868838)  vcan0  0000017C   [8]  15 EC 00 00 00 00 00 00
(001.874140)  vcan0  0000014A   [8]  00 00 00 51 5F 26 C6 12
(001.874356)  vcan0  00000309   [8]  0A 70 00 00 00 00 00 00
(001.874565)  vcan0  00000170   [8]  9C 00 00 00 00 00 00 00
(001.874784)  vcan0  0000017C   [8]  1C 15 00 00 00 00 00 00
(001.880352)  vcan0  00000170   [8]  0C 00 00 00 00 00 00 00
(001.880580)  vcan0  0000017C   [8]  19 DA 00 00 00 00 00 00
(001.880791)  vcan0  00000309   [8]  0A 73 00 00 00 00 00 00
(001.881001)  vcan0  0000014A   [8]  01 FF FF DA 29 92 F2 C6
(001.886537)  vcan0  0000014A   [8]  00 00 00 0F 28 F1 6B 1E
(001.886748)  vcan0  00000170   [8]  79 00 00 00 00 00 00 00
(001.886967)  vcan0  0000017C   [8]  20 3C 00 00 00 00 00 00
(001.887177)  vcan0  00000309   [8]  0A 6C 00 00 00 00 00 00
(001.892255)  vcan0  00000309   [8]  0A 6E 00 00 00 00 00 00
(001.892469)  vcan0  0000014A   [8]  00 00 00 11 AE 99 0E 78
(001.892677)  vcan0  00000170   [8]  03 00 00 00 00 00 00 00
(001.892899)  vcan0  0000017C   [8]  1E 9E 00 00 00 00 00 00
(001.899157)  vcan0  0000014A   [8]  00 00 00 14 1F 18 78 C4
(001.899372)  vcan0  00000309   [8]  0A 68 00 00 00 00 00 00
(001.899581)  vcan0  00000170   [8]  F6 00 00 00 00 00 00 00
(001.899800)  vcan0  0000017C   [8]  24 EC 00 00 00 00 00 00
(001.904062)  vcan0  00000170   [8]  A7 00 00 00 00 00 00 00
(001.904282)  vcan0  00000309   [8]  0A 69 00 00 00 00 00 00
(001.904502)  vcan0  0000017C   [8]  23 73 00 00 00 00 00 00
(001.904712)  vcan0  0000014A   [8]  00 00 00 17 44 8E C8 40
(001.910359)  vcan0  0000017C   [8]  29 8E 00 00 00 00 00 00
(001.910571)  vcan0  00000170   [8]  7C 00 00 00 00 00 00 00
(001.910784)  vcan0  00000309   [8]  0A 63 00 00 00 00 00 00
(001.910993)  vcan0  0000014A   [8]  00 00 00 19 F0 4C C9 1C
(001.916225)  vcan0  0000017C   [8]  27 83 00 00 00 00 00 00
(001.916435)  vcan0  00000170   [8]  0C 00 00 00 00 00 00 00
(001.916646)  vcan0  00000309   [8]  0A 65 00 00 00 00 00 00
(001.916855)  vcan0  0000014A   [8]  00 00 00 1D 26 87 E9 3A
(001.922273)  vcan0  0000014A   [8]  00 00 00 1F F7 D8 25 F8
(001.922495)  vcan0  0000017C   [8]  2D 63 00 00 00 00 00 00
(001.922705)  vcan0  00000309   [8]  0A 5F 00 00 00 00 00 00
(001.922920)  vcan0  00000170   [8]  D2 00 00 00 00 00 00 00
(001.928535)  vcan0  0000017C   [8]  2A C5 00 00 00 00 00 00
(001.928748)  vcan0  0000014A   [8]  00 00 00 23 37 6A 71 CA
(001.928956)  vcan0  00000170   [8]  2E 00 00 00 00 00 00 00
(001.929165)  vcan0  00000309   [8]  0A 62 00 00 00 00 00 00
(001.934440)  vcan0  0000017C   [8]  30 42 00 00 00 00 00 00
(001.934653)  vcan0  00000309   [8]  0A 5D 00 00 00 00 00 00
(001.934861)  vcan0  00000170   [8]  C7 00 00 00 00 00 00 00
(001.935071)  vcan0  0000014A   [8]  00 00 00 26 09 56 AD A4
(001.940330)  vcan0  00000309   [8]  0A 60 00 00 00 00 00 00
(001.940540)  vcan0  00000170   [8]  8D 00 00 00 00 00 00 00
(001.940759)  vcan0  0000017C   [8]  2D 17 00 00 00 00 00 00
(001.940969)  vcan0  0000014A   [8]  00 00 00 29 58 94 A5 7E
(001.946229)  vcan0  0000017C   [8]  32 1D 00 00 00 00 00 00
(001.946443)  vcan0  00000309   [8]  0A 5B 00 00 00 00 00 00
(001.946652)  vcan0  00000170   [8]  1A 00 00 00 00 00 00 00
(001.946861)  vcan0  0000014A   [8]  00 00 00 2C 32 C2 FB 84
(001.952278)  vcan0  0000014A   [8]  00 00 00 2F 67 25 76 34
(001.952490)  vcan0  00000309   [8]  0A 5F 00 00 00 00 00 00
(001.952699)  vcan0  00000170   [8]  77 00 00 00 00 00 00 00
(001.952916)  vcan0  0000017C   [8]  2E 67 00 00 00 00 00 00
(001.958599)  vcan0  0000014A   [8]  00 00 00 32 2C 8C 33 1C
(001.958811)  vcan0  00000309   [8]  0A 5A 00 00 00 00 00 00
(001.959029)  vcan0  0000017C   [8]  32 EF 00 00 00 00 00 00
(001.959237)  vcan0  00000170   [8]  16 00 00 00 00 00 00 00
(001.964818)  vcan0  00000309   [8]  0A 5E 00 00 00 00 00 00
(001.965040)  vcan0  0000017C   [8]  2E B4 00 00 00 00 00 00
(001.965248)  vcan0  00000170   [8]  7D 00 00 00 00 00 00 00
(001.965458)  vcan0  0000014A   [8]  00 00 00 35 38 00 B7 C6
(001.970297)  vcan0  00000309   [8]  0A 5A 00 00 00 00 00 00
(001.970518)  vcan0  0000017C   [8]  32 C0 00 00 00 00 00 00
(001.970728)  vcan0  0000014A   [8]  00 00 00 37 E6 7B 40 1C
(001.970936)  vcan0  00000170   [8]  52 00 00 00 00 00 00 00
(001.976474)  vcan0  0000017C   [8]  2E 0E 00 00 00 00 00 00
(001.976688)  vcan0  00000309   [8]  0A 5F 00 00 00 00 00 00
(001.976896)  vcan0  00000170   [8]  13 00 00 00 00 00 00 00
(001.977107)  vcan0  0000014A   [8]  00 00 00 3A CE 2D 28 A6
(001.982331)  vcan0  0000014A   [8]  00 00 00 3D 4C 80 C3 92
(001.982553)  vcan0  0000017C   [8]  31 AC 00 00 00 00 00 00
(001.982761)  vcan0  00000202   [8]  00 85 00 00 00 00 00 00
(001.982971)  vcan0  00000309   [8]  0A 5B 00 00 00 00 00 00
(001.983177)  vcan0  00000170   [8]  92 00 00 00 00 00 00 00
(001.988779)  vcan0  0000014A   [8]  00 00 00 40 07 B4 E3 64
(001.989007)  vcan0  0000017C   [8]  2C 95 00 00 00 00 00 00
(001.989219)  vcan0  00000170   [8]  DD 00 00 00 00 00 00 00
(001.989430)  vcan0  00000309   [8]  0A 61 00 00 00 00 00 00
(001.994343)  vcan0  0000014A   [8]  00 00 00 42 61 64 54 30
(001.994557)  vcan0  00000170   [8]  C9 00 00 00 00 00 00 00
(001.994771)  vcan0  00000309   [8]  0A 5D 00 00 00 00 00 00
(001.994991)  vcan0  0000017C   [8]  2F D8 00 00 00 00 00 00
(002.000349)  vcan0  0000014A   [8]  00 00 00 44 F0 4F A3 5A
(002.000563)  vcan0  00000309   [8]  0A 63 00 00 00 00 00 00
(002.000773)  vcan0  00000170   [8]  1B 00 00 00 00 00 00 00
(002.000991)  vcan0  0000017C   [8]  2A 75 00 00 00 00 00 00
(002.006197)  vcan0  00000309   [8]  0A 60 00 00 00 00 00 00
(002.006419)  vcan0  000001A4   [8]  00 67 00 00 00 00 00 00
(002.006628)  vcan0  0000018F   [8]  00 00 18 00 00 00 00 00
(002.006835)  vcan0  00000170   [8]  EB 00 00 00 00 00 00 00
(002.007053)  vcan0  0000017C   [8]  2D 74 00 00 00 00 00 00
(002.007266)  vcan0  0000037B   [8]  00 00 00 00 00 00 00 00
(002.007477)  vcan0  000001A3   [8]  00 00 00 00 00 00 00 00
(002.007691)  vcan0  00000374   [8]  00 00 00 00 00 00 00 00
(002.007903)  vcan0  00000326   [8]  00 00 00 00 00 00 00 00
(002.008112)  vcan0  0000014A   [8]  00 00 00 47 23 DE D1 70
(002.012409)  vcan0  00000170   [8]  14 00 00 00 00 00 00 00
(002.012685)  vcan0  0000014A   [8]  00 00 00 49 80 A4 6D 80
(002.012899)  vcan0  00000309   [8]  0A 65 00 00 00 00 00 00
(002.013118)  vcan0  0000017C   [8]  27 E1 00 00 00 00 00 00
(002.018456)  vcan0  00000309   [8]  0A 62 00 00 00 00 00 00
(002.018670)  vcan0  00000170   [8]  27 00 00 00 00 00 00 00
(002.018887)  vcan0  0000014A   [8]  00 00 00 4B 88 71 8B 1E
(002.019107)  vcan0  0000017C   [8]  2A B8 00 00 00 00 00 00
(002.024608)  vcan0  0000017C   [8]  25 0F 00 00 00 00 00 00
(002.024854)  vcan0  0000014A   [8]  00 00 00 4D B5 AB 0E DC
(002.025070)  vcan0  00000309   [8]  0A 68 00 00 00 00 00 00
(002.025280)  vcan0  00000170   [8]  C1 00 00 00 00 00 00 00
(002.030806)  vcan0  00000309   [8]  0A 65 00 00 00 00 00 00
(002.031025)  vcan0  0000014A   [8]  00 00 00 4F 9F DA EA BC
(002.031235)  vcan0  00000170   [8]  4E 00 00 00 00 00 00 00
(002.031456)  vcan0  0000017C   [8]  27 D9 00 00 00 00 00 00
(002.036834)  vcan0  00000309   [8]  0A 6B 00 00 00 00 00 00
(002.037050)  vcan0  0000014A   [8]  00 00 00 51 9C 5C DB AC
(002.037272)  vcan0  0000017C   [8]  22 36 00 00 00 00 00 00
(002.037482)  vcan0  00000170   [8]  7C 00 00 00 00 00 00 00
(002.043208)  vcan0  0000014A   [8]  00 00 00 53 5F D8 06 E2
(002.043424)  vcan0  00000309   [8]  0A 68 00 00 00 00 00 00
(002.043635)  vcan0  00000170   [8]  62 00 00 00 00 00 00 00
(002.043855)  vcan0  0000017C   [8]  25 0F 00 00 00 00 00 00
(002.048586)  vcan0  00000309   [8]  0A 6D 00 00 00 00 00 00
(002.048810)  vcan0  0000017C   [8]  1F 8A 00 00 00 00 00 00
(002.049021)  vcan0  00000170   [8]  C2 00 00 00 00 00 00 00
(002.049232)  vcan0  0000014A   [8]  00 00 00 55 31 19 8F B0
(002.054668)  vcan0  00000309   [8]  0A 6A 00 00 00 00 00 00
(002.054911)  vcan0  0000017C   [8]  22 87 00 00 00 00 00 00
(002.055134)  vcan0  0000014A   [8]  00 00 00 56 C5 1F 7B 46
(002.055351)  vcan0  00000170   [8]  86 00 00 00 00 00 00 00
(002.061268)  vcan0  0000014A   [8]  00 00 00 58 7B 6D 39 B0
(002.061482)  vcan0  00000170   [8]  54 00 00 00 00 00 00 00
(002.061702)  vcan0  0000017C   [8]  1D 35 00 00 00 00 00 00
(002.061912)  vcan0  00000309   [8]  0A 70 00 00 00 00 00 00
(002.067116)  vcan0  00000309   [8]  0A 6C 00 00 00 00 00 00
(002.067358)  vcan0  0000017C   [8]  20 69 00 00 00 00 00 00
(002.067576)  vcan0  00000170   [8]  6D 00 00 00 00 00 00 00
(002.067798)  vcan0  0000014A   [8]  00 00 00 59 E9 88 25 22
(002.072936)  vcan0  0000017C   [8]  1B 58 00 00 00 00 00 00
(002.073158)  vcan0  00000309   [8]  0A 71 00 00 00 00 00 00
(002.073372)  vcan0  0000014A   [8]  00 00 00 5B 76 63 F1 22
(002.073583)  vcan0  00000170   [8]  47 00 00 00 00 00 00 00
(002.078877)  vcan0  0000014A   [8]  01 FF FF E4 40 CF D3 54
(002.079101)  vcan0  00000309   [8]  0A 6E 00 00 00 00 00 00
(002.079375)  vcan0  0000017C   [8]  1E D0 00 00 00 00 00 00
(002.079602)  vcan0  00000170   [8]  0C 00 00 00 00 00 00 00
(002.084612)  vcan0  00000309   [8]  0A 73 00 00 00 00 00 00
(002.084843)  vcan0  0000017C   [8]  1A 31 00 00 00 00 00 00
(002.085056)  vcan0  0000014A   [8]  00 00 00 2A 6B 00 0D F2
(002.085269)  vcan0  00000170   [8]  CE 00 00 00 00 00 00 00
(002.090487)  vcan0  00000170   [8]  4D 00 00 00 00 00 00 00
(002.090715)  vcan0  0000014A   [8]  00 00 00 2C 31 E5 36 16
(002.090938)  vcan0  0000017C   [8]  1E 02 00 00 00 00 00 00
(002.091148)  vcan0  00000309   [8]  0A 6F 00 00 00 00 00 00
(002.096605)  vcan0  00000170   [8]  FA 00 00 00 00 00 00 00
(002.096845)  vcan0  0000017C   [8]  1A 09 00 00 00 00 00 00
(002.097057)  vcan0  0000014A   [8]  00 00 00 2E 7B E4 52 C4
(002.097267)  vcan0  00000309   [8]  0A 73 00 00 00 00 00 00
(002.102830)  vcan0  00000309   [8]  0A 6F 00 00 00 00 00 00
(002.103048)  vcan0  0000014A   [8]  00 00 00 30 82 98 E0 C8
(002.103257)  vcan0  00000170   [8]  9A 00 00 00 00 00 00 00
(002.103477)  vcan0  0000017C   [8]  1E 09 00 00 00 00 00 00
(002.108755)  vcan0  00000170   [8]  15 00 00 00 00 00 00 00
(002.108982)  vcan0  00000309   [8]  0A 73 00 00 00 00 00 00
(002.109194)  vcan0  0000014A   [8]  00 00 00 32 EA 1D AC 3A
(002.109413)  vcan0  0000017C   [8]  1A 26 00 00 00 00 00 00
(002.114930)  vcan0  00000309   [8]  0A 6E 00 00 00 00 00 00
(002.115155)  vcan0  0000017C   [8]  1E 76 00 00 00 00 00 00
(002.115366)  vcan0  00000170   [8]  B2 00 00 00 00 00 00 00
(002.115577)  vcan0  0000014A   [8]  00 00 00 35 05 9E C5 F8
(002.120639)  vcan0  0000017C   [8]  1A AA 00 00 00 00 00 00
(002.120852)  vcan0  00000170   [8]  F8 00 00 00 00 00 00 00
(002.121065)  vcan0  00000309   [8]  0A 72 00 00 00 00 00 00
(002.121275)  vcan0  0000014A   [8]  00 00 00 37 7C 26 BA 94
(002.127196)  vcan0  00000170   [8]  AA 00 00 00 00 00 00 00
(002.127420)  vcan0  00000309   [8]  0A 6D 00 00 00 00 00 00
(002.127641)  vcan0  0000017C   [8]  1F 35 00 00 00 00 00 00
(002.127852)  vcan0  0000014A   [8]  00 00 00 39 98 D5 58 56
(002.132662)  vcan0  00000170   [8]  CD 00 00 00 00 00 00 00
(002.132890)  vcan0  0000014A   [8]  00 00 00 3C 0D 22 93 10
(002.133112)  vcan0  0000017C   [8]  1B 84 00 00 00 00 00 00
(002.133323)  vcan0  00000309   [8]  0A 71 00 00 00 00 00 00
(002.138437)  vcan0  00000170   [8]  1E 00 00 00 00 00 00 00
(002.138660)  vcan0  0000014A   [8]  00 00 00 3E 36 EB B2 BC
(002.138883)  vcan0  0000017C   [8]  20 3C 00 00 00 00 00 00
(002.139093)  vcan0  00000309   [8]  0A 6C 00 00 00 00 00 00
(002.144762)  vcan0  00000170   [8]  58 00 00 00 00 00 00 00
(002.144989)  vcan0  0000017C   [8]  1C A1 00 00 00 00 00 00
(002.145201)  vcan0  0000014A   [8]  00 00 00 40 A7 2D 1F 4E
(002.145411)  vcan0  00000309   [8]  0A 70 00 00 00 00 00 00
(002.151087)  vcan0  0000017C   [8]  21 78 00 00 00 00 00 00
(002.151302)  vcan0  0000014A   [8]  00 00 00 42 C4 F3 22 A2
(002.151512)  vcan0  00000309   [8]  0A 6B 00 00 00 00 00 00
(002.151721)  vcan0  00000170   [8]  4F 00 00 00 00 00 00 00
(002.156854)  vcan0  00000170   [8]  1D 00 00 00 00 00 00 00
(002.157078)  vcan0  00000309   [8]  0A 6F 00 00 00 00 00 00
(002.157300)  vcan0  0000017C   [8]  1D EC 00 00 00 00 00 00
(002.157512)  vcan0  0000014A   [8]  00 00 00 45 15 D9 B9 10
(002.162785)  vcan0  00000309   [8]  0A 6A 00 00 00 00 00 00
(002.163012)  vcan0  0000017C   [8]  22 D4 00 00 00 00 00 00
(002.163224)  vcan0  0000014A   [8]  00 00 00 47 1C 3A BF EC
(002.163435)  vcan0  00000170   [8]  6F 00 00 00 00 00 00 00
(002.168721)  vcan0  0000017C   [8]  1F 4E 00 00 00 00 00 00
(002.168938)  vcan0  00000309   [8]  0A 6D 00 00 00 00 00 00
(002.169148)  vcan0  0000014A   [8]  00 00 00 49 53 61 E6 DC
(002.169356)  vcan0  00000170   [8]  C2 00 00 00 00 00 00 00
(002.174712)  vcan0  00000309   [8]  0A 69 00 00 00 00 00 00
(002.175004)  vcan0  0000017C   [8]  24 3B 00 00 00 00 00 00
(002.175217)  vcan0  0000014A   [8]  00 00 00 4B 36 75 9B 6E
(002.175426)  vcan0  00000170   [8]  F7 00 00 00 00 00 00 00
(002.180554)  vcan0  0000017C   [8]  20 AF 00 00 00 00 00 00
(002.180772)  vcan0  0000014A   [8]  00 00 00 4D 51 FE 46 52
(002.180985)  vcan0  00000309   [8]  0A 6C 00 00 00 00 00 00
(002.181195)  vcan0  00000170   [8]  C4 00 00 00 00 00 00 00
(002.186810)  vcan0  0000017C   [8]  25 96 00 00 00 00 00 00
(002.187041)  vcan0  00000309   [8]  0A 67 00 00 00 00 00 00
(002.187260)  vcan0  00000170   [8]  A8 00 00 00 00 00 00 00
(002.187481)  vcan0  0000014A   [8]  00 00 00 4F 1D 06 3A 96
(002.192562)  vcan0  0000014A   [8]  00 00 00 51 08 70 68 BA
(002.192794)  vcan0  00000309   [8]  0A 6B 00 00 00 00 00 00
(002.193032)  vcan0  0000017C   [8]  21 FC 00 00 00 00 00 00
(002.193250)  vcan0  00000170   [8]  A5 00 00 00 00 00 00 00
(002.198495)  vcan0  00000309   [8]  0A 66 00 00 00 00 00 00
(002.198734)  vcan0  0000017C   [8]  26 D1 00 00 00 00 00 00
(002.198953)  vcan0  00000170   [8]  CC 00 00 00 00 00 00 00
(002.199176)  vcan0  0000014A   [8]  00 00 00 52 B7 3F 56 5C
(002.204444)  vcan0  0000017C   [8]  23 1F 00 00 00 00 00 00
(002.204663)  vcan0  0000014A   [8]  00 00 00 54 84 9A 9C 40
(002.204874)  vcan0  00000309   [8]  0A 6A 00 00 00 00 00 00
(002.205085)  vcan0  00000170   [8]  5B 00 00 00 00 00 00 00
(002.210518)  vcan0  0000017C   [8]  27 DB 00 00 00 00 00 00
(002.210731)  vcan0  00000170   [8]  E4 00 00 00 00 00 00 00
(002.210944)  vcan0  0000014A   [8]  00 00 00 56 11 C9 7F AA
(002.211154)  vcan0  00000309   [8]  0A 65 00 00 00 00 00 00
(002.216442)  vcan0  00000309   [8]  0A 69 00 00 00 00 00 00
(002.216676)  vcan0  0000017C   [8]  24 0B 00 00 00 00 00 00
(002.216891)  vcan0  00000170   [8]  0A 00 00 00 00 00 00 00
(002.217103)  vcan0  0000014A   [8]  00 00 00 57 C1 07 50 00
(002.222928)  vcan0  0000017C   [8]  28 A6 00 00 00 00 00 00
(002.223157)  vcan0  0000014A   [8]  00 00 00 59 2D 18 8B CA
(002.223381)  vcan0  00000309   [8]  0A 64 00 00 00 00 00 00
(002.223598)  vcan0  00000170   [8]  00 00 00 00 00 00 00 00
(002.228840)  vcan0  00000309   [8]  0A 68 00 00 00 00 00 00
(002.229058)  vcan0  0000014A   [8]  00 00 00 5A B4 11 C8 7C
(002.229279)  vcan0  0000017C   [8]  24 B3 00 00 00 00 00 00
(002.229489)  vcan0  00000202   [8]  00 5B 00 00 00 00 00 00
(002.229695)  vcan0  00000170   [8]  5A 00 00 00 00 00 00 00
(002.234695)  vcan0  0000017C   [8]  29 2A 00 00 00 00 00 00
(002.234912)  vcan0  00000309   [8]  0A 64 00 00 00 00 00 00
(002.235123)  vcan0  0000014A   [8]  00 00 00 5C 02 1C 67 6E
(002.235333)  vcan0  00000170   [8]  48 00 00 00 00 00 00 00
(002.240738)  vcan0  00000309   [8]  0A 68 00 00 00 00 00 00
(002.240954)  vcan0  0000014A   [8]  00 00 00 5D 6B 21 5D 26
(002.241164)  vcan0  00000170   [8]  FE 00 00 00 00 00 00 00
(002.241385)  vcan0  0000017C   [8]  25 13 00 00 00 00 00 00
(002.246561)  vcan0  00000309   [8]  0A 64 00 00 00 00 00 00
(002.246776)  vcan0  0000014A   [8]  00 00 00 5E A5 34 55 60
(002.246986)  vcan0  00000170   [8]  54 00 00 00 00 00 00 00
(002.247205)  vcan0  0000017C   [8]  29 66 00 00 00 00 00 00
(002.252456)  vcan0  0000014A   [8]  00 00 00 5F E2 37 58 98
(002.252673)  vcan0  00000309   [8]  0A 68 00 00 00 00 00 00
(002.252895)  vcan0  0000017C   [8]  25 2B 00 00 00 00 00 00
(002.253104)  vcan0  00000170   [8]  8D 00 00 00 00 00 00 00
(002.258375)  vcan0  0000017C   [8]  29 5A 00 00 00 00 00 00
(002.258591)  vcan0  0000014A   [8]  00 00 00 60 FE EF 1F E6
(002.258801)  vcan0  00000309   [8]  0A 64 00 00 00 00 00 00
(002.259010)  vcan0  00000170   [8]  0A 00 00 00 00 00 00 00
(002.264605)  vcan0  0000017C   [8]  24 FE 00 00 00 00 00 00
(002.264819)  vcan0  00000170   [8]  A8 00 00 00 00 00 00 00
(002.265031)  vcan0  00000309   [8]  0A 68 00 00 00 00 00 00
(002.265241)  vcan0  0000014A   [8]  00 00 00 62 2F 8D F7 16
(002.270647)  vcan0  00000170   [8]  D2 00 00 00 00 00 00 00
(002.270867)  vcan0  00000309   [8]  0A 64 00 00 00 00 00 00
(002.271087)  vcan0  0000017C   [8]  29 0E 00 00 00 00 00 00
(002.271296)  vcan0  0000014A   [8]  00 00 00 63 2A 07 D0 C4
(002.276519)  vcan0  00000309   [8]  0A 68 00 00 00 00 00 00
(002.276747)  vcan0  0000017C   [8]  24 96 00 00 00 00 00 00
(002.276958)  vcan0  00000170   [8]  3A 00 00 00 00 00 00 00
(002.277170)  vcan0  0000014A   [8]  00 00 00 64 43 C6 AC A2
(002.282754)  vcan0  0000014A   [8]  01 FF FF EF C8 83 61 A0
(002.282981)  vcan0  00000170   [8]  BE 00 00 00 00 00 00 00
(002.283208)  vcan0  00000309   [8]  0A 64 00 00 00 00 00 00
(002.283446)  vcan0  0000017C   [8]  28 8B 00 00 00 00 00 00
(002.288484)  vcan0  0000014A   [8]  00 00 00 3F 62 3F C1 68
(002.288725)  vcan0  0000017C   [8]  24 23 00 00 00 00 00 00
(002.288943)  vcan0  00000170   [8]  59 00 00 00 00 00 00 00
(002.289167)  vcan0  00000309   [8]  0A 69 00 00 00 00 00 00
(002.294673)  vcan0  00000170   [8]  83 00 00 00 00 00 00 00
(002.294901)  vcan0  00000309   [8]  0A 65 00 00 00 00 00 00
(002.295112)  vcan0  0000014A   [8]  00 00 00 40 B8 5F A8 A0
(002.295331)  vcan0  0000017C   [8]  28 05 00 00 00 00 00 00
(002.300295)  vcan0  00000170   [8]  93 00 00 00 00 00 00 00
(002.300527)  vcan0  0000017C   [8]  23 AF 00 00 00 00 00 00
(002.300740)  vcan0  0000014A   [8]  00 00 00 42 5B ED 4E C8
(002.300951)  vcan0  00000309   [8]  0A 69 00 00 00 00 00 00
(002.306296)  vcan0  0000014A   [8]  00 00 00 43 D4 02 D0 F0
(002.306523)  vcan0  0000017C   [8]  27 7E 00 00 00 00 00 00
(002.306733)  vcan0  00000170   [8]  23 00 00 00 00 00 00 00
(002.306945)  vcan0  00000309   [8]  0A 65 00 00 00 00 00 00
(002.312390)  vcan0  00000309   [8]  0A 6A 00 00 00 00 00 00
(002.312614)  vcan0  0000017C   [8]  23 02 00 00 00 00 00 00
(002.312825)  vcan0  0000014A   [8]  00 00 00 45 92 A9 F1 FC
(002.313034)  vcan0  00000170   [8]  5B 00 00 00 00 00 00 00
(002.318385)  vcan0  00000170   [8]  04 00 00 00 00 00 00 00
(002.318608)  vcan0  0000014A   [8]  00 00 00 47 1B 15 AC 92
(002.318820)  vcan0  00000309   [8]  0A 66 00 00 00 00 00 00
(002.319040)  vcan0  0000017C   [8]  26 CF 00 00 00 00 00 00
(002.324572)  vcan0  00000170   [8]  B9 00 00 00 00 00 00 00
(002.324810)  vcan0  0000014A   [8]  00 00 00 48 E7 7B 74 D0
(002.325034)  vcan0  00000309   [8]  0A 6B 00 00 00 00 00 00
(002.325270)  vcan0  0000017C   [8]  22 3E 00 00 00 00 00 00
(002.330661)  vcan0  0000014A   [8]  00 00 00 4A 72 35 69 2E
(002.330878)  vcan0  00000309   [8]  0A 67 00 00 00 00 00 00
(002.331089)  vcan0  00000170   [8]  8C 00 00 00 00 00 00 00
(002.331311)  vcan0  0000017C   [8]  26 0A 00 00 00 00 00 00
(002.337414)  vcan0  00000170   [8]  9D 00 00 00 00 00 00 00
(002.337637)  vcan0  00000309   [8]  0A 6B 00 00 00 00 00 00
(002.337855)  vcan0  0000017C   [8]  21 71 00 00 00 00 00 00
(002.338066)  vcan0  0000014A   [8]  00 00 00 4C 3B CC 54 14
(002.342897)  vcan0  00000170   [8]  E3 00 00 00 00 00 00 00
(002.343126)  vcan0  0000017C   [8]  25 42 00 00 00 00 00 00
(002.343339)  vcan0  00000309   [8]  0A 68 00 00 00 00 00 00
(002.343549)  vcan0  0000014A   [8]  00 00 00 4D D1 17 31 66
(002.348973)  vcan0  00000309   [8]  0A 6C 00 00 00 00 00 00
(002.349198)  vcan0  0000014A   [8]  00 00 00 4F 93 D0 D2 40
(002.349431)  vcan0  0000017C   [8]  20 AC 00 00 00 00 00 00
(002.349647)  vcan0  00000170   [8]  10 00 00 00 00 00 00 00
(002.354577)  vcan0  00000309   [8]  0A 68 00 00 00 00 00 00
(002.354794)  vcan0  0000014A   [8]  00 00 00 51 23 0B 94 1C
(002.355004)  vcan0  00000170   [8]  31 00 00 00 00 00 00 00
(002.355254)  vcan0  0000017C   [8]  24 88 00 00 00 00 00 00
(002.361142)  vcan0  0000014A   [8]  00 00 00 52 D3 F0 B5 26
(002.361368)  vcan0  0000017C   [8]  1F FD 00 00 00 00 00 00
(002.361580)  vcan0  00000170   [8]  45 00 00 00 00 00 00 00
(002.361792)  vcan0  00000309   [8]  0A 6D 00 00 00 00 00 00
(002.366370)  vcan0  00000170   [8]  A5 00 00 00 00 00 00 00
(002.366594)  vcan0  00000309   [8]  0A 69 00 00 00 00 00 00
(002.366808)  vcan0  0000014A   [8]  00 00 00 54 4D F8 E9 00
(002.367036)  vcan0  0000017C   [8]  23 E8 00 00 00 00 00 00
(002.372333)  vcan0  0000017C   [8]  1F 6F 00 00 00 00 00 00
(002.372549)  vcan0  00000309   [8]  0A 6D 00 00 00 00 00 00
(002.372760)  vcan0  00000170   [8]  52 00 00 00 00 00 00 00
(002.372972)  vcan0  0000014A   [8]  00 00 00 55 E9 1F 7E BE
(002.378730)  vcan0  00000309   [8]  0A 69 00 00 00 00 00 00
(002.378944)  vcan0  0000014A   [8]  00 00 00 57 4D B9 EA A8
(002.379155)  vcan0  00000170   [8]  4C 00 00 00 00 00 00 00
(002.379373)  vcan0  0000017C   [8]  23 6E 00 00 00 00 00 00
(002.384594)  vcan0  0000017C   [8]  1F 09 00 00 00 00 00 00
(002.384812)  vcan0  0000014A   [8]  00 00 00 58 D3 FB A7 72
(002.385024)  vcan0  00000309   [8]  0A 6E 00 00 00 00 00 00
(002.385233)  vcan0  00000170   [8]  EE 00 00 00 00 00 00 00
(002.390340)  vcan0  00000170   [8]  5B 00 00 00 00 00 00 00
(002.390564)  vcan0  0000014A   [8]  00 00 00 5A 1E 74 FF 2A
(002.390787)  vcan0  0000017C   [8]  23 1F 00 00 00 00 00 00
(002.390999)  vcan0  00000309   [8]  0A 6A 00 00 00 00 00 00
(002.396545)  vcan0  0000014A   [8]  00 00 00 5B 8B A5 EB F2
(002.396759)  vcan0  00000170   [8]  06 00 00 00 00 00 00 00
(002.396972)  vcan0  00000309   [8]  0A 6E 00 00 00 00 00 00
(002.397191)  vcan0  0000017C   [8]  1E D0 00 00 00 00 00 00
(002.402396)  vcan0  0000017C   [8]  22 FD 00 00 00 00 00 00
(002.402612)  vcan0  0000014A   [8]  00 00 00 5C C2 4E 2C F6
(002.402821)  vcan0  00000170   [8]  9C 00 00 00 00 00 00 00
(002.403032)  vcan0  00000309   [8]  0A 6A 00 00 00 00 00 00
(002.408467)  vcan0  0000017C   [8]  1E C4 00 00 00 00 00 00
(002.408681)  vcan0  00000309   [8]  0A 6E 00 00 00 00 00 00
(002.408892)  vcan0  00000170   [8]  BE 00 00 00 00 00 00 00
(002.409103)  vcan0  0000014A   [8]  00 00 00 5E 16 42 57 5A
(002.414584)  vcan0  00000170   [8]  BC 00 00 00 00 00 00 00
(002.414848)  vcan0  0000017C   [8]  23 07 00 00 00 00 00 00
(002.415068)  vcan0  00000309   [8]  0A 6A 00 00 00 00 00 00
(002.415279)  vcan0  0000014A   [8]  00 00 00 5F 33 4F 1A 5A
(002.420737)  vcan0  00000170   [8]  D8 00 00 00 00 00 00 00
(002.420981)  vcan0  0000017C   [8]  1E E3 00 00 00 00 00 00
