(000.000000)  vcan0  1FFFFFFF   [8]  00 00 00 00 00 00 00 00
(000.003963)  vcan0  00000170   [8]  40 00 00 00 00 00 00 00
(000.004204)  vcan0  00000309   [8]  00 64 00 00 00 00 00 00
(000.004420)  vcan0  0000014A   [8]  00 00 00 EE 6B 28 1D CE
(000.004640)  vcan0  00000326   [8]  00 00 00 00 00 00 00 00
(000.004851)  vcan0  000001A3   [8]  00 00 00 00 00 00 00 00
(000.005058)  vcan0  0000018F   [8]  00 00 E1 00 00 00 00 00
(000.005279)  vcan0  0000017C   [8]  4B 00 00 00 00 00 00 00
(000.005493)  vcan0  000001A4   [8]  00 67 00 00 00 00 00 00
(000.005705)  vcan0  0000037B   [8]  00 00 00 00 00 00 00 00
(000.005919)  vcan0  00000374   [8]  00 00 00 00 00 00 00 00
(000.006144)  vcan0  00000202   [8]  00 3F 00 00 00 00 00 00
(000.009626)  vcan0  0000017C   [8]  4B 00 00 00 00 00 00 00
(000.009841)  vcan0  00000170   [8]  39 00 00 00 00 00 00 00
(000.010056)  vcan0  0000014A   [8]  00 00 01 65 A0 BC 3B 9A
(000.010266)  vcan0  00000309   [8]  00 80 00 00 00 00 00 00
(000.014493)  vcan0  00000309   [8]  00 9C 00 00 00 00 00 00
(000.014705)  vcan0  00000170   [8]  68 00 00 00 00 00 00 00
(000.014918)  vcan0  0000014A   [8]  00 00 01 DC D6 50 EE 6C
(000.015139)  vcan0  0000017C   [8]  4B 00 00 00 00 00 00 00
(000.021117)  vcan0  00000170   [8]  78 00 00 00 00 00 00 00
(000.021339)  vcan0  0000014A   [8]  00 00 02 54 0B E4 77 36
(000.021552)  vcan0  00000309   [8]  00 B8 00 00 00 00 00 00
(000.021772)  vcan0  0000017C   [8]  4B 00 00 00 00 00 00 00
(000.025725)  vcan0  0000017C   [8]  4B 00 00 00 00 00 00 00
(000.025937)  vcan0  00000170   [8]  36 00 00 00 00 00 00 00
(000.026149)  vcan0  0000014A   [8]  00 00 02 CB 41 78 00 00
(000.026358)  vcan0  00000309   [8]  00 D5 00 00 00 00 00 00
(000.031926)  vcan0  0000014A   [8]  00 00 03 42 77 0D DC D6
(000.032141)  vcan0  00000309   [8]  00 F1 00 00 00 00 00 00
(000.032360)  vcan0  0000017C   [8]  4B 00 00 00 00 00 00 00
(000.032569)  vcan0  00000170   [8]  EB 00 00 00 00 00 00 00
(000.037709)  vcan0  0000014A   [8]  00 00 03 48 BA 62 59 04
(000.037922)  vcan0  00000309   [8]  01 0D 00 00 00 00 00 00
(000.038142)  vcan0  0000017C   [8]  4B 00 00 00 00 00 00 00
(000.038350)  vcan0  00000170   [8]  76 00 00 00 00 00 00 00
(000.043696)  vcan0  0000017C   [8]  4B 00 00 00 00 00 00 00
(000.043910)  vcan0  00000309   [8]  01 29 00 00 00 00 00 00
(000.044120)  vcan0  0000014A   [8]  00 00 03 49 A5 16 9F A6
(000.044328)  vcan0  00000170   [8]  EF 00 00 00 00 00 00 00
(000.049533)  vcan0  0000017C   [8]  4B 00 00 00 00 00 00 00
(000.049748)  vcan0  00000309   [8]  01 46 00 00 00 00 00 00
(000.049958)  vcan0  0000014A   [8]  00 00 03 4A 8F CA E6 48
(000.050166)  vcan0  00000170   [8]  44 00 00 00 00 00 00 00
(000.055739)  vcan0  0000014A   [8]  00 00 03 4B 7A 7F 2C EA
(000.055962)  vcan0  0000017C   [8]  4B 00 00 00 00 00 00 00
(000.056171)  vcan0  00000309   [8]  01 62 00 00 00 00 00 00
(000.056379)  vcan0  00000170   [8]  EB 00 00 00 00 00 00 00
(000.061523)  vcan0  00000170   [8]  91 00 00 00 00 00 00 00
(000.061743)  vcan0  00000309   [8]  01 7E 00 00 00 00 00 00
(000.061955)  vcan0  0000014A   [8]  00 00 03 4B 7A 7F 2C EA
(000.062174)  vcan0  0000017C   [8]  4B 00 00 00 00 00 00 00
(000.067502)  vcan0  00000309   [8]  01 9A 00 00 00 00 00 00
(000.067720)  vcan0  0000014A   [8]  00 00 03 4B 7A 7F 2C EA
(000.067929)  vcan0  00000170   [8]  4C 00 00 00 00 00 00 00
(000.068148)  vcan0  0000017C   [8]  4B 00 00 00 00 00 00 00
(000.073440)  vcan0  00000170   [8]  6B 00 00 00 00 00 00 00
(000.073659)  vcan0  00000309   [8]  01 B6 00 00 00 00 00 00
(000.073879)  vcan0  0000017C   [8]  4B 00 00 00 00 00 00 00
(000.074089)  vcan0  0000014A   [8]  00 00 03 4B 7A 7F 2C EA
(000.079705)  vcan0  00000309   [8]  01 D3 00 00 00 00 00 00
(000.079920)  vcan0  0000014A   [8]  00 00 03 4B 7A 7F 2C EA
(000.080140)  vcan0  0000017C   [8]  4B 00 00 00 00 00 00 00
(000.080348)  vcan0  00000170   [8]  F3 00 00 00 00 00 00 00
(000.085815)  vcan0  0000017C   [8]  4B 00 00 00 00 00 00 00
(000.086027)  vcan0  00000309   [8]  01 EF 00 00 00 00 00 00
(000.086237)  vcan0  0000014A   [8]  00 00 03 4B 7A 7F 2C EA
(000.086445)  vcan0  00000170   [8]  08 00 00 00 00 00 00 00
(000.091765)  vcan0  0000017C   [8]  4B 00 00 00 00 00 00 00
(000.091995)  vcan0  0000014A   [8]  00 00 03 4B 7A 7F 2C EA
(000.092217)  vcan0  00000309   [8]  02 0B 00 00 00 00 00 00
(000.092433)  vcan0  00000170   [8]  05 00 00 00 00 00 00 00
(000.097851)  vcan0  00000309   [8]  02 27 00 00 00 00 00 00
(000.098065)  vcan0  00000170   [8]  6F 00 00 00 00 00 00 00
(000.098280)  vcan0  0000014A   [8]  00 00 03 4B 7A 7F 2C EA
(000.098503)  vcan0  0000017C   [8]  4B 00 00 00 00 00 00 00
(000.104097)  vcan0  0000017C   [8]  4B 00 00 00 00 00 00 00
(000.104313)  vcan0  00000309   [8]  02 44 00 00 00 00 00 00
(000.104522)  vcan0  00000170   [8]  39 00 00 00 00 00 00 00
(000.104733)  vcan0  0000014A   [8]  00 00 03 4B 7A 7F 2C EA
(000.109738)  vcan0  00000170   [8]  D9 00 00 00 00 00 00 00
(000.109963)  vcan0  0000014A   [8]  00 00 03 4B 7A 7F 2C EA
(000.110184)  vcan0  0000017C   [8]  4B 00 00 00 00 00 00 00
(000.110394)  vcan0  00000309   [8]  02 60 00 00 00 00 00 00
(000.115898)  vcan0  0000014A   [8]  00 00 03 4B 7A 7F 2C EA
(000.116112)  vcan0  00000309   [8]  02 7C 00 00 00 00 00 00
(000.116322)  vcan0  00000170   [8]  96 00 00 00 00 00 00 00
(000.116542)  vcan0  0000017C   [8]  4B 00 00 00 00 00 00 00
(000.121664)  vcan0  0000017C   [8]  4B 00 00 00 00 00 00 00
(000.121877)  vcan0  00000309   [8]  02 98 00 00 00 00 00 00
(000.122086)  vcan0  00000170   [8]  8C 00 00 00 00 00 00 00
(000.122295)  vcan0  0000014A   [8]  00 00 03 4B 7A 7F 2C EA
(000.127965)  vcan0  0000014A   [8]  00 00 03 4B 7A 7F 2C EA
(000.128197)  vcan0  0000017C   [8]  4B 00 00 00 00 00 00 00
(000.128414)  vcan0  00000309   [8]  02 B5 00 00 00 00 00 00
(000.128626)  vcan0  00000170   [8]  C0 00 00 00 00 00 00 00
(000.133960)  vcan0  00000309   [8]  02 D1 00 00 00 00 00 00
(000.134184)  vcan0  0000017C   [8]  4B 00 00 00 00 00 00 00
(000.134395)  vcan0  0000014A   [8]  00 00 03 4B 7A 7F 2C EA
(000.134604)  vcan0  00000170   [8]  6D 00 00 00 00 00 00 00
(000.139775)  vcan0  0000017C   [8]  4B 00 00 00 00 00 00 00
(000.139987)  vcan0  00000170   [8]  43 00 00 00 00 00 00 00
(000.140199)  vcan0  00000309   [8]  02 ED 00 00 00 00 00 00
(000.140409)  vcan0  0000014A   [8]  00 00 03 4B 7A 7F 2C EA
(000.145813)  vcan0  00000170   [8]  6D 00 00 00 00 00 00 00
(000.146037)  vcan0  00000309   [8]  03 09 00 00 00 00 00 00
(000.146250)  vcan0  0000014A   [8]  00 00 03 4B 7A 7F 2C EA
(000.146470)  vcan0  0000017C   [8]  4B 00 00 00 00 00 00 00
(000.151988)  vcan0  0000014A   [8]  00 00 03 4B 7A 7F 2C EA
(000.152214)  vcan0  0000017C   [8]  4B 00 00 00 00 00 00 00
(000.152424)  vcan0  00000170   [8]  A8 00 00 00 00 00 00 00
(000.152635)  vcan0  00000309   [8]  03 25 00 00 00 00 00 00
(000.158125)  vcan0  00000309   [8]  03 42 00 00 00 00 00 00
(000.158336)  vcan0  00000170   [8]  D3 00 00 00 00 00 00 00
(000.158550)  vcan0  0000014A   [8]  00 00 03 4B 7A 7F 2C EA
(000.158769)  vcan0  0000017C   [8]  4B 00 00 00 00 00 00 00
(000.164054)  vcan0  00000309   [8]  03 5E 00 00 00 00 00 00
(000.164277)  vcan0  0000017C   [8]  4B 00 00 00 00 00 00 00
(000.164487)  vcan0  0000014A   [8]  00 00 03 4B 7A 7F 2C EA
(000.164696)  vcan0  00000170   [8]  9E 00 00 00 00 00 00 00
(000.169979)  vcan0  0000014A   [8]  00 00 03 4B 7A 7F 2C EA
(000.170194)  vcan0  00000309   [8]  03 7A 00 00 00 00 00 00
(000.170403)  vcan0  00000170   [8]  AB 00 00 00 00 00 00 00
(000.170624)  vcan0  0000017C   [8]  4B 00 00 00 00 00 00 00
(000.175485)  vcan0  00000309   [8]  03 96 00 00 00 00 00 00
(000.175698)  vcan0  00000170   [8]  37 00 00 00 00 00 00 00
(000.175921)  vcan0  0000017C   [8]  4B 00 00 00 00 00 00 00
(000.176132)  vcan0  0000014A   [8]  00 00 03 4B 7A 7F 2C EA
(000.181674)  vcan0  00000170   [8]  AF 00 00 00 00 00 00 00
(000.181906)  vcan0  0000017C   [8]  4B 00 00 00 00 00 00 00
(000.182119)  vcan0  00000309   [8]  03 B3 00 00 00 00 00 00
(000.182329)  vcan0  0000014A   [8]  00 00 03 4B 7A 7F 2C EA
(000.187732)  vcan0  0000014A   [8]  00 00 03 4B 7A 7F 2C EA
(000.187960)  vcan0  0000017C   [8]  4B 00 00 00 00 00 00 00
(000.188171)  vcan0  00000170   [8]  B7 00 00 00 00 00 00 00
(000.188382)  vcan0  00000309   [8]  03 CF 00 00 00 00 00 00
(000.193669)  vcan0  0000017C   [8]  4B 00 00 00 00 00 00 00
(000.193939)  vcan0  0000014A   [8]  00 00 03 4B 7A 7F 2C EA
(000.194149)  vcan0  00000170   [8]  16 00 00 00 00 00 00 00
(000.194361)  vcan0  00000309   [8]  03 EB 00 00 00 00 00 00
(000.199863)  vcan0  00000170   [8]  05 00 00 00 00 00 00 00
(000.200086)  vcan0  0000014A   [8]  00 00 03 4B 7A 7F 2C EA
(000.200308)  vcan0  0000017C   [8]  4B 00 00 00 00 00 00 00
(000.200517)  vcan0  00000309   [8]  04 07 00 00 00 00 00 00
(000.206093)  vcan0  0000014A   [8]  00 00 03 4B 7A 7F 2C EA
(000.206319)  vcan0  0000017C   [8]  4B 00 00 00 00 00 00 00
(000.206531)  vcan0  00000170   [8]  9E 00 00 00 00 00 00 00
(000.206742)  vcan0  00000309   [8]  04 23 00 00 00 00 00 00
(000.212265)  vcan0  00000170   [8]  AB 00 00 00 00 00 00 00
(000.212525)  vcan0  0000017C   [8]  4B 00 00 00 00 00 00 00
(000.212742)  vcan0  0000014A   [8]  00 00 03 4B 7A 7F 2C EA
(000.212953)  vcan0  00000309   [8]  04 32 00 00 00 00 00 00
(000.218281)  vcan0  00000170   [8]  EB 00 00 00 00 00 00 00
(000.218525)  vcan0  00000309   [8]  03 A6 00 00 00 00 00 00
(000.218751)  vcan0  0000014A   [8]  00 00 03 4B 7A 7F 2C EA
(000.218988)  vcan0  0000017C   [8]  4B 00 00 00 00 00 00 00
(000.223884)  vcan0  00000170   [8]  82 00 00 00 00 00 00 00
(000.224121)  vcan0  0000017C   [8]  4B 00 00 00 00 00 00 00
(000.224334)  vcan0  00000309   [8]  03 2E 00 00 00 00 00 00
(000.224544)  vcan0  0000014A   [8]  00 00 03 4B 7A 7F 2C EA
(000.230003)  vcan0  0000017C   [8]  4B 00 00 00 00 00 00 00
(000.230220)  vcan0  00000309   [8]  02 C3 00 00 00 00 00 00
(000.230433)  vcan0  0000014A   [8]  00 00 03 4B 7A 7F 2C EA
(000.230644)  vcan0  00000170   [8]  F7 00 00 00 00 00 00 00
(000.236230)  vcan0  00000170   [8]  0F 00 00 00 00 00 00 00
(000.236453)  vcan0  0000014A   [8]  00 00 03 4B 7A 7F 2C EA
(000.236665)  vcan0  00000309   [8]  02 64 00 00 00 00 00 00
(000.236885)  vcan0  0000017C   [8]  4B 00 00 00 00 00 00 00
(000.241974)  vcan0  0000014A   [8]  00 00 03 4B 7A 7F 2C EA
(000.242204)  vcan0  00000309   [8]  02 0E 00 00 00 00 00 00
(000.242446)  vcan0  0000017C   [8]  4B 00 00 00 00 00 00 00
(000.242664)  vcan0  00000170   [8]  3C 00 00 00 00 00 00 00
(000.248131)  vcan0  00000170   [8]  E9 00 00 00 00 00 00 00
(000.248361)  vcan0  0000014A   [8]  00 00 03 4B 7A 7F 2C EA
(000.248570)  vcan0  00000202   [8]  00 BA 00 00 00 00 00 00
(000.248782)  vcan0  00000309   [8]  01 C2 00 00 00 00 00 00
(000.249002)  vcan0  0000017C   [8]  4B 00 00 00 00 00 00 00
(000.254508)  vcan0  00000170   [8]  C0 00 00 00 00 00 00 00
(000.254738)  vcan0  00000309   [8]  01 7E 00 00 00 00 00 00
(000.254961)  vcan0  0000017C   [8]  4B 00 00 00 00 00 00 00
(000.255174)  vcan0  0000014A   [8]  00 00 03 4B 7A 7F 2C EA
(000.260920)  vcan0  00000170   [8]  2E 00 00 00 00 00 00 00
(000.261144)  vcan0  00000309   [8]  01 41 00 00 00 00 00 00
(000.261366)  vcan0  0000017C   [8]  4B 00 00 00 00 00 00 00
(000.261576)  vcan0  0000014A   [8]  00 00 03 4B 7A 7F 2C EA
(000.266348)  vcan0  0000014A   [8]  00 00 03 4B 7A 7F 2C EA
(000.266573)  vcan0  00000170   [8]  E7 00 00 00 00 00 00 00
(000.266799)  vcan0  00000309   [8]  01 0B 00 00 00 00 00 00
(000.267037)  vcan0  0000017C   [8]  4B 00 00 00 00 00 00 00
(000.272135)  vcan0  0000017C   [8]  4B 00 00 00 00 00 00 00
(000.272363)  vcan0  0000014A   [8]  00 00 03 4B 7A 7F 2C EA
(000.272586)  vcan0  00000309   [8]  00 DB 00 00 00 00 00 00
(000.272801)  vcan0  00000170   [8]  A9 00 00 00 00 00 00 00
(000.278069)  vcan0  0000017C   [8]  4B 00 00 00 00 00 00 00
(000.278286)  vcan0  00000309   [8]  00 B1 00 00 00 00 00 00
(000.278496)  vcan0  0000014A   [8]  00 00 03 4B 7A 7F 2C EA
(000.278705)  vcan0  00000170   [8]  24 00 00 00 00 00 00 00
(000.285166)  vcan0  0000017C   [8]  4B 00 00 00 00 00 00 00
(000.285380)  vcan0  0000014A   [8]  00 00 03 4B 7A 7F 2C EA
(000.285590)  vcan0  00000309   [8]  00 8B 00 00 00 00 00 00
(000.285798)  vcan0  00000170   [8]  EE 00 00 00 00 00 00 00
(000.291112)  vcan0  0000014A   [8]  00 00 03 4B 7A 7F 2C EA
(000.291336)  vcan0  0000017C   [8]  4B 00 00 00 00 00 00 00
(000.291545)  vcan0  00000170   [8]  94 00 00 00 00 00 00 00
(000.291755)  vcan0  00000309   [8]  00 6B 00 00 00 00 00 00
(000.296053)  vcan0  0000017C   [8]  4B 00 00 00 00 00 00 00
(000.296267)  vcan0  00000170   [8]  DF 00 00 00 00 00 00 00
(000.296480)  vcan0  00000309   [8]  00 4E 00 00 00 00 00 00
(000.296690)  vcan0  0000014A   [8]  00 00 03 4B 7A 7F 2C EA
(000.302199)  vcan0  00000170   [8]  AA 00 00 00 00 00 00 00
(000.302434)  vcan0  0000017C   [8]  4B 00 00 00 00 00 00 00
(000.302646)  vcan0  00000309   [8]  00 34 00 00 00 00 00 00
(000.302857)  vcan0  0000014A   [8]  00 00 03 4B 7A 7F 2C EA
(000.307599)  vcan0  0000014A   [8]  00 00 03 4B 7A 7F 2C EA
(000.307825)  vcan0  0000017C   [8]  4B 00 00 00 00 00 00 00
(000.308036)  vcan0  00000170   [8]  9B 00 00 00 00 00 00 00
(000.308247)  vcan0  00000309   [8]  00 1E 00 00 00 00 00 00
(000.313956)  vcan0  0000014A   [8]  00 00 03 4B 7A 7F 2C EA
(000.314168)  vcan0  00000170   [8]  F0 00 00 00 00 00 00 00
(000.314380)  vcan0  00000309   [8]  00 0B 00 00 00 00 00 00
(000.314605)  vcan0  0000017C   [8]  4B 00 00 00 00 00 00 00
(000.319944)  vcan0  0000017C   [8]  4B 00 00 00 00 00 00 00
(000.320158)  vcan0  00000309   [8]  00 05 00 00 00 00 00 00
(000.320369)  vcan0  0000014A   [8]  00 00 03 4B 7A 7F 2C EA
(000.320577)  vcan0  00000170   [8]  5A 00 00 00 00 00 00 00
(000.325855)  vcan0  0000014A   [8]  00 00 03 4B 7A 7F 2C EA
(000.326079)  vcan0  0000017C   [8]  4B 00 00 00 00 00 00 00
(000.326290)  vcan0  00000309   [8]  00 14 00 00 00 00 00 00
(000.326498)  vcan0  00000170   [8]  18 00 00 00 00 00 00 00
(000.331649)  vcan0  00000170   [8]  E3 00 00 00 00 00 00 00
(000.331889)  vcan0  0000014A   [8]  00 00 03 4B 7A 7F 2C EA
(000.332128)  vcan0  00000309   [8]  00 20 00 00 00 00 00 00
(000.332353)  vcan0  0000017C   [8]  4B 00 00 00 00 00 00 00
(000.337792)  vcan0  00000170   [8]  BC 00 00 00 00 00 00 00
(000.338497)  vcan0  0000014A   [8]  00 00 03 4B 7A 7F 2C EA
(000.338713)  vcan0  00000309   [8]  00 2A 00 00 00 00 00 00
(000.338932)  vcan0  0000017C   [8]  4B 00 00 00 00 00 00 00
(000.343819)  vcan0  0000014A   [8]  00 00 03 4B 7A 7F 2C EA
(000.344046)  vcan0  0000017C   [8]  4B 00 00 00 00 00 00 00
(000.344256)  vcan0  00000170   [8]  D5 00 00 00 00 00 00 00
(000.344468)  vcan0  00000309   [8]  00 33 00 00 00 00 00 00
(000.349782)  vcan0  00000309   [8]  00 3A 00 00 00 00 00 00
(000.350008)  vcan0  0000017C   [8]  4B 00 00 00 00 00 00 00
(000.350219)  vcan0  00000170   [8]  D8 00 00 00 00 00 00 00
(000.350430)  vcan0  0000014A   [8]  00 00 03 4B 7A 7F 2C EA
(000.355706)  vcan0  00000170   [8]  E3 00 00 00 00 00 00 00
(000.355929)  vcan0  0000014A   [8]  00 00 03 4B 7A 7F 2C EA
(000.356142)  vcan0  00000309   [8]  00 40 00 00 00 00 00 00
(000.356361)  vcan0  0000017C   [8]  4B 00 00 00 00 00 00 00
(000.361960)  vcan0  00000170   [8]  2E 00 00 00 00 00 00 00
(000.362183)  vcan0  00000309   [8]  00 44 00 00 00 00 00 00
(000.362404)  vcan0  0000017C   [8]  4B 00 00 00 00 00 00 00
(000.362615)  vcan0  0000014A   [8]  00 00 03 4B 7A 7F 2C EA
(000.367856)  vcan0  0000017C   [8]  4B 00 00 00 00 00 00 00
(000.368071)  vcan0  00000170   [8]  CF 00 00 00 00 00 00 00
(000.368285)  vcan0  0000014A   [8]  00 00 03 4B 7A 7F 2C EA
(000.368495)  vcan0  00000309   [8]  00 48 00 00 00 00 00 00
(000.374022)  vcan0  00000170   [8]  7E 00 00 00 00 00 00 00
(000.374243)  vcan0  00000309   [8]  00 4B 00 00 00 00 00 00
(000.374457)  vcan0  0000014A   [8]  00 00 03 4B 7A 7F 2C EA
(000.374676)  vcan0  0000017C   [8]  4B 00 00 00 00 00 00 00
(000.379840)  vcan0  0000017C   [8]  4B 00 00 00 00 00 00 00
(000.380050)  vcan0  00000170   [8]  73 00 00 00 00 00 00 00
(000.380262)  vcan0  0000014A   [8]  00 00 03 4B 7A 7F 2C EA
(000.380472)  vcan0  00000309   [8]  00 4D 00 00 00 00 00 00
(000.386069)  vcan0  00000170   [8]  F0 00 00 00 00 00 00 00
(000.386293)  vcan0  0000014A   [8]  00 00 03 4B 7A 7F 2C EA
(000.386504)  vcan0  00000309   [8]  00 4E 00 00 00 00 00 00
(000.386723)  vcan0  0000017C   [8]  4B 00 00 00 00 00 00 00
(000.392098)  vcan0  0000014A   [8]  00 00 03 4B 74 4B 45 3C
(000.392309)  vcan0  00000170   [8]  FD 00 00 00 00 00 00 00
(000.392520)  vcan0  00000309   [8]  00 4F 00 00 00 00 00 00
(000.392738)  vcan0  0000017C   [8]  4B 00 00 00 00 00 00 00
(000.398159)  vcan0  00000309   [8]  00 6D 00 00 00 00 00 00
(000.398374)  vcan0  0000014A   [8]  00 00 03 48 47 50 9D 5C
(000.398583)  vcan0  00000170   [8]  5B 00 00 00 00 00 00 00
(000.398801)  vcan0  0000017C   [8]  4B 00 00 00 00 00 00 00
(000.403963)  vcan0  0000014A   [8]  00 00 03 46 D8 71 63 C0
(000.404187)  vcan0  0000017C   [8]  4B 00 00 00 00 00 00 00
(000.404397)  vcan0  00000309   [8]  00 8D 00 00 00 00 00 00
(000.404606)  vcan0  00000170   [8]  E9 00 00 00 00 00 00 00
(000.409691)  vcan0  0000014A   [8]  00 00 03 42 A6 E4 C1 26
(000.409905)  vcan0  00000309   [8]  00 C8 00 00 00 00 00 00
(000.410123)  vcan0  0000017C   [8]  4B 00 00 00 00 00 00 00
(000.410332)  vcan0  00000170   [8]  B3 00 00 00 00 00 00 00
(000.415654)  vcan0  0000017C   [8]  4B 00 00 00 00 00 00 00
(000.415869)  vcan0  00000309   [8]  00 FD 00 00 00 00 00 00
(000.416079)  vcan0  0000014A   [8]  00 00 03 3E 69 02 EF 92
(000.416288)  vcan0  00000170   [8]  32 00 00 00 00 00 00 00
(000.422374)  vcan0  0000014A   [8]  00 00 03 3A 81 05 A4 A4
(000.422595)  vcan0  0000017C   [8]  4B 00 00 00 00 00 00 00
(000.422805)  vcan0  00000309   [8]  01 16 00 00 00 00 00 00
(000.423013)  vcan0  00000170   [8]  F9 00 00 00 00 00 00 00
(000.428115)  vcan0  00000309   [8]  01 4C 00 00 00 00 00 00
(000.428327)  vcan0  00000170   [8]  38 00 00 00 00 00 00 00
(000.428540)  vcan0  0000014A   [8]  00 00 03 35 A7 0D 6D EC
(000.428759)  vcan0  0000017C   [8]  4B 00 00 00 00 00 00 00
(000.434196)  vcan0  00000309   [8]  01 79 00 00 00 00 00 00
(000.434409)  vcan0  0000014A   [8]  00 00 03 30 8C 12 7B 30
(000.434626)  vcan0  0000017C   [8]  4B 00 00 00 00 00 00 00
(000.434834)  vcan0  00000170   [8]  28 00 00 00 00 00 00 00
(000.439802)  vcan0  0000014A   [8]  00 00 03 2B 62 0C 83 A4
(000.440026)  vcan0  0000017C   [8]  4B 00 00 00 00 00 00 00
(000.440237)  vcan0  00000309   [8]  01 93 00 00 00 00 00 00
(000.440446)  vcan0  00000170   [8]  FD 00 00 00 00 00 00 00
(000.445954)  vcan0  00000309   [8]  01 BD 00 00 00 00 00 00
(000.446171)  vcan0  0000014A   [8]  00 00 03 26 18 3A C9 B4
(000.446391)  vcan0  0000017C   [8]  4B 00 00 00 00 00 00 00
(000.446600)  vcan0  00000170   [8]  82 00 00 00 00 00 00 00
(000.451577)  vcan0  00000309   [8]  01 E5 00 00 00 00 00 00
(000.451789)  vcan0  00000170   [8]  7B 00 00 00 00 00 00 00
(000.452010)  vcan0  0000017C   [8]  4B 00 00 00 00 00 00 00
(000.452221)  vcan0  0000014A   [8]  00 00 03 20 0F E3 B2 C8
(000.473726)  vcan0  0000014A   [8]  00 00 03 1A 6D E2 B6 7E
(000.473944)  vcan0  00000309   [8]  02 04 00 00 00 00 00 00
(000.474167)  vcan0  0000017C   [8]  4B 00 00 00 00 00 00 00
(000.474377)  vcan0  00000170   [8]  60 00 00 00 00 00 00 00
(000.478124)  vcan0  0000017C   [8]  4B 00 00 00 00 00 00 00
(000.478339)  vcan0  0000014A   [8]  00 00 03 13 CE A4 5C E8
(000.478549)  vcan0  00000170   [8]  6B 00 00 00 00 00 00 00
(000.478760)  vcan0  00000309   [8]  02 27 00 00 00 00 00 00
(000.481811)  vcan0  0000014A   [8]  00 00 03 0D 8E 6C 28 9C
(000.482027)  vcan0  00000309   [8]  02 43 00 00 00 00 00 00
(000.482247)  vcan0  0000017C   [8]  4B 00 00 00 00 00 00 00
(000.482457)  vcan0  00000170   [8]  DE 00 00 00 00 00 00 00
(000.487745)  vcan0  0000017C   [8]  4B 00 00 00 00 00 00 00
(000.487956)  vcan0  00000170   [8]  17 00 00 00 00 00 00 00
(000.488168)  vcan0  00000309   [8]  02 63 00 00 00 00 00 00
(000.488377)  vcan0  0000014A   [8]  00 00 03 06 B0 E5 90 F4
(000.493783)  vcan0  0000014A   [8]  00 00 02 FF F9 CE 65 96
(000.493996)  vcan0  00000309   [8]  02 7E 00 00 00 00 00 00
(000.494204)  vcan0  00000170   [8]  88 00 00 00 00 00 00 00
(000.494426)  vcan0  0000017C   [8]  4B 00 00 00 00 00 00 00
(000.499978)  vcan0  00000170   [8]  1A 00 00 00 00 00 00 00
(000.500204)  vcan0  00000309   [8]  02 99 00 00 00 00 00 00
(000.500428)  vcan0  0000017C   [8]  4B 00 00 00 00 00 00 00
(000.500638)  vcan0  0000014A   [8]  00 00 02 F8 CF 68 F5 5A
(000.506003)  vcan0  00000170   [8]  6E 00 00 00 00 00 00 00
(000.506223)  vcan0  0000014A   [8]  00 00 02 F1 B2 BF 43 42
(000.506445)  vcan0  0000017C   [8]  4B 00 00 00 00 00 00 00
(000.506654)  vcan0  00000202   [8]  00 10 00 00 00 00 00 00
(000.506864)  vcan0  00000309   [8]  02 B2 00 00 00 00 00 00
(000.511685)  vcan0  00000170   [8]  65 00 00 00 00 00 00 00
(000.511907)  vcan0  0000014A   [8]  00 00 02 EA 46 C2 14 0A
(000.512115)  vcan0  0000018F   [8]  00 00 9E 00 00 00 00 00
(000.512335)  vcan0  0000017C   [8]  4B 00 00 00 00 00 00 00
(000.512549)  vcan0  000001A3   [8]  00 00 00 00 00 00 00 00
(000.512758)  vcan0  00000309   [8]  02 CB 00 00 00 00 00 00
(000.517975)  vcan0  00000309   [8]  02 E2 00 00 00 00 00 00
(000.518193)  vcan0  0000014A   [8]  00 00 02 E2 DD 34 E1 46
(000.518403)  vcan0  00000170   [8]  58 00 00 00 00 00 00 00
(000.518624)  vcan0  0000017C   [8]  4B 00 00 00 00 00 00 00
(000.523969)  vcan0  00000170   [8]  D5 00 00 00 00 00 00 00
(000.524190)  vcan0  00000309   [8]  02 F9 00 00 00 00 00 00
(000.524413)  vcan0  0000017C   [8]  4B 00 00 00 00 00 00 00
(000.524623)  vcan0  0000014A   [8]  00 00 02 DB 3D E7 64 00
(000.530049)  vcan0  00000170   [8]  1D 00 00 00 00 00 00 00
(000.530272)  vcan0  00000309   [8]  03 10 00 00 00 00 00 00
(000.530483)  vcan0  0000014A   [8]  00 00 02 D3 91 7C 7B C0
(000.530703)  vcan0  0000017C   [8]  4B 00 00 00 00 00 00 00
(000.535990)  vcan0  0000017C   [8]  4B 00 00 00 00 00 00 00
(000.536206)  vcan0  00000309   [8]  03 25 00 00 00 00 00 00
(000.536420)  vcan0  0000014A   [8]  00 00 02 CB C7 D1 BE 20
(000.536629)  vcan0  00000170   [8]  16 00 00 00 00 00 00 00
(000.541907)  vcan0  0000017C   [8]  4B 00 00 00 00 00 00 00
(000.542122)  vcan0  00000309   [8]  03 3A 00 00 00 00 00 00
(000.542334)  vcan0  0000014A   [8]  00 00 02 C3 E7 40 53 8C
(000.542543)  vcan0  00000170   [8]  FD 00 00 00 00 00 00 00
(000.548169)  vcan0  0000017C   [8]  4B 00 00 00 00 00 00 00
(000.548384)  vcan0  00000309   [8]  03 4E 00 00 00 00 00 00
(000.548594)  vcan0  00000170   [8]  B2 00 00 00 00 00 00 00
(000.548804)  vcan0  0000014A   [8]  00 00 02 BB FA 3D C9 6C
(000.553941)  vcan0  00000170   [8]  28 00 00 00 00 00 00 00
(000.554162)  vcan0  0000014A   [8]  00 00 02 B3 EF 48 22 58
(000.554383)  vcan0  0000017C   [8]  4B 00 00 00 00 00 00 00
(000.554594)  vcan0  00000309   [8]  03 62 00 00 00 00 00 00
(000.560077)  vcan0  00000309   [8]  03 76 00 00 00 00 00 00
(000.560289)  vcan0  00000170   [8]  4A 00 00 00 00 00 00 00
(000.560501)  vcan0  0000014A   [8]  00 00 02 AB E6 26 78 9C
(000.560720)  vcan0  0000017C   [8]  4B 00 00 00 00 00 00 00
(000.566668)  vcan0  00000309   [8]  03 89 00 00 00 00 00 00
(000.566898)  vcan0  0000017C   [8]  4B 00 00 00 00 00 00 00
(000.567110)  vcan0  0000014A   [8]  00 00 02 A3 C1 22 38 76
(000.567320)  vcan0  00000170   [8]  90 00 00 00 00 00 00 00
(000.572810)  vcan0  0000014A   [8]  00 00 02 9B 9F 4C E0 92
(000.573025)  vcan0  00000309   [8]  03 9B 00 00 00 00 00 00
(000.573235)  vcan0  00000170   [8]  57 00 00 00 00 00 00 00
(000.573454)  vcan0  0000017C   [8]  4B 00 00 00 00 00 00 00
(000.577904)  vcan0  0000017C   [8]  4B 00 00 00 00 00 00 00
(000.578120)  vcan0  0000014A   [8]  00 00 02 93 64 1C 37 2E
(000.578331)  vcan0  00000170   [8]  41 00 00 00 00 00 00 00
(000.578543)  vcan0  00000309   [8]  03 AE 00 00 00 00 00 00
(000.584195)  vcan0  00000309   [8]  03 C0 00 00 00 00 00 00
(000.584426)  vcan0  0000017C   [8]  4B 00 00 00 00 00 00 00
(000.584636)  vcan0  00000170   [8]  C7 00 00 00 00 00 00 00
(000.584847)  vcan0  0000014A   [8]  00 00 02 8B 3A 61 E6 FA
(000.589947)  vcan0  0000014A   [8]  00 00 02 82 ED FE 69 C2
(000.590161)  vcan0  00000170   [8]  6D 00 00 00 00 00 00 00
(000.590384)  vcan0  0000017C   [8]  4B 00 00 00 00 00 00 00
(000.590594)  vcan0  00000309   [8]  03 D2 00 00 00 00 00 00
(000.595878)  vcan0  0000017C   [8]  4B 00 00 00 00 00 00 00
(000.596094)  vcan0  00000309   [8]  03 E3 00 00 00 00 00 00
(000.596304)  vcan0  00000170   [8]  D6 00 00 00 00 00 00 00
(000.596515)  vcan0  0000014A   [8]  00 00 02 7A B9 0F A0 54
(000.601972)  vcan0  00000170   [8]  B4 00 00 00 00 00 00 00
(000.602196)  vcan0  00000309   [8]  03 F4 00 00 00 00 00 00
(000.602421)  vcan0  0000017C   [8]  4B 00 00 00 00 00 00 00
(000.602633)  vcan0  0000014A   [8]  00 00 02 72 68 78 75 A6
(000.607816)  vcan0  0000017C   [8]  4B 00 00 00 00 00 00 00
(000.608032)  vcan0  0000014A   [8]  00 00 02 6A 32 58 AA 22
(000.608242)  vcan0  00000170   [8]  74 00 00 00 00 00 00 00
(000.608453)  vcan0  00000309   [8]  04 05 00 00 00 00 00 00
(000.614004)  vcan0  00000309   [8]  04 16 00 00 00 00 00 00
(000.614228)  vcan0  0000017C   [8]  4B 00 00 00 00 00 00 00
(000.614440)  vcan0  0000014A   [8]  00 00 02 61 DE 58 62 08
(000.614649)  vcan0  00000170   [8]  5F 00 00 00 00 00 00 00
(000.620439)  vcan0  0000017C   [8]  4B 00 00 00 00 00 00 00
(000.620650)  vcan0  00000170   [8]  36 00 00 00 00 00 00 00
(000.620868)  vcan0  00000309   [8]  04 26 00 00 00 00 00 00
(000.621078)  vcan0  0000014A   [8]  00 00 02 59 AF 4C 02 A8
(000.625805)  vcan0  00000170   [8]  8B 00 00 00 00 00 00 00
(000.626033)  vcan0  0000017C   [8]  4B 00 00 00 00 00 00 00
(000.626245)  vcan0  00000309   [8]  04 36 00 00 00 00 00 00
(000.626455)  vcan0  0000014A   [8]  00 00 02 51 62 DF 35 40
(000.631828)  vcan0  00000170   [8]  B4 00 00 00 00 00 00 00
(000.632049)  vcan0  00000309   [8]  04 46 00 00 00 00 00 00
(000.632271)  vcan0  0000017C   [8]  4B 00 00 00 00 00 00 00
(000.632482)  vcan0  0000014A   [8]  00 00 02 49 34 EC 8F 7E
(000.637833)  vcan0  0000014A   [8]  00 00 02 40 F7 78 26 8A
(000.638047)  vcan0  00000170   [8]  77 00 00 00 00 00 00 00
(000.638259)  vcan0  00000309   [8]  04 56 00 00 00 00 00 00
(000.638479)  vcan0  0000017C   [8]  4B 00 00 00 00 00 00 00
(000.643858)  vcan0  00000170   [8]  1E 00 00 00 00 00 00 00
(000.644082)  vcan0  0000014A   [8]  00 00 02 38 D0 EC BE 96
(000.644392)  vcan0  00000309   [8]  04 66 00 00 00 00 00 00
(000.644614)  vcan0  0000017C   [8]  4B 00 00 00 00 00 00 00
(000.650145)  vcan0  0000014A   [8]  00 00 02 30 A9 71 85 DA
(000.650374)  vcan0  0000017C   [8]  4B 00 00 00 00 00 00 00
(000.650589)  vcan0  00000309   [8]  04 76 00 00 00 00 00 00
(000.650799)  vcan0  00000170   [8]  C1 00 00 00 00 00 00 00
(000.656124)  vcan0  0000014A   [8]  00 00 02 28 8E FE C3 AC
(000.656341)  vcan0  00000309   [8]  04 85 00 00 00 00 00 00
(000.656561)  vcan0  0000017C   [8]  4B 00 00 00 00 00 00 00
(000.656770)  vcan0  00000170   [8]  63 00 00 00 00 00 00 00
(000.661817)  vcan0  00000309   [8]  04 94 00 00 00 00 00 00
(000.662041)  vcan0  0000017C   [8]  4B 00 00 00 00 00 00 00
(000.662254)  vcan0  00000170   [8]  52 00 00 00 00 00 00 00
(000.662468)  vcan0  0000014A   [8]  00 00 02 20 7B 6C 34 9E
(000.668164)  vcan0  00000309   [8]  04 A4 00 00 00 00 00 00
(000.668381)  vcan0  0000014A   [8]  00 00 02 18 75 B5 FC 56
(000.668591)  vcan0  00000170   [8]  FB 00 00 00 00 00 00 00
(000.668812)  vcan0  0000017C   [8]  4B 00 00 00 00 00 00 00
(000.674139)  vcan0  00000309   [8]  04 B3 00 00 00 00 00 00
(000.674365)  vcan0  0000017C   [8]  4B 00 00 00 00 00 00 00
(000.674574)  vcan0  00000170   [8]  9F 00 00 00 00 00 00 00
(000.674785)  vcan0  0000014A   [8]  00 00 02 10 81 C0 9E BC
(000.679923)  vcan0  0000017C   [8]  4B 00 00 00 00 00 00 00
(000.680140)  vcan0  0000014A   [8]  00 00 02 08 94 CE 60 F0
(000.680350)  vcan0  00000309   [8]  04 C2 00 00 00 00 00 00
(000.680560)  vcan0  00000170   [8]  B9 00 00 00 00 00 00 00
(000.686168)  vcan0  0000017C   [8]  4B 00 00 00 00 00 00 00
(000.686383)  vcan0  0000014A   [8]  00 00 02 00 B9 15 F3 1C
(000.686594)  vcan0  00000170   [8]  D0 00 00 00 00 00 00 00
(000.686804)  vcan0  00000309   [8]  04 D0 00 00 00 00 00 00
(000.691835)  vcan0  0000017C   [8]  4B 00 00 00 00 00 00 00
(000.692046)  vcan0  00000170   [8]  6D 00 00 00 00 00 00 00
(000.692259)  vcan0  0000014A   [8]  00 00 01 F8 EE 14 F2 A8
(000.692468)  vcan0  00000309   [8]  04 DF 00 00 00 00 00 00
(000.698150)  vcan0  00000309   [8]  04 EE 00 00 00 00 00 00
(000.698363)  vcan0  00000170   [8]  0A 00 00 00 00 00 00 00
(000.698575)  vcan0  0000014A   [8]  00 00 01 F1 34 1F 31 3E
(000.698795)  vcan0  0000017C   [8]  4B 00 00 00 00 00 00 00
(000.704420)  vcan0  0000014A   [8]  00 00 01 E9 86 0C 88 8A
(000.704633)  vcan0  00000170   [8]  BF 00 00 00 00 00 00 00
(000.704854)  vcan0  0000017C   [8]  4B 00 00 00 00 00 00 00
(000.705065)  vcan0  00000309   [8]  04 FC 00 00 00 00 00 00
(000.710375)  vcan0  00000309   [8]  05 0B 00 00 00 00 00 00
(000.710589)  vcan0  0000014A   [8]  00 00 01 E1 F3 5C 67 B0
(000.710797)  vcan0  00000170   [8]  1C 00 00 00 00 00 00 00
(000.711017)  vcan0  0000017C   [8]  4B 00 00 00 00 00 00 00
(000.716357)  vcan0  00000170   [8]  EB 00 00 00 00 00 00 00
(000.716589)  vcan0  0000017C   [8]  4B 00 00 00 00 00 00 00
(000.716802)  vcan0  00000309   [8]  05 19 00 00 00 00 00 00
(000.717012)  vcan0  0000014A   [8]  00 00 01 DA 66 80 B8 9E
(000.721911)  vcan0  0000014A   [8]  00 00 01 D2 F5 7E 4F C2
(000.722125)  vcan0  00000309   [8]  05 27 00 00 00 00 00 00
(000.722334)  vcan0  00000170   [8]  58 00 00 00 00 00 00 00
(000.722552)  vcan0  0000017C   [8]  4B 00 00 00 00 00 00 00
(000.728086)  vcan0  00000309   [8]  05 35 00 00 00 00 00 00
(000.728299)  vcan0  00000170   [8]  2E 00 00 00 00 00 00 00
(000.728512)  vcan0  0000014A   [8]  00 00 01 CB 94 14 F2 90
(000.728732)  vcan0  0000017C   [8]  4B 00 00 00 00 00 00 00
(000.734114)  vcan0  0000014A   [8]  00 00 01 C4 48 8D 7D 20
(000.734416)  vcan0  0000017C   [8]  4B 00 00 00 00 00 00 00
(000.734628)  vcan0  00000309   [8]  05 43 00 00 00 00 00 00
(000.734838)  vcan0  00000170   [8]  2B 00 00 00 00 00 00 00
(000.740270)  vcan0  00000170   [8]  D1 00 00 00 00 00 00 00
(000.740495)  vcan0  00000309   [8]  05 51 00 00 00 00 00 00
(000.740707)  vcan0  0000014A   [8]  00 00 01 BD 0A F2 AA CA
(000.740926)  vcan0  0000017C   [8]  4B 00 00 00 00 00 00 00
(000.746516)  vcan0  0000017C   [8]  4B 00 00 00 00 00 00 00
(000.746730)  vcan0  00000309   [8]  05 5F 00 00 00 00 00 00
(000.746940)  vcan0  00000170   [8]  BD 00 00 00 00 00 00 00
(000.747150)  vcan0  0000014A   [8]  00 00 01 B5 E5 5A 93 14
(000.752226)  vcan0  00000309   [8]  05 6D 00 00 00 00 00 00
(000.752438)  vcan0  00000202   [8]  00 AE 00 00 00 00 00 00
(000.752651)  vcan0  0000014A   [8]  00 00 01 AE D4 D7 7F 0A
(000.752869)  vcan0  0000017C   [8]  4B 00 00 00 00 00 00 00
(000.753076)  vcan0  00000170   [8]  10 00 00 00 00 00 00 00
(000.758476)  vcan0  00000170   [8]  C8 00 00 00 00 00 00 00
(000.758696)  vcan0  0000014A   [8]  00 00 01 A7 DB 6B FC EE
(000.758918)  vcan0  0000017C   [8]  4B 00 00 00 00 00 00 00
(000.759127)  vcan0  00000309   [8]  05 7B 00 00 00 00 00 00
(000.764392)  vcan0  00000309   [8]  05 89 00 00 00 00 00 00
(000.764631)  vcan0  0000014A   [8]  00 00 01 A0 F5 63 43 D2
(000.764850)  vcan0  0000017C   [8]  4B 00 00 00 00 00 00 00
(000.765058)  vcan0  00000170   [8]  6B 00 00 00 00 00 00 00
(000.770400)  vcan0  00000309   [8]  05 97 00 00 00 00 00 00
(000.770613)  vcan0  00000170   [8]  C8 00 00 00 00 00 00 00
(000.770835)  vcan0  0000017C   [8]  4B 00 00 00 00 00 00 00
(000.771046)  vcan0  0000014A   [8]  00 00 01 9A 26 3E E3 9E
(000.775986)  vcan0  00000309   [8]  05 A5 00 00 00 00 00 00
(000.776209)  vcan0  0000017C   [8]  4B 00 00 00 00 00 00 00
(000.776424)  vcan0  0000014A   [8]  00 00 01 93 6C E7 76 C2
(000.776633)  vcan0  00000170   [8]  CE 00 00 00 00 00 00 00
(000.782090)  vcan0  00000309   [8]  05 B2 00 00 00 00 00 00
(000.782301)  vcan0  00000170   [8]  34 00 00 00 00 00 00 00
(000.782514)  vcan0  0000014A   [8]  00 00 01 8C CB 68 DB AC
(000.782732)  vcan0  0000017C   [8]  4B 00 00 00 00 00 00 00
(000.787931)  vcan0  0000017C   [8]  4B 00 00 00 00 00 00 00
(000.788244)  vcan0  00000309   [8]  05 C0 00 00 00 00 00 00
(000.788454)  vcan0  00000170   [8]  8F 00 00 00 00 00 00 00
(000.788665)  vcan0  0000014A   [8]  00 00 01 86 3D C3 C7 F8
(000.794212)  vcan0  0000014A   [8]  00 00 01 7F C8 E1 84 B8
(000.794436)  vcan0  0000017C   [8]  4B 00 00 00 00 00 00 00
(000.794647)  vcan0  00000309   [8]  05 CE 00 00 00 00 00 00
(000.794857)  vcan0  00000170   [8]  59 00 00 00 00 00 00 00
(000.800340)  vcan0  00000170   [8]  D1 00 00 00 00 00 00 00
(000.800572)  vcan0  0000017C   [8]  4B 00 00 00 00 00 00 00
(000.800784)  vcan0  0000014A   [8]  00 00 01 79 6A BE 59 A2
(000.800994)  vcan0  00000309   [8]  05 DB 00 00 00 00 00 00
(000.805984)  vcan0  00000309   [8]  05 E9 00 00 00 00 00 00
(000.806200)  vcan0  0000014A   [8]  00 00 01 73 26 B1 ED C8
(000.806414)  vcan0  00000170   [8]  32 00 00 00 00 00 00 00
(000.806635)  vcan0  0000017C   [8]  4B 00 00 00 00 00 00 00
(000.812527)  vcan0  0000017C   [8]  4B 00 00 00 00 00 00 00
(000.812745)  vcan0  0000014A   [8]  00 00 01 6C FD 13 90 E8
(000.812956)  vcan0  00000170   [8]  B7 00 00 00 00 00 00 00
(000.813166)  vcan0  00000309   [8]  05 F6 00 00 00 00 00 00
(000.818082)  vcan0  00000170   [8]  7A 00 00 00 00 00 00 00
(000.818312)  vcan0  00000309   [8]  06 04 00 00 00 00 00 00
(000.818534)  vcan0  0000017C   [8]  4B 00 00 00 00 00 00 00
(000.818746)  vcan0  0000014A   [8]  00 00 01 66 DE 62 A9 D6
(000.823983)  vcan0  00000170   [8]  18 00 00 00 00 00 00 00
(000.824206)  vcan0  00000309   [8]  06 11 00 00 00 00 00 00
(000.824431)  vcan0  0000017C   [8]  4B 00 00 00 00 00 00 00
(000.824641)  vcan0  0000014A   [8]  00 00 01 60 E4 19 F8 B4
(000.829808)  vcan0  0000014A   [8]  00 00 01 5A FD B9 F1 3E
(000.830033)  vcan0  0000017C   [8]  4B 00 00 00 00 00 00 00
(000.830262)  vcan0  00000170   [8]  53 00 00 00 00 00 00 00
(000.830488)  vcan0  00000309   [8]  06 1E 00 00 00 00 00 00
(000.836278)  vcan0  0000017C   [8]  4B 00 00 00 00 00 00 00
(000.836495)  vcan0  00000309   [8]  06 2C 00 00 00 00 00 00
(000.836706)  vcan0  0000014A   [8]  00 00 01 55 2F 59 26 54
(000.836915)  vcan0  00000170   [8]  43 00 00 00 00 00 00 00
(000.841787)  vcan0  00000309   [8]  06 39 00 00 00 00 00 00
(000.842002)  vcan0  0000014A   [8]  00 00 01 4F 7C 23 02 28
(000.842221)  vcan0  0000017C   [8]  4B 00 00 00 00 00 00 00
(000.842429)  vcan0  00000170   [8]  CA 00 00 00 00 00 00 00
(000.848456)  vcan0  0000014A   [8]  00 00 01 49 DD 21 33 2C
(000.848678)  vcan0  0000017C   [8]  4B 00 00 00 00 00 00 00
(000.848889)  vcan0  00000309   [8]  06 46 00 00 00 00 00 00
(000.849099)  vcan0  00000170   [8]  B4 00 00 00 00 00 00 00
(000.853929)  vcan0  00000170   [8]  44 00 00 00 00 00 00 00
(000.854151)  vcan0  00000309   [8]  06 54 00 00 00 00 00 00
(000.854362)  vcan0  0000014A   [8]  00 00 01 44 58 92 1B 42
(000.854580)  vcan0  0000017C   [8]  4B 00 00 00 00 00 00 00
(000.860162)  vcan0  00000170   [8]  96 00 00 00 00 00 00 00
(000.860390)  vcan0  0000017C   [8]  4B 00 00 00 00 00 00 00
(000.860602)  vcan0  0000014A   [8]  00 00 01 3E EA 99 5C B2
(000.860811)  vcan0  00000309   [8]  06 61 00 00 00 00 00 00
(000.867783)  vcan0  0000017C   [8]  4B 00 00 00 00 00 00 00
(000.867998)  vcan0  00000170   [8]  9D 00 00 00 00 00 00 00
(000.868213)  vcan0  0000014A   [8]  00 00 01 39 94 6A 4D 9C
(000.868427)  vcan0  00000309   [8]  06 6E 00 00 00 00 00 00
(000.872062)  vcan0  0000017C   [8]  4B 00 00 00 00 00 00 00
(000.872277)  vcan0  00000170   [8]  62 00 00 00 00 00 00 00
(000.872492)  vcan0  00000309   [8]  06 7B 00 00 00 00 00 00
(000.872702)  vcan0  0000014A   [8]  00 00 01 34 59 F9 BE 38
(000.878031)  vcan0  0000017C   [8]  4B 00 00 00 00 00 00 00
(000.878249)  vcan0  0000014A   [8]  00 00 01 2F 37 8B E9 74
(000.878461)  vcan0  00000309   [8]  06 88 00 00 00 00 00 00
(000.878670)  vcan0  00000170   [8]  CE 00 00 00 00 00 00 00
(000.884264)  vcan0  00000309   [8]  06 95 00 00 00 00 00 00
(000.884478)  vcan0  00000170   [8]  47 00 00 00 00 00 00 00
(000.884702)  vcan0  0000017C   [8]  4B 00 00 00 00 00 00 00
(000.884912)  vcan0  0000014A   [8]  00 00 01 2A 28 11 1B 76
(000.890117)  vcan0  00000309   [8]  06 A3 00 00 00 00 00 00
(000.890352)  vcan0  0000014A   [8]  00 00 01 25 3B 8C 50 02
(000.890572)  vcan0  0000017C   [8]  4B 00 00 00 00 00 00 00
(000.890781)  vcan0  00000170   [8]  E7 00 00 00 00 00 00 00
(000.895862)  vcan0  00000309   [8]  06 B0 00 00 00 00 00 00
(000.896082)  vcan0  0000014A   [8]  00 00 01 20 60 88 57 F2
(000.896310)  vcan0  0000017C   [8]  4B 00 00 00 00 00 00 00
(000.896551)  vcan0  00000170   [8]  B0 00 00 00 00 00 00 00
(000.902115)  vcan0  00000170   [8]  98 00 00 00 00 00 00 00
(000.902341)  vcan0  0000014A   [8]  00 00 01 1B 9F 2A 32 DE
(000.902555)  vcan0  00000309   [8]  06 BD 00 00 00 00 00 00
(000.902773)  vcan0  0000017C   [8]  4B 00 00 00 00 00 00 00
(000.908773)  vcan0  0000017C   [8]  4B 00 00 00 00 00 00 00
(000.908989)  vcan0  0000014A   [8]  00 00 01 16 F3 CB 10 20
(000.909200)  vcan0  00000309   [8]  06 CA 00 00 00 00 00 00
(000.909409)  vcan0  00000170   [8]  ED 00 00 00 00 00 00 00
(000.914871)  vcan0  0000017C   [8]  4B 00 00 00 00 00 00 00
(000.915088)  vcan0  0000014A   [8]  00 00 01 12 61 FD F5 F8
(000.915298)  vcan0  00000170   [8]  50 00 00 00 00 00 00 00
(000.915508)  vcan0  00000309   [8]  06 D7 00 00 00 00 00 00
(000.920846)  vcan0  0000017C   [8]  4B 00 00 00 00 00 00 00
(000.921071)  vcan0  00000170   [8]  01 00 00 00 00 00 00 00
(000.921298)  vcan0  00000309   [8]  06 E4 00 00 00 00 00 00
(000.921522)  vcan0  0000014A   [8]  00 00 01 0D E7 27 D5 18
(000.926097)  vcan0  00000170   [8]  AE 00 00 00 00 00 00 00
(000.926333)  vcan0  0000017C   [8]  4B 00 00 00 00 00 00 00
(000.926547)  vcan0  00000309   [8]  06 F1 00 00 00 00 00 00
(000.926757)  vcan0  0000014A   [8]  00 00 01 09 82 C4 8B DC
(000.932372)  vcan0  00000170   [8]  B5 00 00 00 00 00 00 00
(000.932600)  vcan0  00000309   [8]  06 FE 00 00 00 00 00 00
(000.932822)  vcan0  0000017C   [8]  4B 00 00 00 00 00 00 00
(000.933034)  vcan0  0000014A   [8]  00 00 01 05 38 59 BD 42
(000.938453)  vcan0  00000170   [8]  E7 00 00 00 00 00 00 00
(000.938690)  vcan0  0000017C   [8]  4B 00 00 00 00 00 00 00
(000.938902)  vcan0  0000014A   [8]  00 00 01 01 02 AF 8B A4
(000.939113)  vcan0  00000309   [8]  07 0B 00 00 00 00 00 00
(000.943970)  vcan0  00000309   [8]  07 17 00 00 00 00 00 00
(000.944193)  vcan0  0000014A   [8]  00 00 00 FC E7 93 6C A4
(000.944404)  vcan0  00000170   [8]  08 00 00 00 00 00 00 00
(000.944627)  vcan0  0000017C   [8]  4B 00 00 00 00 00 00 00
(000.950239)  vcan0  0000017C   [8]  4B 00 00 00 00 00 00 00
(000.950455)  vcan0  00000309   [8]  07 24 00 00 00 00 00 00
(000.950666)  vcan0  00000170   [8]  86 00 00 00 00 00 00 00
(000.950876)  vcan0  0000014A   [8]  00 00 00 F8 F2 A2 0A 8E
(000.956250)  vcan0  00000309   [8]  07 31 00 00 00 00 00 00
(000.956465)  vcan0  0000014A   [8]  00 00 00 F5 08 99 76 30
(000.956674)  vcan0  00000170   [8]  7B 00 00 00 00 00 00 00
(000.956895)  vcan0  0000017C   [8]  4B 00 00 00 00 00 00 00
(000.962085)  vcan0  0000014A   [8]  00 00 00 F1 3E 88 E1 16
(000.962309)  vcan0  0000017C   [8]  4B 00 00 00 00 00 00 00
(000.962521)  vcan0  00000309   [8]  07 3E 00 00 00 00 00 00
(000.962730)  vcan0  00000170   [8]  4F 00 00 00 00 00 00 00
(000.968299)  vcan0  0000017C   [8]  4B 00 00 00 00 00 00 00
(000.968512)  vcan0  00000170   [8]  97 00 00 00 00 00 00 00
(000.968723)  vcan0  00000309   [8]  07 4B 00 00 00 00 00 00
(000.968933)  vcan0  0000014A   [8]  00 00 00 ED 7E 1B 23 30
(000.974272)  vcan0  00000170   [8]  0D 00 00 00 00 00 00 00
(000.974502)  vcan0  0000017C   [8]  4B 00 00 00 00 00 00 00
(000.974714)  vcan0  0000014A   [8]  00 00 00 E9 ED 72 D3 42
(000.974924)  vcan0  00000309   [8]  07 58 00 00 00 00 00 00
(000.980156)  vcan0  00000170   [8]  9F 00 00 00 00 00 00 00
(000.980376)  vcan0  0000014A   [8]  00 00 00 E6 41 E4 8B F6
(000.980597)  vcan0  0000017C   [8]  4B 00 00 00 00 00 00 00
(000.980807)  vcan0  00000309   [8]  07 64 00 00 00 00 00 00
(000.985848)  vcan0  00000309   [8]  07 70 00 00 00 00 00 00
(000.986060)  vcan0  00000170   [8]  62 00 00 00 00 00 00 00
(000.986273)  vcan0  0000014A   [8]  00 00 00 E3 0C DC 2C F6
(000.986493)  vcan0  0000017C   [8]  4B 00 00 00 00 00 00 00
(000.992028)  vcan0  00000170   [8]  83 00 00 00 00 00 00 00
(000.992270)  vcan0  0000014A   [8]  00 00 00 DF 15 B6 C2 A0
(000.992496)  vcan0  0000017C   [8]  4B 00 00 00 00 00 00 00
(000.992708)  vcan0  00000309   [8]  07 7D 00 00 00 00 00 00
(000.998004)  vcan0  0000014A   [8]  00 00 00 DC A1 78 15 30
(000.998217)  vcan0  00000170   [8]  BF 00 00 00 00 00 00 00
(000.998426)  vcan0  00000202   [8]  00 46 00 00 00 00 00 00
(000.998650)  vcan0  0000017C   [8]  4B 00 00 00 00 00 00 00
(000.998860)  vcan0  00000309   [8]  07 7F 00 00 00 00 00 00
(001.004009)  vcan0  00000309   [8]  07 8A 00 00 00 00 00 00
(001.004235)  vcan0  0000017C   [8]  4B 00 00 00 00 00 00 00
(001.004446)  vcan0  00000170   [8]  88 00 00 00 00 00 00 00
(001.004657)  vcan0  0000014A   [8]  00 00 00 D8 82 82 81 88
(001.010559)  vcan0  00000326   [8]  00 00 00 00 00 00 00 00
(001.010771)  vcan0  0000018F   [8]  00 00 2A 00 00 00 00 00
(001.010982)  vcan0  00000309   [8]  07 82 00 00 00 00 00 00
(001.011191)  vcan0  00000170   [8]  6D 00 00 00 00 00 00 00
(001.011408)  vcan0  000001A4   [8]  00 67 00 00 00 00 00 00
(001.011626)  vcan0  0000017C   [8]  4B 00 00 00 00 00 00 00
(001.011839)  vcan0  000001A3   [8]  00 00 00 00 00 00 00 00
(001.012053)  vcan0  0000037B   [8]  00 00 00 00 00 00 00 00
(001.012263)  vcan0  0000014A   [8]  00 00 00 D5 C4 BD CC 9C
(001.012476)  vcan0  00000374   [8]  00 00 00 00 00 00 00 00
(001.016438)  vcan0  0000014A   [8]  00 00 00 D2 B7 35 43 54
(001.016665)  vcan0  0000017C   [8]  4B 00 00 00 00 00 00 00
(001.016877)  vcan0  00000309   [8]  07 8D 00 00 00 00 00 00
(001.017087)  vcan0  00000170   [8]  37 00 00 00 00 00 00 00
(001.022163)  vcan0  00000309   [8]  07 8D 00 00 00 00 00 00
(001.022379)  vcan0  0000014A   [8]  00 00 00 D0 07 70 FB EA
(001.022601)  vcan0  0000017C   [8]  4B 00 00 00 00 00 00 00
(001.022810)  vcan0  00000170   [8]  45 00 00 00 00 00 00 00
(001.027998)  vcan0  0000017C   [8]  4B 00 00 00 00 00 00 00
(001.028215)  vcan0  00000309   [8]  07 98 00 00 00 00 00 00
(001.028428)  vcan0  0000014A   [8]  00 00 00 CC 8F 54 C5 5A
(001.028639)  vcan0  00000170   [8]  98 00 00 00 00 00 00 00
(001.033870)  vcan0  0000014A   [8]  00 00 00 C9 FB 0A 4E 42
(001.034083)  vcan0  00000170   [8]  80 00 00 00 00 00 00 00
(001.034297)  vcan0  00000309   [8]  07 97 00 00 00 00 00 00
(001.034519)  vcan0  0000017C   [8]  4B 00 00 00 00 00 00 00
(001.040259)  vcan0  0000017C   [8]  4B 00 00 00 00 00 00 00
(001.040474)  vcan0  00000309   [8]  07 A3 00 00 00 00 00 00
(001.040683)  vcan0  00000170   [8]  56 00 00 00 00 00 00 00
(001.040895)  vcan0  0000014A   [8]  00 00 00 C7 26 35 03 8C
(001.046073)  vcan0  0000014A   [8]  00 00 00 C4 B8 CE F8 12
(001.046320)  vcan0  0000017C   [8]  4B 00 00 00 00 00 00 00
(001.046532)  vcan0  00000170   [8]  C0 00 00 00 00 00 00 00
(001.046744)  vcan0  00000309   [8]  07 A4 00 00 00 00 00 00
(001.052321)  vcan0  0000017C   [8]  4B 00 00 00 00 00 00 00
(001.052537)  vcan0  00000309   [8]  07 B0 00 00 00 00 00 00
(001.052749)  vcan0  0000014A   [8]  00 00 00 C1 B6 17 A9 8A
(001.052958)  vcan0  00000170   [8]  26 00 00 00 00 00 00 00
(001.057739)  vcan0  0000014A   [8]  00 00 00 BF 61 FF 41 CA
(001.057952)  vcan0  00000170   [8]  54 00 00 00 00 00 00 00
(001.058175)  vcan0  0000017C   [8]  4B 00 00 00 00 00 00 00
(001.058386)  vcan0  00000309   [8]  07 B2 00 00 00 00 00 00
(001.064002)  vcan0  0000014A   [8]  00 00 00 BC D0 C3 F9 D0
(001.064216)  vcan0  00000170   [8]  45 00 00 00 00 00 00 00
(001.064437)  vcan0  0000017C   [8]  4B 00 00 00 00 00 00 00
(001.064648)  vcan0  00000309   [8]  07 BF 00 00 00 00 00 00
(001.070123)  vcan0  00000309   [8]  07 C1 00 00 00 00 00 00
(001.070350)  vcan0  0000017C   [8]  4B 00 00 00 00 00 00 00
(001.070559)  vcan0  00000170   [8]  39 00 00 00 00 00 00 00
(001.070772)  vcan0  0000014A   [8]  00 00 00 BA 9F 68 D3 FA
(001.075924)  vcan0  00000170   [8]  41 00 00 00 00 00 00 00
(001.076149)  vcan0  0000014A   [8]  00 00 00 B7 FB 24 FB CE
(001.076362)  vcan0  00000309   [8]  07 CF 00 00 00 00 00 00
(001.076582)  vcan0  0000017C   [8]  4B 00 00 00 00 00 00 00
(001.082043)  vcan0  0000014A   [8]  00 00 00 B5 EC 10 EE 86
(001.082256)  vcan0  00000170   [8]  19 00 00 00 00 00 00 00
(001.082478)  vcan0  0000017C   [8]  4B 00 00 00 00 00 00 00
(001.082688)  vcan0  00000309   [8]  07 D2 00 00 00 00 00 00
(001.087999)  vcan0  0000017C   [8]  4B 00 00 00 00 00 00 00
(001.088216)  vcan0  00000309   [8]  07 E0 00 00 00 00 00 00
(001.088430)  vcan0  00000170   [8]  70 00 00 00 00 00 00 00
(001.088642)  vcan0  0000014A   [8]  00 00 00 B3 A1 0B E2 A0
(001.094023)  vcan0  0000014A   [8]  00 00 00 B1 AD 96 51 64
(001.094240)  vcan0  00000309   [8]  07 E3 00 00 00 00 00 00
(001.094462)  vcan0  0000017C   [8]  4B 00 00 00 00 00 00 00
(001.094671)  vcan0  00000170   [8]  DE 00 00 00 00 00 00 00
(001.099912)  vcan0  0000014A   [8]  00 00 00 AF 55 69 15 CC
(001.100137)  vcan0  0000017C   [8]  4B 00 00 00 00 00 00 00
(001.100350)  vcan0  00000309   [8]  07 F2 00 00 00 00 00 00
(001.100560)  vcan0  00000170   [8]  BD 00 00 00 00 00 00 00
(001.106731)  vcan0  00000170   [8]  50 00 00 00 00 00 00 00
(001.106987)  vcan0  0000017C   [8]  4B 00 00 00 00 00 00 00
(001.107209)  vcan0  00000309   [8]  07 F6 00 00 00 00 00 00
(001.107424)  vcan0  0000014A   [8]  00 00 00 AD 7E E3 E5 DC
(001.111917)  vcan0  00000170   [8]  55 00 00 00 00 00 00 00
(001.112151)  vcan0  00000309   [8]  08 06 00 00 00 00 00 00
(001.112366)  vcan0  0000014A   [8]  00 00 00 AB 78 24 48 9E
(001.112588)  vcan0  0000017C   [8]  4B 00 00 00 00 00 00 00
(001.118100)  vcan0  0000014A   [8]  00 00 00 A9 B9 30 52 0A
(001.118325)  vcan0  0000017C   [8]  4B 00 00 00 00 00 00 00
(001.118535)  vcan0  00000170   [8]  B6 00 00 00 00 00 00 00
(001.118746)  vcan0  00000309   [8]  08 0A 00 00 00 00 00 00
(001.123931)  vcan0  00000170   [8]  56 00 00 00 00 00 00 00
(001.124149)  vcan0  0000014A   [8]  00 00 00 A7 A8 B2 CC 8C
(001.124370)  vcan0  0000017C   [8]  4B 00 00 00 00 00 00 00
(001.124580)  vcan0  00000309   [8]  08 19 00 00 00 00 00 00
(001.130183)  vcan0  00000170   [8]  8A 00 00 00 00 00 00 00
(001.130406)  vcan0  00000309   [8]  08 1E 00 00 00 00 00 00
(001.130628)  vcan0  0000017C   [8]  4B 00 00 00 00 00 00 00
(001.130839)  vcan0  0000014A   [8]  00 00 00 A6 0B 8E 06 20
(001.136268)  vcan0  0000017C   [8]  4B 00 00 00 00 00 00 00
(001.136486)  vcan0  0000014A   [8]  00 00 00 A4 41 34 B1 58
(001.136697)  vcan0  00000309   [8]  08 2E 00 00 00 00 00 00
(001.136908)  vcan0  00000170   [8]  48 00 00 00 00 00 00 00
(001.141898)  vcan0  00000309   [8]  08 33 00 00 00 00 00 00
(001.142109)  vcan0  00000170   [8]  33 00 00 00 00 00 00 00
(001.142330)  vcan0  0000017C   [8]  4B 00 00 00 00 00 00 00
(001.142541)  vcan0  0000014A   [8]  00 00 00 A2 B4 A5 95 A0
(001.147968)  vcan0  00000309   [8]  08 44 00 00 00 00 00 00
(001.148184)  vcan0  00000170   [8]  B1 00 00 00 00 00 00 00
(001.148408)  vcan0  0000017C   [8]  4B 00 00 00 00 00 00 00
(001.148620)  vcan0  0000014A   [8]  00 00 00 A0 E1 59 7D A4
(001.153810)  vcan0  0000014A   [8]  00 00 00 9F 74 7D FC 52
(001.154022)  vcan0  00000170   [8]  7B 00 00 00 00 00 00 00
(001.154235)  vcan0  00000309   [8]  08 49 00 00 00 00 00 00
(001.154455)  vcan0  0000017C   [8]  4B 00 00 00 00 00 00 00
(001.160292)  vcan0  00000170   [8]  64 00 00 00 00 00 00 00
(001.160510)  vcan0  00000309   [8]  08 5A 00 00 00 00 00 00
(001.160729)  vcan0  0000017C   [8]  4B 00 00 00 00 00 00 00
(001.160939)  vcan0  0000014A   [8]  00 00 00 9D E2 79 E4 BC
(001.166453)  vcan0  00000170   [8]  30 00 00 00 00 00 00 00
(001.166676)  vcan0  00000309   [8]  08 5F 00 00 00 00 00 00
(001.166889)  vcan0  0000014A   [8]  00 00 00 9C 80 43 61 46
(001.167109)  vcan0  0000017C   [8]  4B 00 00 00 00 00 00 00
(001.171746)  vcan0  00000309   [8]  08 70 00 00 00 00 00 00
(001.171958)  vcan0  00000170   [8]  98 00 00 00 00 00 00 00
(001.172180)  vcan0  0000017C   [8]  4B 00 00 00 00 00 00 00
(001.172391)  vcan0  0000014A   [8]  00 00 00 9A ED 0D B2 96
(001.178059)  vcan0  00000309   [8]  08 76 00 00 00 00 00 00
(001.178293)  vcan0  0000014A   [8]  00 00 00 99 A9 75 92 C0
(001.178517)  vcan0  0000017C   [8]  4B 00 00 00 00 00 00 00
(001.178727)  vcan0  00000170   [8]  AD 00 00 00 00 00 00 00
(001.184370)  vcan0  00000170   [8]  2F 00 00 00 00 00 00 00
(001.184595)  vcan0  0000014A   [8]  00 00 00 98 48 AE EE A0
(001.184817)  vcan0  0000017C   [8]  4B 00 00 00 00 00 00 00
(001.185029)  vcan0  00000309   [8]  08 87 00 00 00 00 00 00
(001.190140)  vcan0  0000014A   [8]  00 00 00 97 11 3C 8D 52
(001.190369)  vcan0  0000017C   [8]  4B 00 00 00 00 00 00 00
(001.190580)  vcan0  00000309   [8]  08 8D 00 00 00 00 00 00
(001.190791)  vcan0  00000170   [8]  F2 00 00 00 00 00 00 00
(001.196344)  vcan0  00000170   [8]  A8 00 00 00 00 00 00 00
(001.196585)  vcan0  0000017C   [8]  4B 00 00 00 00 00 00 00
(001.196798)  vcan0  0000014A   [8]  00 00 00 95 AA 79 4D A0
(001.197009)  vcan0  00000309   [8]  08 9E 00 00 00 00 00 00
(001.201881)  vcan0  00000170   [8]  F5 00 00 00 00 00 00 00
(001.202101)  vcan0  00000309   [8]  08 A5 00 00 00 00 00 00
(001.202323)  vcan0  0000017C   [8]  4B 00 00 00 00 00 00 00
(001.202533)  vcan0  0000014A   [8]  00 00 00 94 8D 8A 14 F8
(001.207781)  vcan0  00000309   [8]  08 B6 00 00 00 00 00 00
(001.208007)  vcan0  0000017C   [8]  4B 00 00 00 00 00 00 00
(001.208219)  vcan0  0000014A   [8]  00 00 00 93 5E 92 D8 FA
(001.208429)  vcan0  00000170   [8]  9D 00 00 00 00 00 00 00
(001.213902)  vcan0  0000014A   [8]  00 00 00 92 4E B1 53 FC
(001.214128)  vcan0  0000017C   [8]  4B 00 00 00 00 00 00 00
(001.214337)  vcan0  00000170   [8]  A9 00 00 00 00 00 00 00
(001.214548)  vcan0  00000309   [8]  08 BC 00 00 00 00 00 00
(001.219795)  vcan0  00000309   [8]  08 CE 00 00 00 00 00 00
(001.220013)  vcan0  0000014A   [8]  00 00 00 91 16 FC 97 5C
(001.220223)  vcan0  00000170   [8]  50 00 00 00 00 00 00 00
(001.220443)  vcan0  0000017C   [8]  4B 00 00 00 00 00 00 00
(001.225904)  vcan0  00000309   [8]  08 D4 00 00 00 00 00 00
(001.226118)  vcan0  0000014A   [8]  00 00 00 90 1D 14 42 96
(001.226327)  vcan0  00000170   [8]  AC 00 00 00 00 00 00 00
(001.226547)  vcan0  0000017C   [8]  4B 00 00 00 00 00 00 00
(001.231804)  vcan0  00000309   [8]  08 E6 00 00 00 00 00 00
(001.232027)  vcan0  0000017C   [8]  4B 00 00 00 00 00 00 00
(001.232237)  vcan0  00000170   [8]  8D 00 00 00 00 00 00 00
(001.232447)  vcan0  0000014A   [8]  00 00 00 8F 17 B3 A4 BC
(001.237872)  vcan0  0000017C   [8]  4B 00 00 00 00 00 00 00
(001.238084)  vcan0  00000170   [8]  91 00 00 00 00 00 00 00
(001.238296)  vcan0  00000309   [8]  08 ED 00 00 00 00 00 00
(001.238507)  vcan0  0000014A   [8]  00 00 00 8E 28 89 55 52
(001.243716)  vcan0  0000017C   [8]  4B 00 00 00 00 00 00 00
(001.243930)  vcan0  00000309   [8]  08 FE 00 00 00 00 00 00
(001.244144)  vcan0  0000014A   [8]  00 00 00 8D 19 86 BF C6
(001.244353)  vcan0  00000170   [8]  DE 00 00 00 00 00 00 00
(001.244561)  vcan0  00000202   [8]  00 CC 00 00 00 00 00 00
(001.249884)  vcan0  00000309   [8]  09 05 00 00 00 00 00 00
(001.250099)  vcan0  0000014A   [8]  00 00 00 8C 40 40 3C 68
(001.250308)  vcan0  00000170   [8]  1A 00 00 00 00 00 00 00
(001.250528)  vcan0  0000017C   [8]  4B 00 00 00 00 00 00 00
(001.255957)  vcan0  0000014A   [8]  00 00 00 8B 5B 0E C4 AC
(001.256172)  vcan0  00000309   [8]  09 17 00 00 00 00 00 00
(001.256381)  vcan0  00000170   [8]  1E 00 00 00 00 00 00 00
(001.256601)  vcan0  0000017C   [8]  4B 00 00 00 00 00 00 00
(001.262345)  vcan0  0000017C   [8]  4B 00 00 00 00 00 00 00
(001.262559)  vcan0  0000014A   [8]  00 00 00 8A 87 A5 6E 3E
(001.262768)  vcan0  00000170   [8]  23 00 00 00 00 00 00 00
(001.262978)  vcan0  00000309   [8]  09 1E 00 00 00 00 00 00
(001.268104)  vcan0  00000309   [8]  09 30 00 00 00 00 00 00
(001.268316)  vcan0  00000170   [8]  E2 00 00 00 00 00 00 00
(001.268529)  vcan0  0000014A   [8]  00 00 00 89 A7 C2 BF 7E
(001.268748)  vcan0  0000017C   [8]  4B 00 00 00 00 00 00 00
(001.273986)  vcan0  0000014A   [8]  00 00 00 88 E9 D5 E3 8C
(001.274210)  vcan0  0000017C   [8]  4B 00 00 00 00 00 00 00
(001.274426)  vcan0  00000309   [8]  09 37 00 00 00 00 00 00
(001.274634)  vcan0  00000170   [8]  53 00 00 00 00 00 00 00
(001.280046)  vcan0  0000014A   [8]  00 00 00 88 1F E8 E6 F0
(001.280269)  vcan0  0000017C   [8]  4B 00 00 00 00 00 00 00
(001.280478)  vcan0  00000170   [8]  62 00 00 00 00 00 00 00
(001.280688)  vcan0  00000309   [8]  09 48 00 00 00 00 00 00
(001.286439)  vcan0  0000017C   [8]  4B 00 00 00 00 00 00 00
(001.286662)  vcan0  0000014A   [8]  00 00 00 87 6B BB EA 28
(001.286871)  vcan0  00000170   [8]  4A 00 00 00 00 00 00 00
(001.287081)  vcan0  00000309   [8]  09 50 00 00 00 00 00 00
(001.292084)  vcan0  0000014A   [8]  00 00 00 86 AE 6D 74 00
(001.292294)  vcan0  00000170   [8]  E4 00 00 00 00 00 00 00
(001.292506)  vcan0  00000309   [8]  09 61 00 00 00 00 00 00
(001.292724)  vcan0  0000017C   [8]  4B 00 00 00 00 00 00 00
(001.298009)  vcan0  0000017C   [8]  4B 00 00 00 00 00 00 00
(001.298223)  vcan0  00000309   [8]  09 69 00 00 00 00 00 00
(001.298435)  vcan0  0000014A   [8]  00 00 00 86 04 B3 8B 56
(001.298644)  vcan0  00000170   [8]  9B 00 00 00 00 00 00 00
(001.303835)  vcan0  00000170   [8]  C1 00 00 00 00 00 00 00
(001.304052)  vcan0  00000309   [8]  09 7A 00 00 00 00 00 00
(001.304264)  vcan0  0000014A   [8]  00 00 00 85 5A AE E9 4E
(001.304488)  vcan0  0000017C   [8]  4B 00 00 00 00 00 00 00
(001.309832)  vcan0  0000014A   [8]  00 00 00 84 C1 9D F3 58
(001.310054)  vcan0  0000017C   [8]  4B 00 00 00 00 00 00 00
(001.310263)  vcan0  00000170   [8]  E5 00 00 00 00 00 00 00
(001.310473)  vcan0  00000309   [8]  09 82 00 00 00 00 00 00
(001.315927)  vcan0  0000017C   [8]  4B 00 00 00 00 00 00 00
(001.316142)  vcan0  0000014A   [8]  00 00 00 0D 8C 0A 0D 6C
(001.316352)  vcan0  00000309   [8]  09 93 00 00 00 00 00 00
(001.316561)  vcan0  00000170   [8]  2E 00 00 00 00 00 00 00
(001.321937)  vcan0  0000014A   [8]  01 FF FF D5 02 05 1D D4
(001.322149)  vcan0  00000170   [8]  78 00 00 00 00 00 00 00
(001.322361)  vcan0  00000309   [8]  09 9B 00 00 00 00 00 00
(001.322581)  vcan0  0000017C   [8]  4B 00 00 00 00 00 00 00
(001.328018)  vcan0  0000017C   [8]  4B 00 00 00 00 00 00 00
(001.328236)  vcan0  0000014A   [8]  01 FF FF D4 BF 43 58 E8
(001.328446)  vcan0  00000170   [8]  0A 00 00 00 00 00 00 00
(001.328657)  vcan0  00000309   [8]  09 AC 00 00 00 00 00 00
(001.333800)  vcan0  0000017C   [8]  4B 00 00 00 00 00 00 00
(001.334012)  vcan0  00000170   [8]  F1 00 00 00 00 00 00 00
(001.334224)  vcan0  00000309   [8]  09 B4 00 00 00 00 00 00
(001.334434)  vcan0  0000014A   [8]  01 FF FF D5 0A 11 AA F0
(001.339731)  vcan0  0000014A   [8]  01 FF FF D6 55 0C 3B 3E
(001.339945)  vcan0  00000309   [8]  09 C4 00 00 00 00 00 00
(001.340154)  vcan0  00000170   [8]  1D 00 00 00 00 00 00 00
(001.340373)  vcan0  0000017C   [8]  4B 00 00 00 00 00 00 00
(001.345768)  vcan0  0000014A   [8]  01 FF FF D8 1E 49 82 5A
(001.345993)  vcan0  0000017C   [8]  4B 00 00 00 00 00 00 00
(001.346202)  vcan0  00000170   [8]  9D 00 00 00 00 00 00 00
(001.346415)  vcan0  00000309   [8]  09 CC 00 00 00 00 00 00
(001.351879)  vcan0  00000309   [8]  09 DA 00 00 00 00 00 00
(001.352121)  vcan0  0000014A   [8]  01 FF FF DB 1B 81 10 4E
(001.352341)  vcan0  0000017C   [8]  4B 00 00 00 00 00 00 00
(001.352550)  vcan0  00000170   [8]  C6 00 00 00 00 00 00 00
(001.357859)  vcan0  0000017C   [8]  4B 00 00 00 00 00 00 00
(001.358074)  vcan0  0000014A   [8]  01 FF FF DE 30 B0 DE AC
(001.358283)  vcan0  00000170   [8]  4E 00 00 00 00 00 00 00
(001.358493)  vcan0  00000309   [8]  09 E3 00 00 00 00 00 00
(001.364378)  vcan0  00000170   [8]  65 00 00 00 00 00 00 00
(001.364605)  vcan0  0000017C   [8]  4B 00 00 00 00 00 00 00
(001.364816)  vcan0  00000309   [8]  09 F2 00 00 00 00 00 00
(001.365026)  vcan0  0000014A   [8]  01 FF FF E1 FC 05 AB 3E
(001.370350)  vcan0  00000170   [8]  7B 00 00 00 00 00 00 00
(001.370568)  vcan0  00000309   [8]  09 FA 00 00 00 00 00 00
(001.370787)  vcan0  0000017C   [8]  4B 00 00 00 00 00 00 00
(001.370996)  vcan0  0000014A   [8]  01 FF FF E5 A8 1E 7B 4E
(001.376221)  vcan0  00000309   [8]  0A 0A 00 00 00 00 00 00
(001.376433)  vcan0  00000170   [8]  6D 00 00 00 00 00 00 00
(001.376646)  vcan0  0000014A   [8]  01 FF FF EA 1F A6 45 4C
(001.376870)  vcan0  0000017C   [8]  4B 00 00 00 00 00 00 00
(001.382456)  vcan0  0000017C   [8]  4B 00 00 00 00 00 00 00
(001.382671)  vcan0  0000014A   [8]  01 FF FF EE 52 C9 C7 04
(001.382885)  vcan0  00000309   [8]  0A 12 00 00 00 00 00 00
(001.383093)  vcan0  00000170   [8]  F9 00 00 00 00 00 00 00
(001.387821)  vcan0  00000170   [8]  64 00 00 00 00 00 00 00
(001.388039)  vcan0  00000309   [8]  0A 22 00 00 00 00 00 00
(001.388259)  vcan0  0000017C   [8]  4B 00 00 00 00 00 00 00
(001.388469)  vcan0  0000014A   [8]  01 FF FF F3 08 DB 95 64
(001.393739)  vcan0  00000170   [8]  EE 00 00 00 00 00 00 00
(001.393959)  vcan0  00000309   [8]  0A 2A 00 00 00 00 00 00
(001.394170)  vcan0  0000014A   [8]  01 FF FF F7 5E 44 BB 22
(001.394390)  vcan0  0000017C   [8]  4B 00 00 00 00 00 00 00
(001.399735)  vcan0  00000309   [8]  0A 3B 00 00 00 00 00 00
(001.399946)  vcan0  00000170   [8]  05 00 00 00 00 00 00 00
(001.400159)  vcan0  0000014A   [8]  01 FF FF FC 27 3C 2D 06
(001.400379)  vcan0  0000017C   [8]  4B 00 00 00 00 00 00 00
(001.405792)  vcan0  0000017C   [8]  4B 00 00 00 00 00 00 00
(001.406005)  vcan0  00000170   [8]  1C 00 00 00 00 00 00 00
(001.406216)  vcan0  0000014A   [8]  00 00 00 00 86 99 A7 9A
(001.406425)  vcan0  00000309   [8]  0A 43 00 00 00 00 00 00
(001.411930)  vcan0  0000017C   [8]  3B 0C 00 00 00 00 00 00
(001.412144)  vcan0  00000309   [8]  0A 54 00 00 00 00 00 00
(001.412355)  vcan0  0000014A   [8]  00 00 00 05 45 B3 78 1A
(001.412564)  vcan0  00000170   [8]  E2 00 00 00 00 00 00 00
(001.417922)  vcan0  0000017C   [8]  32 F9 00 00 00 00 00 00
(001.418152)  vcan0  00000309   [8]  0A 5C 00 00 00 00 00 00
(001.418364)  vcan0  00000170   [8]  54 00 00 00 00 00 00 00
(001.418577)  vcan0  0000014A   [8]  00 00 00 09 92 AE 46 CA
(001.423955)  vcan0  00000309   [8]  0A 6D 00 00 00 00 00 00
(001.424170)  vcan0  0000014A   [8]  00 00 00 0E 2D B1 5E FC
(001.424389)  vcan0  0000017C   [8]  21 A9 00 00 00 00 00 00
(001.424598)  vcan0  00000170   [8]  15 00 00 00 00 00 00 00
(001.429792)  vcan0  0000017C   [8]  1A 00 00 00 00 00 00 00
(001.430005)  vcan0  00000170   [8]  7E 00 00 00 00 00 00 00
(001.430217)  vcan0  00000309   [8]  0A 74 00 00 00 00 00 00
(001.430428)  vcan0  0000014A   [8]  00 00 00 12 60 C5 29 64
(001.435906)  vcan0  00000170   [8]  2D 00 00 00 00 00 00 00
(001.436127)  vcan0  0000014A   [8]  00 00 00 16 D0 83 EB A0
(001.436348)  vcan0  0000017C   [8]  09 AF 00 00 00 00 00 00
(001.436560)  vcan0  00000309   [8]  0A 84 00 00 00 00 00 00
(001.441904)  vcan0  00000170   [8]  53 00 00 00 00 00 00 00
(001.442126)  vcan0  00000309   [8]  0A 8A 00 00 00 00 00 00
(001.442338)  vcan0  0000014A   [8]  00 00 00 1A CB 30 B7 FA
(001.442557)  vcan0  0000017C   [8]  03 1B 00 00 00 00 00 00
(001.448038)  vcan0  0000014A   [8]  00 00 00 1F 07 B0 A2 80
(001.448260)  vcan0  00000309   [8]  0A 99 00 00 00 00 00 00
(001.448469)  vcan0  00000170   [8]  8A 00 00 00 00 00 00 00
(001.448689)  vcan0  0000017C   [8]  00 00 00 00 00 00 07 68
(001.454042)  vcan0  0000014A   [8]  00 00 00 22 CD 80 26 E2
(001.454258)  vcan0  00000309   [8]  0A 9D 00 00 00 00 00 00
(001.454467)  vcan0  00000170   [8]  D2 00 00 00 00 00 00 00
(001.454688)  vcan0  0000017C   [8]  00 00 00 00 00 00 0A 98
(001.459924)  vcan0  0000014A   [8]  00 00 00 26 CB 09 33 D8
(001.460139)  vcan0  00000309   [8]  0A A9 00 00 00 00 00 00
(001.460348)  vcan0  00000170   [8]  CF 00 00 00 00 00 00 00
(001.460568)  vcan0  0000017C   [8]  00 00 00 00 00 00 12 60
(001.466423)  vcan0  00000170   [8]  A6 00 00 00 00 00 00 00
(001.466645)  vcan0  0000014A   [8]  00 00 00 2A 54 4E EE 10
(001.466867)  vcan0  0000017C   [8]  00 00 00 00 00 00 13 30
(001.467078)  vcan0  00000309   [8]  0A AB 00 00 00 00 00 00
(001.472111)  vcan0  00000309   [8]  0A B4 00 00 00 00 00 00
(001.472324)  vcan0  00000170   [8]  CF 00 00 00 00 00 00 00
(001.472546)  vcan0  0000017C   [8]  00 00 00 00 00 00 13 30
(001.472757)  vcan0  0000014A   [8]  01 FF FF B3 1E BB 65 44
(001.478181)  vcan0  0000014A   [8]  01 FF FF B5 63 69 9C CC
(001.478394)  vcan0  00000170   [8]  A4 00 00 00 00 00 00 00
(001.478616)  vcan0  0000017C   [8]  00 00 00 00 00 00 13 30
(001.478826)  vcan0  00000309   [8]  0A B2 00 00 00 00 00 00
(001.484423)  vcan0  0000017C   [8]  00 00 00 00 00 00 13 30
(001.484638)  vcan0  0000014A   [8]  01 FF FF B9 32 9A C7 16
(001.484848)  vcan0  00000309   [8]  0A B8 00 00 00 00 00 00
(001.485056)  vcan0  00000170   [8]  ED 00 00 00 00 00 00 00
(001.489900)  vcan0  00000202   [8]  00 D0 00 00 00 00 00 00
(001.490123)  vcan0  0000014A   [8]  01 FF FF BC ED FF 38 42
(001.490331)  vcan0  00000170   [8]  A7 00 00 00 00 00 00 00
(001.490544)  vcan0  00000309   [8]  0A B4 00 00 00 00 00 00
(001.490764)  vcan0  0000017C   [8]  00 00 00 00 00 00 13 30
(001.495978)  vcan0  00000309   [8]  0A B6 00 00 00 00 00 00
(001.496204)  vcan0  0000017C   [8]  00 00 00 00 00 00 13 30
(001.496423)  vcan0  0000014A   [8]  01 FF FF C2 12 5F 4E F8
(001.496634)  vcan0  00000170   [8]  5D 00 00 00 00 00 00 00
(001.502287)  vcan0  0000014A   [8]  01 FF FF C6 CA D3 B6 88
(001.502504)  vcan0  00000309   [8]  0A B1 00 00 00 00 00 00
(001.502727)  vcan0  0000017C   [8]  00 00 00 00 00 00 13 30
(001.502938)  vcan0  00000170   [8]  8F 00 00 00 00 00 00 00
(001.509185)  vcan0  0000014A   [8]  01 FF FF CC 8B 26 1B A8
(001.509402)  vcan0  000001A3   [8]  00 00 00 00 00 00 00 00
(001.509612)  vcan0  0000018F   [8]  00 00 6F 00 00 00 00 00
(001.509818)  vcan0  00000170   [8]  DA 00 00 00 00 00 00 00
(001.510036)  vcan0  0000017C   [8]  00 00 00 00 00 00 13 30
(001.510248)  vcan0  00000309   [8]  0A B1 00 00 00 00 00 00
(001.513963)  vcan0  00000170   [8]  66 00 00 00 00 00 00 00
(001.514194)  vcan0  0000017C   [8]  00 00 00 00 00 00 13 30
(001.514406)  vcan0  00000309   [8]  0A AB 00 00 00 00 00 00
(001.514616)  vcan0  0000014A   [8]  01 FF FF D1 8A 2A AD 94
(001.519910)  vcan0  00000309   [8]  0A AB 00 00 00 00 00 00
(001.520132)  vcan0  0000017C   [8]  00 00 00 00 00 00 13 30
(001.520342)  vcan0  00000170   [8]  EA 00 00 00 00 00 00 00
(001.520553)  vcan0  0000014A   [8]  01 FF FF D7 7A 33 5E 5E
(001.525723)  vcan0  00000170   [8]  8A 00 00 00 00 00 00 00
(001.525943)  vcan0  00000309   [8]  0A A3 00 00 00 00 00 00
(001.526155)  vcan0  0000014A   [8]  01 FF FF DC 8F AE DB 04
(001.526374)  vcan0  0000017C   [8]  00 00 00 00 00 00 0F 58
(001.531852)  vcan0  0000017C   [8]  00 00 00 00 00 00 0F 30
(001.532066)  vcan0  00000309   [8]  0A A3 00 00 00 00 00 00
(001.532277)  vcan0  0000014A   [8]  01 FF FF E2 A7 36 37 82
(001.532486)  vcan0  00000170   [8]  3B 00 00 00 00 00 00 00
(001.537910)  vcan0  0000017C   [8]  00 00 00 00 00 00 09 D0
(001.538122)  vcan0  00000170   [8]  E1 00 00 00 00 00 00 00
(001.538335)  vcan0  0000014A   [8]  01 FF FF E7 DF 98 94 66
(001.538544)  vcan0  00000309   [8]  0A 9B 00 00 00 00 00 00
(001.544114)  vcan0  00000309   [8]  0A 9A 00 00 00 00 00 00
(001.544331)  vcan0  00000170   [8]  3B 00 00 00 00 00 00 00
(001.544550)  vcan0  0000014A   [8]  01 FF FF ED D4 8E 0C 58
(001.544774)  vcan0  0000017C   [8]  00 00 00 00 00 00 09 90
(001.549958)  vcan0  00000170   [8]  59 00 00 00 00 00 00 00
(001.550185)  vcan0  0000014A   [8]  01 FF FF F2 F2 36 AE C0
(001.550409)  vcan0  0000017C   [8]  00 00 00 00 00 00 04 08
(001.550672)  vcan0  00000309   [8]  0A 92 00 00 00 00 00 00
(001.555962)  vcan0  0000017C   [8]  00 00 00 00 00 00 03 C0
(001.556177)  vcan0  00000309   [8]  0A 91 00 00 00 00 00 00
(001.556388)  vcan0  0000014A   [8]  01 FF FF F8 A9 FD A2 3C
(001.556597)  vcan0  00000170   [8]  F8 00 00 00 00 00 00 00
(001.561981)  vcan0  00000309   [8]  0A 89 00 00 00 00 00 00
(001.562205)  vcan0  0000017C   [8]  02 DD 00 00 00 00 00 00
(001.562418)  vcan0  0000014A   [8]  01 FF FF FD 95 93 C6 EC
(001.562627)  vcan0  00000170   [8]  D4 00 00 00 00 00 00 00
(001.568265)  vcan0  00000170   [8]  67 00 00 00 00 00 00 00
(001.568491)  vcan0  0000014A   [8]  00 00 00 03 09 6C 06 7C
(001.568704)  vcan0  00000309   [8]  0A 88 00 00 00 00 00 00
(001.568924)  vcan0  0000017C   [8]  03 43 00 00 00 00 00 00
(001.574340)  vcan0  0000014A   [8]  00 00 00 07 BB A9 9D 4E
(001.574622)  vcan0  0000017C   [8]  0C 16 00 00 00 00 00 00
(001.574834)  vcan0  00000309   [8]  0A 80 00 00 00 00 00 00
(001.575043)  vcan0  00000170   [8]  29 00 00 00 00 00 00 00
(001.580129)  vcan0  0000017C   [8]  0C 86 00 00 00 00 00 00
(001.580345)  vcan0  0000014A   [8]  00 00 00 0C DB F0 38 14
(001.580657)  vcan0  00000170   [8]  D1 00 00 00 00 00 00 00
(001.580868)  vcan0  00000309   [8]  0A 7F 00 00 00 00 00 00
(001.586279)  vcan0  00000309   [8]  0A 76 00 00 00 00 00 00
(001.586497)  vcan0  0000014A   [8]  00 00 00 11 43 34 FF 06
(001.586719)  vcan0  0000017C   [8]  15 D2 00 00 00 00 00 00
(001.586929)  vcan0  00000170   [8]  E0 00 00 00 00 00 00 00
(001.592310)  vcan0  00000309   [8]  0A 76 00 00 00 00 00 00
(001.592537)  vcan0  0000017C   [8]  16 5D 00 00 00 00 00 00
(001.592748)  vcan0  00000170   [8]  7F 00 00 00 00 00 00 00
(001.592960)  vcan0  0000014A   [8]  00 00 00 16 14 44 0D 3C
(001.597973)  vcan0  00000170   [8]  68 00 00 00 00 00 00 00
(001.598212)  vcan0  0000014A   [8]  00 00 00 1A 34 4E 1D 6A
(001.598438)  vcan0  00000309   [8]  0A 6C 00 00 00 00 00 00
(001.598674)  vcan0  0000017C   [8]  1F BB 00 00 00 00 00 00
(001.604335)  vcan0  0000017C   [8]  20 1E 00 00 00 00 00 00
(001.604550)  vcan0  00000170   [8]  8F 00 00 00 00 00 00 00
(001.604762)  vcan0  0000014A   [8]  00 00 00 1E A7 EA 67 62
(001.604972)  vcan0  00000309   [8]  0A 6C 00 00 00 00 00 00
(001.610223)  vcan0  00000170   [8]  E7 00 00 00 00 00 00 00
(001.610457)  vcan0  0000017C   [8]  29 3F 00 00 00 00 00 00
(001.610669)  vcan0  00000309   [8]  0A 63 00 00 00 00 00 00
(001.610881)  vcan0  0000014A   [8]  00 00 00 22 83 0D CC B0
(001.616321)  vcan0  0000014A   [8]  00 00 00 26 9C 5B C0 78
(001.616537)  vcan0  00000309   [8]  0A 63 00 00 00 00 00 00
(001.616758)  vcan0  0000017C   [8]  29 3C 00 00 00 00 00 00
(001.616974)  vcan0  00000170   [8]  23 00 00 00 00 00 00 00
(001.622303)  vcan0  0000017C   [8]  31 D9 00 00 00 00 00 00
(001.622520)  vcan0  00000309   [8]  0A 5B 00 00 00 00 00 00
(001.622731)  vcan0  0000014A   [8]  00 00 00 2A 29 AB D4 50
(001.622939)  vcan0  00000170   [8]  A3 00 00 00 00 00 00 00
(001.628271)  vcan0  00000309   [8]  0A 5C 00 00 00 00 00 00
(001.628501)  vcan0  0000017C   [8]  31 38 00 00 00 00 00 00
(001.628710)  vcan0  00000170   [8]  E4 00 00 00 00 00 00 00
(001.628921)  vcan0  0000014A   [8]  00 00 00 2D FE 33 B5 DE
(001.634081)  vcan0  0000014A   [8]  00 00 00 31 3B 4D 94 92
(001.634294)  vcan0  00000309   [8]  0A 54 00 00 00 00 00 00
(001.634503)  vcan0  00000170   [8]  39 00 00 00 00 00 00 00
(001.634723)  vcan0  0000017C   [8]  39 14 00 00 00 00 00 00
(001.640326)  vcan0  00000170   [8]  EC 00 00 00 00 00 00 00
(001.640554)  vcan0  0000017C   [8]  37 A9 00 00 00 00 00 00
(001.640766)  vcan0  0000014A   [8]  00 00 00 34 C1 A2 64 44
(001.640979)  vcan0  00000309   [8]  0A 55 00 00 00 00 00 00
(001.646046)  vcan0  0000014A   [8]  00 00 00 37 C2 8A A8 10
(001.646259)  vcan0  00000170   [8]  16 00 00 00 00 00 00 00
(001.646473)  vcan0  00000309   [8]  0A 4E 00 00 00 00 00 00
(001.646693)  vcan0  0000017C   [8]  3E 99 00 00 00 00 00 00
(001.652252)  vcan0  00000309   [8]  0A 51 00 00 00 00 00 00
(001.652469)  vcan0  0000014A   [8]  00 00 00 3A F7 25 03 DE
(001.652678)  vcan0  00000170   [8]  2E 00 00 00 00 00 00 00
(001.652899)  vcan0  0000017C   [8]  3C 42 00 00 00 00 00 00
(001.657834)  vcan0  00000309   [8]  0A 4B 00 00 00 00 00 00
(001.658049)  vcan0  0000014A   [8]  00 00 00 3D BE 74 FD 08
(001.658269)  vcan0  0000017C   [8]  42 2B 00 00 00 00 00 00
(001.658478)  vcan0  00000170   [8]  BF 00 00 00 00 00 00 00
(001.663749)  vcan0  0000014A   [8]  00 00 00 40 A6 F9 06 C4
(001.663972)  vcan0  0000017C   [8]  3E D5 00 00 00 00 00 00
(001.664182)  vcan0  00000309   [8]  0A 4F 00 00 00 00 00 00
(001.664391)  vcan0  00000170   [8]  3D 00 00 00 00 00 00 00
(001.669914)  vcan0  00000170   [8]  3E 00 00 00 00 00 00 00
(001.670146)  vcan0  0000017C   [8]  43 AB 00 00 00 00 00 00
(001.670358)  vcan0  00000309   [8]  0A 4A 00 00 00 00 00 00
(001.670569)  vcan0  0000014A   [8]  00 00 00 43 2F 1E 09 D4
(001.676041)  vcan0  00000170   [8]  C8 00 00 00 00 00 00 00
(001.676263)  vcan0  0000014A   [8]  00 00 00 45 D9 B7 D6 DC
(001.676475)  vcan0  00000309   [8]  0A 4E 00 00 00 00 00 00
(001.676695)  vcan0  0000017C   [8]  3F 50 00 00 00 00 00 00
(001.682349)  vcan0  0000014A   [8]  01 FF FF CE A4 24 4E 12
(001.682562)  vcan0  00000170   [8]  03 00 00 00 00 00 00 00
(001.682785)  vcan0  0000017C   [8]  43 1B 00 00 00 00 00 00
(001.682995)  vcan0  00000309   [8]  0A 4A 00 00 00 00 00 00
(001.688457)  vcan0  00000170   [8]  6C 00 00 00 00 00 00 00
(001.688682)  vcan0  00000309   [8]  0A 50 00 00 00 00 00 00
(001.688893)  vcan0  0000014A   [8]  01 FF FF EC C0 AC 5D 6C
(001.689112)  vcan0  0000017C   [8]  3D F3 00 00 00 00 00 00
(001.694371)  vcan0  00000309   [8]  0A 4D 00 00 00 00 00 00
(001.694591)  vcan0  0000014A   [8]  01 FF FF EF 25 72 97 DA
(001.694812)  vcan0  0000017C   [8]  40 F1 00 00 00 00 00 00
(001.695020)  vcan0  00000170   [8]  2A 00 00 00 00 00 00 00
(001.700594)  vcan0  0000017C   [8]  3B E5 00 00 00 00 00 00
(001.700810)  vcan0  00000309   [8]  0A 52 00 00 00 00 00 00
(001.701019)  vcan0  00000170   [8]  62 00 00 00 00 00 00 00
(001.701230)  vcan0  0000014A   [8]  01 FF FF F2 A4 A8 0C AA
(001.705802)  vcan0  0000017C   [8]  3D D9 00 00 00 00 00 00
(001.706017)  vcan0  0000014A   [8]  01 FF FF F5 F7 6B 12 7E
(001.706227)  vcan0  00000170   [8]  32 00 00 00 00 00 00 00
(001.706437)  vcan0  00000309   [8]  0A 50 00 00 00 00 00 00
(001.711977)  vcan0  0000014A   [8]  01 FF FF FA 07 3A 45 C8
(001.712201)  vcan0  0000017C   [8]  38 1F 00 00 00 00 00 00
(001.712415)  vcan0  00000309   [8]  0A 55 00 00 00 00 00 00
(001.712624)  vcan0  00000170   [8]  D7 00 00 00 00 00 00 00
(001.717797)  vcan0  0000014A   [8]  01 FF FF FD A4 05 20 B0
(001.718021)  vcan0  0000017C   [8]  39 88 00 00 00 00 00 00
(001.718230)  vcan0  00000170   [8]  63 00 00 00 00 00 00 00
(001.718440)  vcan0  00000309   [8]  0A 54 00 00 00 00 00 00
(001.723822)  vcan0  00000309   [8]  0A 5B 00 00 00 00 00 00
(001.724040)  vcan0  0000014A   [8]  00 00 00 01 DE B5 20 F4
(001.724250)  vcan0  00000170   [8]  BF 00 00 00 00 00 00 00
(001.724470)  vcan0  0000017C   [8]  32 CF 00 00 00 00 00 00
(001.730075)  vcan0  00000309   [8]  0A 5A 00 00 00 00 00 00
(001.730298)  vcan0  00000170   [8]  68 00 00 00 00 00 00 00
(001.730531)  vcan0  0000014A   [8]  00 00 00 05 98 23 D2 1E
(001.730754)  vcan0  0000017C   [8]  33 DA 00 00 00 00 00 00
(001.735986)  vcan0  00000309   [8]  0A 61 00 00 00 00 00 00
(001.736211)  vcan0  0000017C   [8]  2C 89 00 00 00 00 00 00
(001.736422)  vcan0  00000170   [8]  91 00 00 00 00 00 00 00
(001.736633)  vcan0  0000014A   [8]  00 00 00 09 D6 11 47 EE
(001.736839)  vcan0  00000202   [8]  00 26 00 00 00 00 00 00
(001.742287)  vcan0  0000014A   [8]  00 00 00 0D B6 62 A5 B0
(001.742503)  vcan0  00000309   [8]  0A 60 00 00 00 00 00 00
(001.742723)  vcan0  0000017C   [8]  2D 61 00 00 00 00 00 00
(001.742932)  vcan0  00000170   [8]  19 00 00 00 00 00 00 00
(001.748216)  vcan0  0000017C   [8]  25 DA 00 00 00 00 00 00
(001.748428)  vcan0  00000170   [8]  7E 00 00 00 00 00 00 00
(001.748639)  vcan0  00000309   [8]  0A 67 00 00 00 00 00 00
(001.748850)  vcan0  0000014A   [8]  00 00 00 11 FE AC 0C 68
(001.753871)  vcan0  00000170   [8]  E0 00 00 00 00 00 00 00
(001.754102)  vcan0  0000017C   [8]  26 B9 00 00 00 00 00 00
(001.754314)  vcan0  00000309   [8]  0A 67 00 00 00 00 00 00
(001.754523)  vcan0  0000014A   [8]  00 00 00 15 CC B5 84 CC
(001.759964)  vcan0  0000014A   [8]  00 00 00 19 F9 FF 57 A2
(001.760176)  vcan0  00000170   [8]  E5 00 00 00 00 00 00 00
(001.760389)  vcan0  00000309   [8]  0A 6E 00 00 00 00 00 00
(001.760608)  vcan0  0000017C   [8]  1F 4E 00 00 00 00 00 00
(001.766077)  vcan0  0000014A   [8]  00 00 00 1D 9E 5A 2F 28
(001.766294)  vcan0  00000309   [8]  0A 6D 00 00 00 00 00 00
(001.766504)  vcan0  00000170   [8]  49 00 00 00 00 00 00 00
(001.766727)  vcan0  0000017C   [8]  20 6D 00 00 00 00 00 00
(001.771889)  vcan0  00000170   [8]  BA 00 00 00 00 00 00 00
(001.772109)  vcan0  00000309   [8]  0A 74 00 00 00 00 00 00
(001.772329)  vcan0  0000017C   [8]  19 60 00 00 00 00 00 00
(001.772540)  vcan0  0000014A   [8]  00 00 00 21 A1 62 B2 32
(001.777937)  vcan0  00000309   [8]  0A 72 00 00 00 00 00 00
(001.778162)  vcan0  0000017C   [8]  1A F1 00 00 00 00 00 00
(001.778371)  vcan0  00000170   [8]  E9 00 00 00 00 00 00 00
(001.778582)  vcan0  0000014A   [8]  00 00 00 25 1F B4 8F 7A
(001.783861)  vcan0  00000309   [8]  0A 78 00 00 00 00 00 00
(001.784086)  vcan0  0000017C   [8]  14 74 00 00 00 00 00 00
(001.784297)  vcan0  0000014A   [8]  00 00 00 28 DD 8A BC 22
(001.784506)  vcan0  00000170   [8]  7D 00 00 00 00 00 00 00
(001.789827)  vcan0  0000014A   [8]  00 00 00 2C 31 9E C7 B0
(001.790053)  vcan0  0000017C   [8]  16 9C 00 00 00 00 00 00
(001.790264)  vcan0  00000309   [8]  0A 76 00 00 00 00 00 00
(001.790472)  vcan0  00000170   [8]  5A 00 00 00 00 00 00 00
(001.795866)  vcan0  00000170   [8]  9C 00 00 00 00 00 00 00
(001.796086)  vcan0  00000309   [8]  0A 7C 00 00 00 00 00 00
(001.796306)  vcan0  0000017C   [8]  10 CC 00 00 00 00 00 00
(001.796516)  vcan0  0000014A   [8]  00 00 00 2F BF FC 11 66
(001.802044)  vcan0  0000014A   [8]  00 00 00 32 D5 7D F2 68
(001.802268)  vcan0  0000017C   [8]  13 A2 00 00 00 00 00 00
(001.802477)  vcan0  00000170   [8]  8F 00 00 00 00 00 00 00
(001.802687)  vcan0  00000309   [8]  0A 79 00 00 00 00 00 00
(001.807991)  vcan0  0000014A   [8]  00 00 00 36 22 C2 AC 2C
(001.808207)  vcan0  00000309   [8]  0A 7E 00 00 00 00 00 00
(001.808430)  vcan0  0000017C   [8]  0E 8C 00 00 00 00 00 00
(001.808639)  vcan0  00000170   [8]  EB 00 00 00 00 00 00 00
(001.813910)  vcan0  0000017C   [8]  12 1A 00 00 00 00 00 00
(001.814167)  vcan0  00000170   [8]  39 00 00 00 00 00 00 00
(001.814381)  vcan0  00000309   [8]  0A 7A 00 00 00 00 00 00
(001.814598)  vcan0  0000014A   [8]  00 00 00 39 02 E0 3A 82
(001.819988)  vcan0  0000014A   [8]  00 00 00 3C 11 BA A9 06
(001.820203)  vcan0  00000309   [8]  0A 7F 00 00 00 00 00 00
(001.820415)  vcan0  00000170   [8]  E5 00 00 00 00 00 00 00
(001.820635)  vcan0  0000017C   [8]  0D BB 00 00 00 00 00 00
(001.826272)  vcan0  00000309   [8]  0A 7A 00 00 00 00 00 00
(001.826484)  vcan0  00000170   [8]  5B 00 00 00 00 00 00 00
(001.826697)  vcan0  0000014A   [8]  00 00 00 3E BD C7 3E 74
(001.826916)  vcan0  0000017C   [8]  11 FC 00 00 00 00 00 00
(001.831958)  vcan0  00000309   [8]  0A 7E 00 00 00 00 00 00
(001.832183)  vcan0  0000017C   [8]  0E 45 00 00 00 00 00 00
(001.832394)  vcan0  0000014A   [8]  00 00 00 41 92 D3 40 42
(001.832603)  vcan0  00000170   [8]  9F 00 00 00 00 00 00 00
(001.838222)  vcan0  0000017C   [8]  13 29 00 00 00 00 00 00
(001.838452)  vcan0  00000309   [8]  0A 79 00 00 00 00 00 00
(001.838675)  vcan0  0000014A   [8]  00 00 00 44 05 3F 64 E2
(001.838891)  vcan0  00000170   [8]  38 00 00 00 00 00 00 00
(001.843919)  vcan0  00000309   [8]  0A 7C 00 00 00 00 00 00
(001.844131)  vcan0  00000170   [8]  2C 00 00 00 00 00 00 00
(001.844354)  vcan0  0000017C   [8]  10 00 00 00 00 00 00 00
(001.844565)  vcan0  0000014A   [8]  00 00 00 46 A0 33 A2 82
(001.849983)  vcan0  0000014A   [8]  00 00 00 48 E2 D5 FB 96
(001.850213)  vcan0  00000170   [8]  C5 00 00 00 00 00 00 00
(001.850444)  vcan0  0000017C   [8]  15 6F 00 00 00 00 00 00
(001.850655)  vcan0  00000309   [8]  0A 77 00 00 00 00 00 00
(001.855769)  vcan0  0000014A   [8]  00 00 00 4B 48 88 3E 3A
(001.855996)  vcan0  0000017C   [8]  12 B5 00 00 00 00 00 00
(001.856205)  vcan0  00000170   [8]  36 00 00 00 00 00 00 00
(001.856420)  vcan0  00000309   [8]  0A 7A 00 00 00 00 00 00
(001.862040)  vcan0  00000170   [8]  C6 00 00 00 00 00 00 00
(001.862272)  vcan0  0000017C   [8]  18 91 00 00 00 00 00 00
(001.862484)  vcan0  0000014A   [8]  00 00 00 4D 51 6E 35 F2
(001.862692)  vcan0  00000309   [8]  0A 74 00 00 00 00 00 00
(001.868264)  vcan0  0000017C   [8]  16 25 00 00 00 00 00 00
(001.868479)  vcan0  00000309   [8]  0A 76 00 00 00 00 00 00
(001.868689)  vcan0  0000014A   [8]  00 00 00 4F 8B 91 EB A4
(001.868898)  vcan0  00000170   [8]  FC 00 00 00 00 00 00 00
(001.874106)  vcan0  00000309   [8]  0A 70 00 00 00 00 00 00
(001.874320)  vcan0  00000170   [8]  A6 00 00 00 00 00 00 00
(001.874533)  vcan0  0000014A   [8]  00 00 00 51 63 4B 06 B8
(001.874753)  vcan0  0000017C   [8]  1C 4B 00 00 00 00 00 00
(001.879896)  vcan0  00000309   [8]  0A 72 00 00 00 00 00 00
(001.880110)  vcan0  00000170   [8]  FF 00 00 00 00 00 00 00
(001.880331)  vcan0  0000017C   [8]  1A 0B 00 00 00 00 00 00
(001.880541)  vcan0  0000014A   [8]  01 FF FF DA 2D B6 53 E8
(001.885776)  vcan0  00000170   [8]  08 00 00 00 00 00 00 00
(001.885999)  vcan0  00000309   [8]  0A 6C 00 00 00 00 00 00
(001.886212)  vcan0  0000014A   [8]  00 00 00 0F 2C FB 2F BE
(001.886432)  vcan0  0000017C   [8]  20 68 00 00 00 00 00 00
(001.892053)  vcan0  0000017C   [8]  1E C4 00 00 00 00 00 00
(001.892266)  vcan0  00000170   [8]  EA 00 00 00 00 00 00 00
(001.892478)  vcan0  00000309   [8]  0A 6E 00 00 00 00 00 00
(001.892688)  vcan0  0000014A   [8]  00 00 00 11 B1 20 E8 64
(001.898201)  vcan0  00000309   [8]  0A 68 00 00 00 00 00 00
(001.898431)  vcan0  0000017C   [8]  25 0B 00 00 00 00 00 00
(001.898643)  vcan0  0000014A   [8]  00 00 00 14 25 35 AC FE
(001.898852)  vcan0  00000170   [8]  27 00 00 00 00 00 00 00
(001.904348)  vcan0  00000309   [8]  0A 69 00 00 00 00 00 00
(001.904562)  vcan0  0000014A   [8]  00 00 00 17 41 ED E6 D4
(001.904782)  vcan0  0000017C   [8]  23 8B 00 00 00 00 00 00
(001.904991)  vcan0  00000170   [8]  3B 00 00 00 00 00 00 00
(001.910517)  vcan0  0000017C   [8]  29 A0 00 00 00 00 00 00
(001.910728)  vcan0  00000170   [8]  CE 00 00 00 00 00 00 00
(001.910940)  vcan0  00000309   [8]  0A 63 00 00 00 00 00 00
(001.911151)  vcan0  0000014A   [8]  00 00 00 19 F1 66 82 BA
(001.916538)  vcan0  0000014A   [8]  00 00 00 1D 28 E0 08 34
(001.916749)  vcan0  00000170   [8]  3F 00 00 00 00 00 00 00
(001.916962)  vcan0  00000309   [8]  0A 65 00 00 00 00 00 00
(001.917181)  vcan0  0000017C   [8]  27 8F 00 00 00 00 00 00
(001.922009)  vcan0  0000014A   [8]  00 00 00 1F FA DF 79 70
(001.922225)  vcan0  00000309   [8]  0A 5F 00 00 00 00 00 00
(001.922446)  vcan0  0000017C   [8]  2D 67 00 00 00 00 00 00
(001.922654)  vcan0  00000170   [8]  28 00 00 00 00 00 00 00
(001.927939)  vcan0  0000014A   [8]  00 00 00 23 3A 25 84 BC
(001.928151)  vcan0  00000170   [8]  65 00 00 00 00 00 00 00
(001.928364)  vcan0  00000309   [8]  0A 62 00 00 00 00 00 00
(001.928584)  vcan0  0000017C   [8]  2A C3 00 00 00 00 00 00
(001.934080)  vcan0  00000309   [8]  0A 5D 00 00 00 00 00 00
(001.934292)  vcan0  00000170   [8]  02 00 00 00 00 00 00 00
(001.934514)  vcan0  0000017C   [8]  30 39 00 00 00 00 00 00
(001.934725)  vcan0  0000014A   [8]  00 00 00 26 0B F4 A6 00
(001.940104)  vcan0  0000014A   [8]  00 00 00 29 5B 29 E2 AE
(001.940329)  vcan0  0000017C   [8]  2D 08 00 00 00 00 00 00
(001.940540)  vcan0  00000309   [8]  0A 60 00 00 00 00 00 00
(001.940748)  vcan0  00000170   [8]  19 00 00 00 00 00 00 00
(001.945993)  vcan0  00000170   [8]  96 00 00 00 00 00 00 00
(001.946219)  vcan0  0000014A   [8]  00 00 00 2C 35 F2 78 C8
(001.946442)  vcan0  0000017C   [8]  32 09 00 00 00 00 00 00
(001.946653)  vcan0  00000309   [8]  0A 5B 00 00 00 00 00 00
(001.951927)  vcan0  0000017C   [8]  2E 4D 00 00 00 00 00 00
(001.952141)  vcan0  00000170   [8]  91 00 00 00 00 00 00 00
(001.952353)  vcan0  0000014A   [8]  00 00 00 2F 6B 66 D1 70
(001.952563)  vcan0  00000309   [8]  0A 5F 00 00 00 00 00 00
(001.957843)  vcan0  0000017C   [8]  32 D1 00 00 00 00 00 00
(001.958056)  vcan0  00000309   [8]  0A 5A 00 00 00 00 00 00
(001.958265)  vcan0  00000170   [8]  76 00 00 00 00 00 00 00
(001.958474)  vcan0  0000014A   [8]  00 00 00 32 30 87 1F EE
(001.964391)  vcan0  00000309   [8]  0A 5F 00 00 00 00 00 00
(001.964605)  vcan0  00000170   [8]  0D 00 00 00 00 00 00 00
(001.964828)  vcan0  0000017C   [8]  2E 92 00 00 00 00 00 00
(001.965039)  vcan0  0000014A   [8]  00 00 00 35 3C 9D C0 56
(001.970011)  vcan0  00000170   [8]  78 00 00 00 00 00 00 00
(001.970233)  vcan0  00000309   [8]  0A 5B 00 00 00 00 00 00
(001.970454)  vcan0  0000017C   [8]  32 9B 00 00 00 00 00 00
(001.970664)  vcan0  0000014A   [8]  00 00 00 37 E6 D7 37 F2
(001.975910)  vcan0  0000014A   [8]  00 00 00 3A C6 FE 60 F6
(001.976122)  vcan0  00000170   [8]  42 00 00 00 00 00 00 00
(001.976343)  vcan0  0000017C   [8]  2D E7 00 00 00 00 00 00
(001.976553)  vcan0  00000309   [8]  0A 5F 00 00 00 00 00 00
(001.982131)  vcan0  00000170   [8]  61 00 00 00 00 00 00 00
(001.982340)  vcan0  00000202   [8]  00 B3 00 00 00 00 00 00
(001.982557)  vcan0  00000309   [8]  0A 5C 00 00 00 00 00 00
(001.982768)  vcan0  0000014A   [8]  00 00 00 3D 52 F1 7E F6
(001.982986)  vcan0  0000017C   [8]  31 82 00 00 00 00 00 00
(001.988217)  vcan0  00000309   [8]  0A 61 00 00 00 00 00 00
(001.988443)  vcan0  0000017C   [8]  2C 6C 00 00 00 00 00 00
(001.988653)  vcan0  00000170   [8]  AB 00 00 00 00 00 00 00
(001.988866)  vcan0  0000014A   [8]  00 00 00 40 08 2B 0C C0
(001.994453)  vcan0  00000309   [8]  0A 5D 00 00 00 00 00 00
(001.994669)  vcan0  0000014A   [8]  00 00 00 42 62 4E E7 DE
(001.994889)  vcan0  0000017C   [8]  2F AD 00 00 00 00 00 00
(001.995097)  vcan0  00000170   [8]  32 00 00 00 00 00 00 00
(002.000812)  vcan0  0000014A   [8]  00 00 00 44 F0 13 AF 28
(002.001042)  vcan0  00000309   [8]  0A 63 00 00 00 00 00 00
(002.001260)  vcan0  00000170   [8]  A3 00 00 00 00 00 00 00
(002.001498)  vcan0  0000017C   [8]  2A 4C 00 00 00 00 00 00
(002.006701)  vcan0  0000018F   [8]  00 00 54 00 00 00 00 00
(002.006932)  vcan0  00000374   [8]  00 00 00 00 00 00 00 00
(002.007145)  vcan0  0000014A   [8]  00 00 00 47 24 B4 BB 36
(002.007358)  vcan0  0000037B   [8]  00 00 00 00 00 00 00 00
(002.007574)  vcan0  000001A4   [8]  00 67 00 00 00 00 00 00
(002.007784)  vcan0  000001A3   [8]  00 00 00 00 00 00 00 00
(002.007990)  vcan0  00000170   [8]  41 00 00 00 00 00 00 00
(002.008199)  vcan0  00000309   [8]  0A 60 00 00 00 00 00 00
(002.008415)  vcan0  00000326   [8]  00 00 00 00 00 00 00 00
(002.008631)  vcan0  0000017C   [8]  2D 4C 00 00 00 00 00 00
(002.012746)  vcan0  0000017C   [8]  27 BA 00 00 00 00 00 00
(002.012959)  vcan0  00000170   [8]  44 00 00 00 00 00 00 00
(002.013173)  vcan0  0000014A   [8]  00 00 00 49 83 00 EA 10
(002.013383)  vcan0  00000309   [8]  0A 65 00 00 00 00 00 00
(002.018125)  vcan0  0000017C   [8]  2A 94 00 00 00 00 00 00
(002.018342)  vcan0  00000170   [8]  59 00 00 00 00 00 00 00
(002.018559)  vcan0  0000014A   [8]  00 00 00 4B 8C AB 55 32
(002.018770)  vcan0  00000309   [8]  0A 63 00 00 00 00 00 00
(002.024525)  vcan0  0000017C   [8]  24 EE 00 00 00 00 00 00
(002.024738)  vcan0  00000170   [8]  EB 00 00 00 00 00 00 00
(002.024955)  vcan0  0000014A   [8]  00 00 00 4D B8 F5 9D 2A
(002.025165)  vcan0  00000309   [8]  0A 68 00 00 00 00 00 00
(002.030183)  vcan0  0000014A   [8]  00 00 00 4F 9F D8 01 AC
(002.030405)  vcan0  00000309   [8]  0A 65 00 00 00 00 00 00
(002.030635)  vcan0  00000170   [8]  83 00 00 00 00 00 00 00
(002.030867)  vcan0  0000017C   [8]  27 BC 00 00 00 00 00 00
(002.036684)  vcan0  0000014A   [8]  00 00 00 51 A0 3C B7 76
(002.036898)  vcan0  00000309   [8]  0A 6B 00 00 00 00 00 00
(002.037119)  vcan0  0000017C   [8]  22 1D 00 00 00 00 00 00
(002.037329)  vcan0  00000170   [8]  1F 00 00 00 00 00 00 00
(002.041988)  vcan0  00000309   [8]  0A 68 00 00 00 00 00 00
(002.042203)  vcan0  00000170   [8]  2D 00 00 00 00 00 00 00
(002.042419)  vcan0  0000014A   [8]  00 00 00 53 5C EF FC CA
(002.042640)  vcan0  0000017C   [8]  24 FA 00 00 00 00 00 00
(002.048022)  vcan0  00000170   [8]  9A 00 00 00 00 00 00 00
(002.048243)  vcan0  0000014A   [8]  00 00 00 55 33 CE F5 C4
(002.048454)  vcan0  00000309   [8]  0A 6D 00 00 00 00 00 00
(002.048671)  vcan0  0000017C   [8]  1F 79 00 00 00 00 00 00
(002.054405)  vcan0  0000017C   [8]  22 7B 00 00 00 00 00 00
(002.054620)  vcan0  00000309   [8]  0A 6A 00 00 00 00 00 00
(002.054829)  vcan0  00000170   [8]  2E 00 00 00 00 00 00 00
(002.055040)  vcan0  0000014A   [8]  00 00 00 56 C8 A1 C5 72
(002.060456)  vcan0  0000017C   [8]  1D 2D 00 00 00 00 00 00
(002.060669)  vcan0  00000309   [8]  0A 70 00 00 00 00 00 00
(002.060879)  vcan0  0000014A   [8]  00 00 00 58 7C 45 E7 42
(002.061088)  vcan0  00000170   [8]  8D 00 00 00 00 00 00 00
(002.067314)  vcan0  0000014A   [8]  00 00 00 59 ED AB D0 C4
(002.067528)  vcan0  00000309   [8]  0A 6C 00 00 00 00 00 00
(002.067746)  vcan0  0000017C   [8]  20 65 00 00 00 00 00 00
(002.067955)  vcan0  00000170   [8]  86 00 00 00 00 00 00 00
(002.072496)  vcan0  00000309   [8]  0A 71 00 00 00 00 00 00
(002.072709)  vcan0  00000170   [8]  02 00 00 00 00 00 00 00
(002.072922)  vcan0  0000014A   [8]  00 00 00 5B 75 60 0B 72
(002.073140)  vcan0  0000017C   [8]  1B 59 00 00 00 00 00 00
(002.078636)  vcan0  00000170   [8]  63 00 00 00 00 00 00 00
(002.078893)  vcan0  0000017C   [8]  1E D5 00 00 00 00 00 00
(002.079109)  vcan0  00000309   [8]  0A 6E 00 00 00 00 00 00
(002.079320)  vcan0  0000014A   [8]  01 FF FF E4 3F CC 38 26
(002.084105)  vcan0  00000170   [8]  07 00 00 00 00 00 00 00
(002.084341)  vcan0  0000017C   [8]  1A 3A 00 00 00 00 00 00
(002.084556)  vcan0  00000309   [8]  0A 73 00 00 00 00 00 00
(002.084768)  vcan0  0000014A   [8]  00 00 00 2A 62 81 FF 94
(002.090030)  vcan0  00000170   [8]  E3 00 00 00 00 00 00 00
(002.090269)  vcan0  0000017C   [8]  1E 0E 00 00 00 00 00 00
(002.090483)  vcan0  00000309   [8]  0A 6F 00 00 00 00 00 00
(002.090694)  vcan0  0000014A   [8]  00 00 00 2C 30 07 53 8E
(002.096221)  vcan0  0000014A   [8]  00 00 00 2E 78 D0 C6 0E
(002.096439)  vcan0  00000170   [8]  36 00 00 00 00 00 00 00
(002.096653)  vcan0  00000309   [8]  0A 73 00 00 00 00 00 00
(002.096875)  vcan0  0000017C   [8]  1A 18 00 00 00 00 00 00
(002.102684)  vcan0  0000014A   [8]  00 00 00 30 80 58 E9 CC
(002.102899)  vcan0  00000170   [8]  81 00 00 00 00 00 00 00
(002.103112)  vcan0  00000309   [8]  0A 6F 00 00 00 00 00 00
(002.103332)  vcan0  0000017C   [8]  1E 1B 00 00 00 00 00 00
(002.109129)  vcan0  0000017C   [8]  1A 3A 00 00 00 00 00 00
(002.109343)  vcan0  00000170   [8]  DE 00 00 00 00 00 00 00
(002.109555)  vcan0  00000309   [8]  0A 72 00 00 00 00 00 00
(002.109765)  vcan0  0000014A   [8]  00 00 00 32 E8 ED D4 2A
(002.115174)  vcan0  0000017C   [8]  1E 8D 00 00 00 00 00 00
(002.115392)  vcan0  00000309   [8]  0A 6E 00 00 00 00 00 00
(002.115602)  vcan0  00000170   [8]  9E 00 00 00 00 00 00 00
(002.115813)  vcan0  0000014A   [8]  00 00 00 34 FE DD B6 FA
(002.120272)  vcan0  00000170   [8]  6B 00 00 00 00 00 00 00
(002.120493)  vcan0  0000014A   [8]  00 00 00 37 7B 02 3C 40
(002.120705)  vcan0  00000309   [8]  0A 72 00 00 00 00 00 00
(002.120924)  vcan0  0000017C   [8]  1A C2 00 00 00 00 00 00
(002.126060)  vcan0  00000309   [8]  0A 6D 00 00 00 00 00 00
(002.126273)  vcan0  00000170   [8]  62 00 00 00 00 00 00 00
(002.126485)  vcan0  0000014A   [8]  00 00 00 39 95 FC 00 CA
(002.126705)  vcan0  0000017C   [8]  1F 4E 00 00 00 00 00 00
(002.131996)  vcan0  0000017C   [8]  1B 9D 00 00 00 00 00 00
(002.132211)  vcan0  00000170   [8]  60 00 00 00 00 00 00 00
(002.132426)  vcan0  00000309   [8]  0A 71 00 00 00 00 00 00
(002.132636)  vcan0  0000014A   [8]  00 00 00 3C 0B E3 98 B4
(002.137984)  vcan0  0000014A   [8]  00 00 00 3E 34 35 92 64
(002.138209)  vcan0  0000017C   [8]  20 55 00 00 00 00 00 00
(002.138423)  vcan0  00000309   [8]  0A 6C 00 00 00 00 00 00
(002.138632)  vcan0  00000170   [8]  3B 00 00 00 00 00 00 00
(002.143938)  vcan0  00000170   [8]  90 00 00 00 00 00 00 00
(002.144165)  vcan0  0000017C   [8]  1C BA 00 00 00 00 00 00
(002.144377)  vcan0  0000014A   [8]  00 00 00 40 A3 10 BA 4E
(002.144591)  vcan0  00000309   [8]  0A 70 00 00 00 00 00 00
(002.150152)  vcan0  0000014A   [8]  00 00 00 42 C3 83 D8 4E
(002.150380)  vcan0  0000017C   [8]  21 90 00 00 00 00 00 00
(002.150591)  vcan0  00000170   [8]  04 00 00 00 00 00 00 00
(002.150802)  vcan0  00000309   [8]  0A 6B 00 00 00 00 00 00
(002.156007)  vcan0  0000014A   [8]  00 00 00 45 13 8C A9 50
(002.156233)  vcan0  0000017C   [8]  1E 03 00 00 00 00 00 00
(002.156445)  vcan0  00000309   [8]  0A 6F 00 00 00 00 00 00
(002.156655)  vcan0  00000170   [8]  9D 00 00 00 00 00 00 00
(002.162122)  vcan0  00000309   [8]  0A 6A 00 00 00 00 00 00
(002.162337)  vcan0  0000014A   [8]  00 00 00 47 1B 73 AD F2
(002.162558)  vcan0  0000017C   [8]  22 E9 00 00 00 00 00 00
(002.162767)  vcan0  00000170   [8]  2A 00 00 00 00 00 00 00
(002.168106)  vcan0  00000309   [8]  0A 6D 00 00 00 00 00 00
(002.168318)  vcan0  00000170   [8]  2C 00 00 00 00 00 00 00
(002.168537)  vcan0  0000017C   [8]  1F 61 00 00 00 00 00 00
(002.168747)  vcan0  0000014A   [8]  00 00 00 49 4E 9A 60 74
(002.173907)  vcan0  0000014A   [8]  00 00 00 4B 38 7D B1 4E
(002.174130)  vcan0  0000017C   [8]  24 4C 00 00 00 00 00 00
(002.174340)  vcan0  00000309   [8]  0A 68 00 00 00 00 00 00
(002.174549)  vcan0  00000170   [8]  75 00 00 00 00 00 00 00
(002.180098)  vcan0  00000170   [8]  FE 00 00 00 00 00 00 00
(002.180325)  vcan0  0000017C   [8]  20 BE 00 00 00 00 00 00
(002.180536)  vcan0  00000309   [8]  0A 6C 00 00 00 00 00 00
(002.180746)  vcan0  0000014A   [8]  00 00 00 4D 50 C5 68 94
(002.187005)  vcan0  00000170   [8]  85 00 00 00 00 00 00 00
(002.187222)  vcan0  00000309   [8]  0A 67 00 00 00 00 00 00
(002.187440)  vcan0  0000017C   [8]  25 A2 00 00 00 00 00 00
(002.187650)  vcan0  0000014A   [8]  00 00 00 4F 1C 9C 4A 78
(002.192673)  vcan0  0000017C   [8]  22 05 00 00 00 00 00 00
(002.192888)  vcan0  00000170   [8]  0A 00 00 00 00 00 00 00
(002.193100)  vcan0  00000309   [8]  0A 6B 00 00 00 00 00 00
(002.193309)  vcan0  0000014A   [8]  00 00 00 51 0A 50 54 CE
(002.198355)  vcan0  0000017C   [8]  26 D8 00 00 00 00 00 00
(002.198574)  vcan0  00000309   [8]  0A 66 00 00 00 00 00 00
(002.198787)  vcan0  0000014A   [8]  00 00 00 52 B7 68 F4 B2
(002.198997)  vcan0  00000170   [8]  46 00 00 00 00 00 00 00
(002.204403)  vcan0  0000014A   [8]  00 00 00 54 85 B7 19 AE
(002.204631)  vcan0  0000017C   [8]  23 24 00 00 00 00 00 00
(002.204842)  vcan0  00000309   [8]  0A 6A 00 00 00 00 00 00
(002.205052)  vcan0  00000170   [8]  9E 00 00 00 00 00 00 00
(002.210080)  vcan0  00000309   [8]  0A 65 00 00 00 00 00 00
(002.210304)  vcan0  0000017C   [8]  27 DC 00 00 00 00 00 00
(002.210532)  vcan0  00000170   [8]  89 00 00 00 00 00 00 00
(002.210756)  vcan0  0000014A   [8]  00 00 00 56 0E CC 5B E6
(002.217040)  vcan0  00000309   [8]  0A 69 00 00 00 00 00 00
(002.217271)  vcan0  0000014A   [8]  00 00 00 57 B9 4B AB 82
(002.217508)  vcan0  0000017C   [8]  24 0A 00 00 00 00 00 00
(002.217726)  vcan0  00000170   [8]  E4 00 00 00 00 00 00 00
(002.223035)  vcan0  00000309   [8]  0A 64 00 00 00 00 00 00
(002.223261)  vcan0  0000017C   [8]  28 A2 00 00 00 00 00 00
(002.223473)  vcan0  0000014A   [8]  00 00 00 59 27 CD 09 00
(002.223682)  vcan0  00000170   [8]  D6 00 00 00 00 00 00 00
(002.228015)  vcan0  0000017C   [8]  24 AD 00 00 00 00 00 00
(002.228235)  vcan0  00000309   [8]  0A 68 00 00 00 00 00 00
(002.228446)  vcan0  00000202   [8]  00 1D 00 00 00 00 00 00
(002.228659)  vcan0  0000014A   [8]  00 00 00 5A B1 3B EF 02
(002.228866)  vcan0  00000170   [8]  4E 00 00 00 00 00 00 00
(002.234147)  vcan0  00000170   [8]  81 00 00 00 00 00 00 00
(002.234377)  vcan0  0000017C   [8]  29 23 00 00 00 00 00 00
(002.234589)  vcan0  00000309   [8]  0A 64 00 00 00 00 00 00
(002.234799)  vcan0  0000014A   [8]  00 00 00 5B FE 7A 19 A0
(002.240111)  vcan0  0000014A   [8]  00 00 00 5D 69 0D A3 0C
(002.240338)  vcan0  0000017C   [8]  25 0A 00 00 00 00 00 00
(002.240549)  vcan0  00000170   [8]  79 00 00 00 00 00 00 00
(002.240760)  vcan0  00000309   [8]  0A 68 00 00 00 00 00 00
(002.246076)  vcan0  00000309   [8]  0A 64 00 00 00 00 00 00
(002.246291)  vcan0  00000170   [8]  06 00 00 00 00 00 00 00
(002.246533)  vcan0  0000017C   [8]  29 5B 00 00 00 00 00 00
(002.246744)  vcan0  0000014A   [8]  00 00 00 5E A4 6A 0F D6
(002.252161)  vcan0  0000017C   [8]  25 1E 00 00 00 00 00 00
(002.252381)  vcan0  00000170   [8]  FE 00 00 00 00 00 00 00
(002.252593)  vcan0  00000309   [8]  0A 68 00 00 00 00 00 00
(002.252803)  vcan0  0000014A   [8]  00 00 00 5F E0 10 43 DA
(002.258283)  vcan0  0000017C   [8]  29 4C 00 00 00 00 00 00
(002.258500)  vcan0  00000309   [8]  0A 64 00 00 00 00 00 00
(002.258709)  vcan0  00000170   [8]  88 00 00 00 00 00 00 00
(002.258919)  vcan0  0000014A   [8]  00 00 00 60 FF 17 B9 74
(002.264269)  vcan0  00000170   [8]  D4 00 00 00 00 00 00 00
(002.264489)  vcan0  00000309   [8]  0A 68 00 00 00 00 00 00
(002.264701)  vcan0  0000014A   [8]  00 00 00 62 27 04 FE C0
(002.264919)  vcan0  0000017C   [8]  24 F0 00 00 00 00 00 00
(002.270556)  vcan0  00000170   [8]  79 00 00 00 00 00 00 00
(002.270775)  vcan0  0000014A   [8]  00 00 00 63 2B F2 F1 50
(002.270995)  vcan0  0000017C   [8]  28 FF 00 00 00 00 00 00
(002.271204)  vcan0  00000309   [8]  0A 64 00 00 00 00 00 00
(002.276591)  vcan0  0000014A   [8]  00 00 00 64 35 CD 60 86
(002.276802)  vcan0  00000170   [8]  74 00 00 00 00 00 00 00
(002.277013)  vcan0  00000309   [8]  0A 68 00 00 00 00 00 00
(002.277231)  vcan0  0000017C   [8]  24 86 00 00 00 00 00 00
(002.282527)  vcan0  00000309   [8]  0A 64 00 00 00 00 00 00
(002.282750)  vcan0  0000014A   [8]  01 FF FF EF BD 2E E4 C2
(002.282959)  vcan0  00000170   [8]  15 00 00 00 00 00 00 00
(002.283178)  vcan0  0000017C   [8]  28 7C 00 00 00 00 00 00
(002.288505)  vcan0  00000170   [8]  BA 00 00 00 00 00 00 00
(002.288746)  vcan0  0000014A   [8]  00 00 00 3F 5A 41 2C 94
(002.288960)  vcan0  00000309   [8]  0A 69 00 00 00 00 00 00
(002.289180)  vcan0  0000017C   [8]  24 14 00 00 00 00 00 00
(002.294615)  vcan0  0000014A   [8]  00 00 00 40 A9 D8 7A F0
(002.294843)  vcan0  0000017C   [8]  27 F7 00 00 00 00 00 00
(002.295056)  vcan0  00000309   [8]  0A 65 00 00 00 00 00 00
(002.295266)  vcan0  00000170   [8]  5B 00 00 00 00 00 00 00
(002.300610)  vcan0  0000017C   [8]  23 A2 00 00 00 00 00 00
(002.300852)  vcan0  0000014A   [8]  00 00 00 42 58 EF 4B 80
(002.301066)  vcan0  00000170   [8]  E8 00 00 00 00 00 00 00
(002.301277)  vcan0  00000309   [8]  0A 69 00 00 00 00 00 00
(002.306238)  vcan0  0000014A   [8]  00 00 00 43 C8 49 56 90
(002.306465)  vcan0  0000017C   [8]  27 71 00 00 00 00 00 00
(002.306679)  vcan0  00000170   [8]  96 00 00 00 00 00 00 00
(002.306892)  vcan0  00000309   [8]  0A 65 00 00 00 00 00 00
(002.312098)  vcan0  0000017C   [8]  22 F7 00 00 00 00 00 00
(002.312312)  vcan0  00000170   [8]  19 00 00 00 00 00 00 00
(002.312526)  vcan0  00000309   [8]  0A 6A 00 00 00 00 00 00
(002.312737)  vcan0  0000014A   [8]  00 00 00 45 8E 9D 8E D0
(002.318587)  vcan0  00000170   [8]  05 00 00 00 00 00 00 00
(002.318820)  vcan0  0000017C   [8]  26 C5 00 00 00 00 00 00
(002.319032)  vcan0  0000014A   [8]  00 00 00 47 19 18 5B 6A
(002.319242)  vcan0  00000309   [8]  0A 66 00 00 00 00 00 00
(002.324448)  vcan0  0000017C   [8]  22 35 00 00 00 00 00 00
(002.324662)  vcan0  00000309   [8]  0A 6B 00 00 00 00 00 00
(002.324873)  vcan0  0000014A   [8]  00 00 00 48 DF CB 74 8E
(002.325082)  vcan0  00000170   [8]  91 00 00 00 00 00 00 00
(002.330387)  vcan0  00000309   [8]  0A 67 00 00 00 00 00 00
(002.330633)  vcan0  0000017C   [8]  26 03 00 00 00 00 00 00
(002.330855)  vcan0  0000014A   [8]  00 00 00 4A 6F 64 82 4C
(002.331072)  vcan0  00000170   [8]  37 00 00 00 00 00 00 00
(002.336538)  vcan0  00000309   [8]  0A 6B 00 00 00 00 00 00
(002.336763)  vcan0  0000017C   [8]  21 6B 00 00 00 00 00 00
(002.336973)  vcan0  00000170   [8]  8A 00 00 00 00 00 00 00
(002.337184)  vcan0  0000014A   [8]  00 00 00 4C 31 89 20 2C
(002.342391)  vcan0  00000309   [8]  0A 68 00 00 00 00 00 00
(002.342617)  vcan0  00000170   [8]  89 00 00 00 00 00 00 00
(002.342856)  vcan0  0000017C   [8]  25 3E 00 00 00 00 00 00
(002.343079)  vcan0  0000014A   [8]  00 00 00 4D C8 B3 9F 10
(002.348219)  vcan0  0000014A   [8]  00 00 00 4F 91 97 42 62
(002.348436)  vcan0  00000309   [8]  0A 6C 00 00 00 00 00 00
(002.348648)  vcan0  00000170   [8]  27 00 00 00 00 00 00 00
(002.348868)  vcan0  0000017C   [8]  20 A9 00 00 00 00 00 00
(002.354025)  vcan0  0000017C   [8]  24 87 00 00 00 00 00 00
(002.354240)  vcan0  00000309   [8]  0A 68 00 00 00 00 00 00
(002.354482)  vcan0  0000014A   [8]  00 00 00 51 17 A1 43 50
(002.354692)  vcan0  00000170   [8]  20 00 00 00 00 00 00 00
(002.359986)  vcan0  00000170   [8]  D8 00 00 00 00 00 00 00
(002.360217)  vcan0  0000017C   [8]  1F FD 00 00 00 00 00 00
(002.360429)  vcan0  00000309   [8]  0A 6D 00 00 00 00 00 00
(002.360640)  vcan0  0000014A   [8]  00 00 00 52 D5 FE 52 A2
(002.366015)  vcan0  0000014A   [8]  00 00 00 54 45 39 A9 54
(002.366231)  vcan0  00000309   [8]  0A 69 00 00 00 00 00 00
(002.366442)  vcan0  00000170   [8]  DC 00 00 00 00 00 00 00
(002.366661)  vcan0  0000017C   [8]  23 EA 00 00 00 00 00 00
(002.372559)  vcan0  00000309   [8]  0A 6D 00 00 00 00 00 00
(002.372776)  vcan0  0000014A   [8]  00 00 00 55 E8 E5 B9 56
(002.372985)  vcan0  00000170   [8]  62 00 00 00 00 00 00 00
(002.373205)  vcan0  0000017C   [8]  1F 72 00 00 00 00 00 00
(002.378081)  vcan0  00000170   [8]  47 00 00 00 00 00 00 00
(002.378310)  vcan0  0000017C   [8]  23 73 00 00 00 00 00 00
(002.378522)  vcan0  00000309   [8]  0A 69 00 00 00 00 00 00
(002.378732)  vcan0  0000014A   [8]  00 00 00 57 43 33 A1 28
(002.384491)  vcan0  00000170   [8]  A1 00 00 00 00 00 00 00
(002.384712)  vcan0  0000014A   [8]  00 00 00 58 D4 13 F4 AE
(002.384924)  vcan0  00000309   [8]  0A 6E 00 00 00 00 00 00
(002.385141)  vcan0  0000017C   [8]  1F 0F 00 00 00 00 00 00
(002.390352)  vcan0  00000170   [8]  1C 00 00 00 00 00 00 00
(002.390572)  vcan0  00000309   [8]  0A 6A 00 00 00 00 00 00
(002.390792)  vcan0  0000017C   [8]  23 25 00 00 00 00 00 00
(002.391001)  vcan0  0000014A   [8]  00 00 00 5A 1A C2 8A 4A
(002.396359)  vcan0  0000014A   [8]  00 00 00 5B 88 BC 22 D0
(002.396576)  vcan0  00000309   [8]  0A 6E 00 00 00 00 00 00
(002.396786)  vcan0  00000170   [8]  2F 00 00 00 00 00 00 00
(002.397005)  vcan0  0000017C   [8]  1E D8 00 00 00 00 00 00
(002.402371)  vcan0  0000017C   [8]  23 05 00 00 00 00 00 00
(002.402585)  vcan0  00000170   [8]  B3 00 00 00 00 00 00 00
(002.402797)  vcan0  0000014A   [8]  00 00 00 5C BF F6 A3 02
(002.403007)  vcan0  00000309   [8]  0A 6A 00 00 00 00 00 00
(002.408535)  vcan0  00000309   [8]  0A 6E 00 00 00 00 00 00
(002.408760)  vcan0  0000017C   [8]  1E CD 00 00 00 00 00 00
(002.408971)  vcan0  00000170   [8]  72 00 00 00 00 00 00 00
(002.409181)  vcan0  0000014A   [8]  00 00 00 5E 14 53 B8 BC
(002.414916)  vcan0  0000017C   [8]  23 10 00 00 00 00 00 00
(002.415132)  vcan0  0000014A   [8]  00 00 00 5F 34 EA EC 10
(002.415343)  vcan0  00000309   [8]  0A 6A 00 00 00 00 00 00
(002.415554)  vcan0  00000170   [8]  54 00 00 00 00 00 00 00
(002.420191)  vcan0  00000309   [8]  0A 6E 00 00 00 00 00 00
(002.420406)  vcan0  00000170   [8]  9B 00 00 00 00 00 00 00
