(000.000000)  vcan0  1FFFFFFF   [8]  00 00 00 00 00 00 00 00
(000.002853)  vcan0  0000017C   [8]  4B 00 00 00 00 00 00 00
(000.003073)  vcan0  000001A3   [8]  00 00 00 00 00 00 00 00
(000.003289)  vcan0  00000326   [8]  00 00 00 00 00 00 00 00
(000.003503)  vcan0  00000374   [8]  00 00 00 00 00 00 00 00
(000.003713)  vcan0  00000202   [8]  00 B4 00 00 00 00 00 00
(000.003923)  vcan0  0000014A   [8]  00 00 00 51 7C E3 C0 F0
(000.004141)  vcan0  000001A4   [8]  00 67 00 00 00 00 00 00
(000.004352)  vcan0  0000037B   [8]  00 00 00 00 00 00 00 00
(000.004558)  vcan0  00000170   [8]  67 00 00 00 00 00 00 00
(000.004767)  vcan0  00000309   [8]  00 80 00 00 00 00 00 00
(000.004973)  vcan0  0000018F   [8]  00 00 15 00 00 00 00 00
(000.007890)  vcan0  0000017C   [8]  4B 00 00 00 00 00 00 00
(000.008135)  vcan0  00000309   [8]  00 9C 00 00 00 00 00 00
(000.008351)  vcan0  0000014A   [8]  00 00 00 51 64 21 3A FE
(000.008561)  vcan0  00000170   [8]  F0 00 00 00 00 00 00 00
(000.013810)  vcan0  0000017C   [8]  4B 00 00 00 00 00 00 00
(000.014029)  vcan0  0000014A   [8]  00 00 00 51 57 BF D2 C4
(000.014241)  vcan0  00000309   [8]  00 B8 00 00 00 00 00 00
(000.014452)  vcan0  00000170   [8]  88 00 00 00 00 00 00 00
(000.020412)  vcan0  00000309   [8]  00 D4 00 00 00 00 00 00
(000.020625)  vcan0  0000014A   [8]  00 00 00 51 4B 5E 6A 8A
(000.020842)  vcan0  0000017C   [8]  4B 00 00 00 00 00 00 00
(000.021050)  vcan0  00000170   [8]  94 00 00 00 00 00 00 00
(000.257999)  vcan0  0000014A   [8]  00 00 00 51 3E FD 02 50
(000.258219)  vcan0  00000170   [8]  87 00 00 00 00 00 00 00
(000.258434)  vcan0  00000309   [8]  00 F1 00 00 00 00 00 00
(000.258657)  vcan0  0000017C   [8]  4B 00 00 00 00 00 00 00
(000.260644)  vcan0  0000017C   [8]  4B 00 00 00 00 00 00 00
(000.260869)  vcan0  00000309   [8]  01 0D 00 00 00 00 00 00
(000.261081)  vcan0  0000014A   [8]  00 00 00 51 32 9B 9A 16
(000.261290)  vcan0  00000170   [8]  2C 00 00 00 00 00 00 00
(000.266383)  vcan0  0000014A   [8]  00 00 00 51 26 3A 31 DC
(000.266595)  vcan0  00000170   [8]  6E 00 00 00 00 00 00 00
(000.266816)  vcan0  0000017C   [8]  4B 00 00 00 00 00 00 00
(000.267026)  vcan0  00000309   [8]  01 29 00 00 00 00 00 00
(000.271850)  vcan0  0000014A   [8]  00 00 00 51 19 D8 C9 A2
(000.272068)  vcan0  00000309   [8]  01 45 00 00 00 00 00 00
(000.272277)  vcan0  00000170   [8]  46 00 00 00 00 00 00 00
(000.272497)  vcan0  0000017C   [8]  4B 00 00 00 00 00 00 00
(000.278208)  vcan0  0000017C   [8]  4B 00 00 00 00 00 00 00
(000.278447)  vcan0  00000170   [8]  F8 00 00 00 00 00 00 00
(000.278686)  vcan0  00000309   [8]  01 62 00 00 00 00 00 00
(000.278923)  vcan0  0000014A   [8]  00 00 00 51 0D 77 61 68
(000.284279)  vcan0  00000170   [8]  79 00 00 00 00 00 00 00
(000.284531)  vcan0  0000017C   [8]  4B 00 00 00 00 00 00 00
(000.284748)  vcan0  00000309   [8]  01 7E 00 00 00 00 00 00
(000.284961)  vcan0  0000014A   [8]  00 00 00 51 01 15 F9 2E
(000.289995)  vcan0  0000014A   [8]  00 00 00 51 01 15 F9 2E
(000.290220)  vcan0  0000017C   [8]  4B 00 00 00 00 00 00 00
(000.290429)  vcan0  00000170   [8]  32 00 00 00 00 00 00 00
(000.290639)  vcan0  00000309   [8]  01 9A 00 00 00 00 00 00
(000.295971)  vcan0  0000014A   [8]  00 00 00 51 01 15 F9 2E
(000.296197)  vcan0  0000017C   [8]  4B 00 00 00 00 00 00 00
(000.296406)  vcan0  00000170   [8]  C2 00 00 00 00 00 00 00
(000.296618)  vcan0  00000309   [8]  01 B6 00 00 00 00 00 00
(000.301886)  vcan0  00000170   [8]  70 00 00 00 00 00 00 00
(000.302110)  vcan0  00000309   [8]  01 D3 00 00 00 00 00 00
(000.302322)  vcan0  0000014A   [8]  00 00 00 51 01 15 F9 2E
(000.302542)  vcan0  0000017C   [8]  4B 00 00 00 00 00 00 00
(000.307878)  vcan0  00000309   [8]  01 EF 00 00 00 00 00 00
(000.308094)  vcan0  0000014A   [8]  00 00 00 51 01 15 F9 2E
(000.308303)  vcan0  00000170   [8]  29 00 00 00 00 00 00 00
(000.308522)  vcan0  0000017C   [8]  4B 00 00 00 00 00 00 00
(000.314038)  vcan0  0000014A   [8]  00 00 00 51 01 15 F9 2E
(000.314264)  vcan0  0000017C   [8]  4B 00 00 00 00 00 00 00
(000.314475)  vcan0  00000309   [8]  02 0B 00 00 00 00 00 00
(000.314685)  vcan0  00000170   [8]  E2 00 00 00 00 00 00 00
(000.319845)  vcan0  0000017C   [8]  4B 00 00 00 00 00 00 00
(000.320057)  vcan0  00000170   [8]  17 00 00 00 00 00 00 00
(000.320270)  vcan0  00000309   [8]  02 27 00 00 00 00 00 00
(000.320480)  vcan0  0000014A   [8]  00 00 00 51 01 15 F9 2E
(000.326293)  vcan0  00000309   [8]  02 43 00 00 00 00 00 00
(000.326510)  vcan0  0000014A   [8]  00 00 00 51 01 15 F9 2E
(000.326721)  vcan0  00000170   [8]  4F 00 00 00 00 00 00 00
(000.326970)  vcan0  0000017C   [8]  4B 00 00 00 00 00 00 00
(000.332304)  vcan0  0000014A   [8]  00 00 00 51 01 15 F9 2E
(000.332517)  vcan0  00000170   [8]  FE 00 00 00 00 00 00 00
(000.332740)  vcan0  0000017C   [8]  4B 00 00 00 00 00 00 00
(000.332951)  vcan0  00000309   [8]  02 60 00 00 00 00 00 00
(000.338359)  vcan0  0000017C   [8]  4B 00 00 00 00 00 00 00
(000.338574)  vcan0  0000014A   [8]  00 00 00 51 01 15 F9 2E
(000.338782)  vcan0  00000170   [8]  09 00 00 00 00 00 00 00
(000.338991)  vcan0  00000309   [8]  02 7C 00 00 00 00 00 00
(000.343875)  vcan0  00000309   [8]  02 98 00 00 00 00 00 00
(000.344098)  vcan0  0000017C   [8]  4B 00 00 00 00 00 00 00
(000.344307)  vcan0  00000170   [8]  3F 00 00 00 00 00 00 00
(000.344518)  vcan0  0000014A   [8]  00 00 00 51 01 15 F9 2E
(000.349863)  vcan0  0000017C   [8]  4B 00 00 00 00 00 00 00
(000.350080)  vcan0  00000309   [8]  02 B4 00 00 00 00 00 00
(000.350289)  vcan0  00000170   [8]  D7 00 00 00 00 00 00 00
(000.350499)  vcan0  0000014A   [8]  00 00 00 51 01 15 F9 2E
(000.355927)  vcan0  00000309   [8]  02 D1 00 00 00 00 00 00
(000.356140)  vcan0  00000170   [8]  AF 00 00 00 00 00 00 00
(000.356360)  vcan0  0000017C   [8]  4B 00 00 00 00 00 00 00
(000.356570)  vcan0  0000014A   [8]  00 00 00 51 01 15 F9 2E
(000.361912)  vcan0  0000014A   [8]  00 00 00 51 01 15 F9 2E
(000.362125)  vcan0  00000170   [8]  43 00 00 00 00 00 00 00
(000.362338)  vcan0  00000309   [8]  02 ED 00 00 00 00 00 00
(000.362558)  vcan0  0000017C   [8]  4B 00 00 00 00 00 00 00
(000.368107)  vcan0  00000309   [8]  03 09 00 00 00 00 00 00
(000.368353)  vcan0  0000017C   [8]  4B 00 00 00 00 00 00 00
(000.368577)  vcan0  0000014A   [8]  00 00 00 51 01 15 F9 2E
(000.368811)  vcan0  00000170   [8]  DC 00 00 00 00 00 00 00
(000.374141)  vcan0  00000170   [8]  3A 00 00 00 00 00 00 00
(000.374365)  vcan0  00000309   [8]  03 25 00 00 00 00 00 00
(000.374578)  vcan0  0000014A   [8]  00 00 00 51 01 15 F9 2E
(000.374798)  vcan0  0000017C   [8]  4B 00 00 00 00 00 00 00
(000.379919)  vcan0  00000170   [8]  86 00 00 00 00 00 00 00
(000.380149)  vcan0  0000017C   [8]  4B 00 00 00 00 00 00 00
(000.380363)  vcan0  00000309   [8]  03 41 00 00 00 00 00 00
(000.380573)  vcan0  0000014A   [8]  00 00 00 85 6F E6 57 48
(000.386002)  vcan0  00000309   [8]  03 5E 00 00 00 00 00 00
(000.386227)  vcan0  0000017C   [8]  4B 00 00 00 00 00 00 00
(000.386438)  vcan0  0000014A   [8]  00 00 00 62 39 96 3B 92
(000.386647)  vcan0  00000170   [8]  5A 00 00 00 00 00 00 00
(000.392223)  vcan0  0000017C   [8]  4B 00 00 00 00 00 00 00
(000.392437)  vcan0  0000014A   [8]  00 00 00 62 3F 39 7D DE
(000.392645)  vcan0  00000170   [8]  E8 00 00 00 00 00 00 00
(000.392855)  vcan0  00000309   [8]  03 7A 00 00 00 00 00 00
(000.398177)  vcan0  0000017C   [8]  4B 00 00 00 00 00 00 00
(000.398393)  vcan0  0000014A   [8]  00 00 00 62 44 DC 9A E8
(000.398603)  vcan0  00000309   [8]  03 96 00 00 00 00 00 00
(000.398811)  vcan0  00000170   [8]  BD 00 00 00 00 00 00 00
(000.403917)  vcan0  00000309   [8]  03 B2 00 00 00 00 00 00
(000.404134)  vcan0  0000014A   [8]  00 00 00 62 4A 7F DD 32
(000.404355)  vcan0  0000017C   [8]  4B 00 00 00 00 00 00 00
(000.404564)  vcan0  00000170   [8]  89 00 00 00 00 00 00 00
(000.410027)  vcan0  0000017C   [8]  4B 00 00 00 00 00 00 00
(000.410241)  vcan0  0000014A   [8]  00 00 00 62 50 22 FA 3C
(000.410451)  vcan0  00000170   [8]  9C 00 00 00 00 00 00 00
(000.410660)  vcan0  00000309   [8]  03 CF 00 00 00 00 00 00
(000.416336)  vcan0  0000014A   [8]  00 00 00 62 55 C6 3C 86
(000.416548)  vcan0  00000170   [8]  79 00 00 00 00 00 00 00
(000.416761)  vcan0  00000309   [8]  03 EB 00 00 00 00 00 00
(000.416980)  vcan0  0000017C   [8]  4B 00 00 00 00 00 00 00
(000.421991)  vcan0  00000170   [8]  C8 00 00 00 00 00 00 00
(000.422212)  vcan0  00000309   [8]  04 07 00 00 00 00 00 00
(000.422423)  vcan0  0000014A   [8]  00 00 00 62 5B 69 59 90
(000.422641)  vcan0  0000017C   [8]  4B 00 00 00 00 00 00 00
(000.427961)  vcan0  0000014A   [8]  00 00 00 62 61 0C 9B DC
(000.428177)  vcan0  00000309   [8]  04 23 00 00 00 00 00 00
(000.428397)  vcan0  0000017C   [8]  4B 00 00 00 00 00 00 00
(000.428606)  vcan0  00000170   [8]  35 00 00 00 00 00 00 00
(000.434063)  vcan0  0000017C   [8]  4B 00 00 00 00 00 00 00
(000.434279)  vcan0  0000014A   [8]  00 00 00 62 66 AF B8 E6
(000.434488)  vcan0  00000170   [8]  0F 00 00 00 00 00 00 00
(000.434700)  vcan0  00000309   [8]  04 3F 00 00 00 00 00 00
(000.439902)  vcan0  00000170   [8]  50 00 00 00 00 00 00 00
(000.440134)  vcan0  0000017C   [8]  4B 00 00 00 00 00 00 00
(000.440347)  vcan0  00000309   [8]  04 5C 00 00 00 00 00 00
(000.440559)  vcan0  0000014A   [8]  00 00 00 62 66 AF B8 E6
(000.445953)  vcan0  0000017C   [8]  4B 00 00 00 00 00 00 00
(000.446166)  vcan0  00000170   [8]  D7 00 00 00 00 00 00 00
(000.446378)  vcan0  0000014A   [8]  00 00 00 62 66 AF B8 E6
(000.446588)  vcan0  00000309   [8]  04 78 00 00 00 00 00 00
(000.452072)  vcan0  0000014A   [8]  00 00 00 62 66 AF B8 E6
(000.452317)  vcan0  0000017C   [8]  4B 00 00 00 00 00 00 00
(000.452542)  vcan0  00000170   [8]  D9 00 00 00 00 00 00 00
(000.452762)  vcan0  00000309   [8]  03 FC 00 00 00 00 00 00
(000.458287)  vcan0  0000017C   [8]  4B 00 00 00 00 00 00 00
(000.458525)  vcan0  0000014A   [8]  00 00 00 62 66 AF B8 E6
(000.458737)  vcan0  00000170   [8]  13 00 00 00 00 00 00 00
(000.458950)  vcan0  00000309   [8]  03 79 00 00 00 00 00 00
(000.463939)  vcan0  0000017C   [8]  4B 00 00 00 00 00 00 00
(000.464157)  vcan0  0000014A   [8]  00 00 00 62 66 AF B8 E6
(000.464369)  vcan0  00000309   [8]  03 04 00 00 00 00 00 00
(000.464577)  vcan0  00000170   [8]  44 00 00 00 00 00 00 00
(000.470192)  vcan0  00000170   [8]  36 00 00 00 00 00 00 00
(000.470446)  vcan0  0000017C   [8]  4B 00 00 00 00 00 00 00
(000.470672)  vcan0  0000014A   [8]  00 00 00 62 66 AF B8 E6
(000.470895)  vcan0  00000309   [8]  02 9C 00 00 00 00 00 00
(000.476109)  vcan0  0000014A   [8]  00 00 00 62 66 AF DE 26
(000.476331)  vcan0  00000202   [8]  00 94 00 00 00 00 00 00
(000.476545)  vcan0  00000170   [8]  51 00 00 00 00 00 00 00
(000.476770)  vcan0  00000309   [8]  02 3E 00 00 00 00 00 00
(000.477006)  vcan0  0000017C   [8]  4B 00 00 00 00 00 00 00
(000.482339)  vcan0  0000014A   [8]  00 00 00 62 66 AF DE 26
(000.482556)  vcan0  00000309   [8]  01 EA 00 00 00 00 00 00
(000.482765)  vcan0  00000170   [8]  A2 00 00 00 00 00 00 00
(000.482985)  vcan0  0000017C   [8]  4B 00 00 00 00 00 00 00
(000.488182)  vcan0  00000309   [8]  01 A0 00 00 00 00 00 00
(000.488392)  vcan0  00000170   [8]  1A 00 00 00 00 00 00 00
(000.488604)  vcan0  0000014A   [8]  00 00 00 62 66 AF DE 26
(000.488822)  vcan0  0000017C   [8]  4B 00 00 00 00 00 00 00
(000.494419)  vcan0  00000309   [8]  01 5E 00 00 00 00 00 00
(000.494632)  vcan0  00000170   [8]  D2 00 00 00 00 00 00 00
(000.494844)  vcan0  0000014A   [8]  00 00 00 62 66 AF DE 26
(000.495064)  vcan0  0000017C   [8]  4B 00 00 00 00 00 00 00
(000.500277)  vcan0  0000017C   [8]  4B 00 00 00 00 00 00 00
(000.500492)  vcan0  0000014A   [8]  00 00 00 62 66 AF DE 26
(000.500702)  vcan0  00000309   [8]  01 23 00 00 00 00 00 00
(000.500911)  vcan0  00000170   [8]  CF 00 00 00 00 00 00 00
(000.506044)  vcan0  00000309   [8]  00 EE 00 00 00 00 00 00
(000.506268)  vcan0  0000017C   [8]  4B 00 00 00 00 00 00 00
(000.506476)  vcan0  00000170   [8]  0E 00 00 00 00 00 00 00
(000.506687)  vcan0  0000014A   [8]  00 00 00 62 66 AF DE 26
(000.512184)  vcan0  0000017C   [8]  4B 00 00 00 00 00 00 00
(000.512398)  vcan0  00000309   [8]  00 C0 00 00 00 00 00 00
(000.512606)  vcan0  00000170   [8]  F9 00 00 00 00 00 00 00
(000.512816)  vcan0  0000014A   [8]  00 00 00 62 66 AF DE 26
(000.518044)  vcan0  0000017C   [8]  4B 00 00 00 00 00 00 00
(000.518261)  vcan0  0000014A   [8]  00 00 00 62 66 AF DE 26
(000.518469)  vcan0  00000170   [8]  B4 00 00 00 00 00 00 00
(000.518680)  vcan0  00000309   [8]  00 97 00 00 00 00 00 00
(000.524184)  vcan0  00000309   [8]  00 73 00 00 00 00 00 00
(000.524395)  vcan0  00000170   [8]  7E 00 00 00 00 00 00 00
(000.524607)  vcan0  0000014A   [8]  00 00 00 62 66 AF DE 26
(000.524826)  vcan0  0000017C   [8]  4B 00 00 00 00 00 00 00
(000.530559)  vcan0  00000309   [8]  00 54 00 00 00 00 00 00
(000.530774)  vcan0  0000014A   [8]  00 00 00 62 66 AF DE 26
(000.530992)  vcan0  0000017C   [8]  4B 00 00 00 00 00 00 00
(000.531201)  vcan0  00000170   [8]  D6 00 00 00 00 00 00 00
(000.537057)  vcan0  00000170   [8]  73 00 00 00 00 00 00 00
(000.537274)  vcan0  0000014A   [8]  00 00 00 62 66 AF DE 26
(000.537484)  vcan0  00000309   [8]  00 38 00 00 00 00 00 00
(000.537700)  vcan0  0000017C   [8]  4B 00 00 00 00 00 00 00
(000.542332)  vcan0  00000309   [8]  00 20 00 00 00 00 00 00
(000.542542)  vcan0  00000170   [8]  4F 00 00 00 00 00 00 00
(000.542753)  vcan0  0000014A   [8]  00 00 00 62 66 AF DE 26
(000.542970)  vcan0  0000017C   [8]  4B 00 00 00 00 00 00 00
(000.547922)  vcan0  00000170   [8]  44 00 00 00 00 00 00 00
(000.548145)  vcan0  0000014A   [8]  00 00 00 62 66 AF DE 26
(000.548365)  vcan0  0000017C   [8]  4B 00 00 00 00 00 00 00
(000.548574)  vcan0  00000309   [8]  00 0B 00 00 00 00 00 00
(000.553904)  vcan0  00000170   [8]  84 00 00 00 00 00 00 00
(000.554130)  vcan0  0000017C   [8]  4B 00 00 00 00 00 00 00
(000.554341)  vcan0  00000309   [8]  00 07 00 00 00 00 00 00
(000.554550)  vcan0  0000014A   [8]  00 00 00 62 66 AF DE 26
(000.559915)  vcan0  0000017C   [8]  4B 00 00 00 00 00 00 00
(000.560132)  vcan0  00000309   [8]  00 16 00 00 00 00 00 00
(000.560342)  vcan0  00000170   [8]  E9 00 00 00 00 00 00 00
(000.561230)  vcan0  0000014A   [8]  00 00 00 62 66 AF DE 26
(000.566226)  vcan0  0000017C   [8]  4B 00 00 00 00 00 00 00
(000.566440)  vcan0  00000309   [8]  00 24 00 00 00 00 00 00
(000.566652)  vcan0  00000170   [8]  A2 00 00 00 00 00 00 00
(000.566862)  vcan0  0000014A   [8]  00 00 00 62 66 AF DE 26
(000.571923)  vcan0  00000309   [8]  00 2F 00 00 00 00 00 00
(000.572152)  vcan0  0000017C   [8]  4B 00 00 00 00 00 00 00
(000.572363)  vcan0  0000014A   [8]  00 00 00 62 66 AF DE 26
(000.572571)  vcan0  00000170   [8]  AE 00 00 00 00 00 00 00
(000.577880)  vcan0  00000309   [8]  00 38 00 00 00 00 00 00
(000.578102)  vcan0  0000017C   [8]  4B 00 00 00 00 00 00 00
(000.578313)  vcan0  0000014A   [8]  00 00 00 62 66 AF DE 26
(000.578520)  vcan0  00000170   [8]  70 00 00 00 00 00 00 00
(000.583877)  vcan0  0000017C   [8]  4B 00 00 00 00 00 00 00
(000.584091)  vcan0  00000309   [8]  00 40 00 00 00 00 00 00
(000.584299)  vcan0  00000170   [8]  73 00 00 00 00 00 00 00
(000.584509)  vcan0  0000014A   [8]  00 00 00 62 66 AF DE 26
(000.589891)  vcan0  00000170   [8]  CE 00 00 00 00 00 00 00
(000.590120)  vcan0  0000017C   [8]  4B 00 00 00 00 00 00 00
(000.590331)  vcan0  00000309   [8]  00 47 00 00 00 00 00 00
(000.590540)  vcan0  0000014A   [8]  00 00 00 62 66 AF DE 26
(000.595817)  vcan0  0000014A   [8]  00 00 00 62 66 AF DE 26
(000.596027)  vcan0  00000170   [8]  0B 00 00 00 00 00 00 00
(000.596239)  vcan0  00000309   [8]  00 4C 00 00 00 00 00 00
(000.596457)  vcan0  0000017C   [8]  4B 00 00 00 00 00 00 00
(000.601838)  vcan0  0000017C   [8]  4B 00 00 00 00 00 00 00
(000.602051)  vcan0  00000309   [8]  00 50 00 00 00 00 00 00
(000.602261)  vcan0  0000014A   [8]  00 00 00 62 66 AF DE 26
(000.602468)  vcan0  00000170   [8]  30 00 00 00 00 00 00 00
(000.607880)  vcan0  00000309   [8]  00 53 00 00 00 00 00 00
(000.608102)  vcan0  0000017C   [8]  4B 00 00 00 00 00 00 00
(000.608309)  vcan0  00000170   [8]  57 00 00 00 00 00 00 00
(000.608519)  vcan0  0000014A   [8]  00 00 00 62 66 AF DE 26
(000.614246)  vcan0  0000017C   [8]  4B 00 00 00 00 00 00 00
(000.614463)  vcan0  0000014A   [8]  00 00 00 62 66 AF DE 26
(000.614674)  vcan0  00000309   [8]  00 55 00 00 00 00 00 00
(000.614883)  vcan0  00000170   [8]  68 00 00 00 00 00 00 00
(000.620015)  vcan0  0000014A   [8]  00 00 00 62 66 B3 F1 3C
(000.620235)  vcan0  00000309   [8]  00 56 00 00 00 00 00 00
(000.620456)  vcan0  0000017C   [8]  4B 00 00 00 00 00 00 00
(000.620665)  vcan0  00000170   [8]  04 00 00 00 00 00 00 00
(000.626148)  vcan0  00000309   [8]  00 76 00 00 00 00 00 00
(000.626363)  vcan0  0000014A   [8]  00 00 00 62 85 CF 2F D8
(000.626588)  vcan0  00000170   [8]  1C 00 00 00 00 00 00 00
(000.626820)  vcan0  0000017C   [8]  4B 00 00 00 00 00 00 00
(000.632019)  vcan0  0000014A   [8]  00 00 00 62 8F 95 88 C2
(000.632237)  vcan0  00000309   [8]  00 88 00 00 00 00 00 00
(000.632447)  vcan0  00000170   [8]  88 00 00 00 00 00 00 00
(000.632668)  vcan0  0000017C   [8]  4B 00 00 00 00 00 00 00
(000.638091)  vcan0  0000017C   [8]  4B 00 00 00 00 00 00 00
(000.638306)  vcan0  00000309   [8]  00 C7 00 00 00 00 00 00
(000.638519)  vcan0  00000170   [8]  DA 00 00 00 00 00 00 00
(000.638733)  vcan0  0000014A   [8]  00 00 00 62 B1 7A FC 9E
(000.644432)  vcan0  00000170   [8]  1B 00 00 00 00 00 00 00
(000.644673)  vcan0  00000309   [8]  01 01 00 00 00 00 00 00
(000.644921)  vcan0  0000017C   [8]  4B 00 00 00 00 00 00 00
(000.645141)  vcan0  0000014A   [8]  00 00 00 62 D7 5F BA E4
(000.650183)  vcan0  0000017C   [8]  4B 00 00 00 00 00 00 00
(000.650399)  vcan0  00000170   [8]  39 00 00 00 00 00 00 00
(000.650615)  vcan0  00000309   [8]  01 22 00 00 00 00 00 00
(000.650828)  vcan0  0000014A   [8]  00 00 00 62 F2 EA 47 4A
(000.655939)  vcan0  00000309   [8]  01 54 00 00 00 00 00 00
(000.656152)  vcan0  00000170   [8]  DC 00 00 00 00 00 00 00
(000.656376)  vcan0  0000017C   [8]  4B 00 00 00 00 00 00 00
(000.656588)  vcan0  0000014A   [8]  00 00 00 63 1D CB 5E C6
(000.662092)  vcan0  0000014A   [8]  00 00 00 63 4B E1 55 E2
(000.662307)  vcan0  00000309   [8]  01 85 00 00 00 00 00 00
(000.662526)  vcan0  0000017C   [8]  4B 00 00 00 00 00 00 00
(000.662735)  vcan0  00000170   [8]  26 00 00 00 00 00 00 00
(000.667941)  vcan0  0000017C   [8]  4B 00 00 00 00 00 00 00
(000.668158)  vcan0  0000014A   [8]  00 00 00 63 7D 1E 34 58
(000.668370)  vcan0  00000309   [8]  01 A3 00 00 00 00 00 00
(000.668579)  vcan0  00000170   [8]  7D 00 00 00 00 00 00 00
(000.673871)  vcan0  0000014A   [8]  00 00 00 63 A9 D6 EC 7C
(000.674091)  vcan0  00000309   [8]  01 D5 00 00 00 00 00 00
(000.674315)  vcan0  0000017C   [8]  4B 00 00 00 00 00 00 00
(000.674527)  vcan0  00000170   [8]  59 00 00 00 00 00 00 00
(000.680249)  vcan0  00000170   [8]  6A 00 00 00 00 00 00 00
(000.680481)  vcan0  0000017C   [8]  4B 00 00 00 00 00 00 00
(000.680694)  vcan0  0000014A   [8]  00 00 00 63 DA 27 E7 FC
(000.680904)  vcan0  00000309   [8]  01 FC 00 00 00 00 00 00
(000.685855)  vcan0  00000170   [8]  9B 00 00 00 00 00 00 00
(000.686077)  vcan0  0000014A   [8]  00 00 00 64 13 46 B0 72
(000.686289)  vcan0  00000309   [8]  02 22 00 00 00 00 00 00
(000.686509)  vcan0  0000017C   [8]  4B 00 00 00 00 00 00 00
(000.691957)  vcan0  0000014A   [8]  00 00 00 64 45 FB 49 E6
(000.692182)  vcan0  00000170   [8]  97 00 00 00 00 00 00 00
(000.692424)  vcan0  0000017C   [8]  4B 00 00 00 00 00 00 00
(000.692667)  vcan0  00000309   [8]  02 45 00 00 00 00 00 00
(000.698106)  vcan0  00000170   [8]  DA 00 00 00 00 00 00 00
(000.698339)  vcan0  0000017C   [8]  4B 00 00 00 00 00 00 00
(000.698553)  vcan0  00000309   [8]  02 67 00 00 00 00 00 00
(000.698765)  vcan0  0000014A   [8]  00 00 00 64 84 48 EA 54
(000.703975)  vcan0  00000170   [8]  EE 00 00 00 00 00 00 00
(000.704198)  vcan0  0000014A   [8]  00 00 00 64 B9 E9 D8 D6
(000.704419)  vcan0  0000017C   [8]  4B 00 00 00 00 00 00 00
(000.704630)  vcan0  00000309   [8]  02 86 00 00 00 00 00 00
(000.709905)  vcan0  0000017C   [8]  4B 00 00 00 00 00 00 00
(000.710122)  vcan0  0000014A   [8]  00 00 00 64 FB 7D 84 BC
(000.710335)  vcan0  00000309   [8]  02 A5 00 00 00 00 00 00
(000.710543)  vcan0  00000170   [8]  00 00 00 00 00 00 00 00
(000.715994)  vcan0  0000014A   [8]  00 00 00 65 31 28 A2 F2
(000.716226)  vcan0  00000309   [8]  02 C0 00 00 00 00 00 00
(000.716445)  vcan0  00000170   [8]  41 00 00 00 00 00 00 00
(000.716684)  vcan0  0000017C   [8]  4B 00 00 00 00 00 00 00
(000.722010)  vcan0  0000014A   [8]  00 00 00 65 76 F9 BC 40
(000.722224)  vcan0  00000170   [8]  E5 00 00 00 00 00 00 00
(000.722447)  vcan0  0000017C   [8]  4B 00 00 00 00 00 00 00
(000.722658)  vcan0  00000309   [8]  02 DC 00 00 00 00 00 00
(000.722865)  vcan0  00000202   [8]  00 7F 00 00 00 00 00 00
(000.727944)  vcan0  0000017C   [8]  4B 00 00 00 00 00 00 00
(000.728160)  vcan0  0000014A   [8]  00 00 00 65 B1 79 E9 62
(000.728375)  vcan0  000001A3   [8]  00 00 00 00 00 00 00 00
(000.728586)  vcan0  00000309   [8]  02 F5 00 00 00 00 00 00
(000.728794)  vcan0  00000170   [8]  7E 00 00 00 00 00 00 00
(000.729000)  vcan0  0000018F   [8]  00 00 F5 00 00 00 00 00
(000.734176)  vcan0  00000309   [8]  03 0F 00 00 00 00 00 00
(000.734392)  vcan0  0000014A   [8]  00 00 00 65 F6 61 AB A8
(000.734602)  vcan0  00000170   [8]  A8 00 00 00 00 00 00 00
(000.734823)  vcan0  0000017C   [8]  4B 00 00 00 00 00 00 00
(000.739886)  vcan0  0000014A   [8]  00 00 00 66 32 31 8F 3E
(000.740099)  vcan0  00000170   [8]  45 00 00 00 00 00 00 00
(000.740313)  vcan0  00000309   [8]  03 26 00 00 00 00 00 00
(000.740534)  vcan0  0000017C   [8]  4B 00 00 00 00 00 00 00
(000.745938)  vcan0  00000309   [8]  03 3E 00 00 00 00 00 00
(000.746157)  vcan0  0000014A   [8]  00 00 00 66 72 19 7A 3C
(000.746368)  vcan0  00000170   [8]  13 00 00 00 00 00 00 00
(000.746590)  vcan0  0000017C   [8]  4B 00 00 00 00 00 00 00
(000.752031)  vcan0  00000309   [8]  03 53 00 00 00 00 00 00
(000.752243)  vcan0  00000170   [8]  1A 00 00 00 00 00 00 00
(000.752455)  vcan0  0000014A   [8]  00 00 00 66 B3 BD 02 B4
(000.752675)  vcan0  0000017C   [8]  4B 00 00 00 00 00 00 00
(000.757920)  vcan0  0000014A   [8]  00 00 00 66 F7 EF F6 3E
(000.758145)  vcan0  0000017C   [8]  4B 00 00 00 00 00 00 00
(000.758358)  vcan0  00000309   [8]  03 69 00 00 00 00 00 00
(000.758567)  vcan0  00000170   [8]  DB 00 00 00 00 00 00 00
(000.764293)  vcan0  0000014A   [8]  00 00 00 67 37 79 82 BA
(000.764505)  vcan0  00000170   [8]  F5 00 00 00 00 00 00 00
(000.764727)  vcan0  0000017C   [8]  4B 00 00 00 00 00 00 00
(000.764938)  vcan0  00000309   [8]  03 7D 00 00 00 00 00 00
(000.770010)  vcan0  0000017C   [8]  4B 00 00 00 00 00 00 00
(000.770224)  vcan0  0000014A   [8]  00 00 00 67 7B 24 79 6E
(000.770434)  vcan0  00000309   [8]  03 92 00 00 00 00 00 00
(000.770642)  vcan0  00000170   [8]  B8 00 00 00 00 00 00 00
(000.776166)  vcan0  0000017C   [8]  4B 00 00 00 00 00 00 00
(000.776382)  vcan0  0000014A   [8]  00 00 00 67 BE C2 7C A0
(000.776590)  vcan0  00000170   [8]  F2 00 00 00 00 00 00 00
(000.776800)  vcan0  00000309   [8]  03 A4 00 00 00 00 00 00
(000.782274)  vcan0  0000014A   [8]  00 00 00 68 01 13 0A CC
(000.782497)  vcan0  0000017C   [8]  4B 00 00 00 00 00 00 00
(000.782711)  vcan0  00000309   [8]  03 B8 00 00 00 00 00 00
(000.782921)  vcan0  00000170   [8]  94 00 00 00 00 00 00 00
(000.787913)  vcan0  00000170   [8]  F2 00 00 00 00 00 00 00
(000.788140)  vcan0  0000017C   [8]  4B 00 00 00 00 00 00 00
(000.788350)  vcan0  00000309   [8]  03 CA 00 00 00 00 00 00
(000.788560)  vcan0  0000014A   [8]  00 00 00 68 43 75 7F 12
(000.819851)  vcan0  0000017C   [8]  4B 00 00 00 00 00 00 00
(000.820069)  vcan0  0000014A   [8]  00 00 00 68 86 07 2B EA
(000.820280)  vcan0  00000170   [8]  E1 00 00 00 00 00 00 00
(000.820491)  vcan0  00000309   [8]  03 DC 00 00 00 00 00 00
(000.821978)  vcan0  00000170   [8]  3C 00 00 00 00 00 00 00
(000.822195)  vcan0  0000014A   [8]  00 00 00 68 C8 B1 38 9E
(000.822413)  vcan0  0000017C   [8]  4B 00 00 00 00 00 00 00
(000.822623)  vcan0  00000309   [8]  03 EE 00 00 00 00 00 00
(000.827712)  vcan0  0000017C   [8]  4B 00 00 00 00 00 00 00
(000.827934)  vcan0  0000014A   [8]  00 00 00 69 09 0D D8 70
(000.828145)  vcan0  00000309   [8]  03 FF 00 00 00 00 00 00
(000.828355)  vcan0  00000170   [8]  43 00 00 00 00 00 00 00
(000.833762)  vcan0  0000014A   [8]  00 00 00 69 4C D1 09 BE
(000.833985)  vcan0  0000017C   [8]  4B 00 00 00 00 00 00 00
(000.834195)  vcan0  00000309   [8]  04 10 00 00 00 00 00 00
(000.834404)  vcan0  00000170   [8]  32 00 00 00 00 00 00 00
(000.839918)  vcan0  0000017C   [8]  4B 00 00 00 00 00 00 00
(000.840133)  vcan0  0000014A   [8]  00 00 00 69 8C AE 42 A6
(000.840344)  vcan0  00000309   [8]  04 21 00 00 00 00 00 00
(000.840552)  vcan0  00000170   [8]  04 00 00 00 00 00 00 00
(000.845804)  vcan0  00000170   [8]  31 00 00 00 00 00 00 00
(000.846042)  vcan0  00000309   [8]  04 31 00 00 00 00 00 00
(000.846266)  vcan0  0000014A   [8]  00 00 00 69 CE 45 B7 20
(000.846500)  vcan0  0000017C   [8]  4B 00 00 00 00 00 00 00
(000.852041)  vcan0  00000170   [8]  99 00 00 00 00 00 00 00
(000.852267)  vcan0  00000309   [8]  04 41 00 00 00 00 00 00
(000.852479)  vcan0  0000014A   [8]  00 00 00 6A 0E 22 92 E6
(000.852698)  vcan0  0000017C   [8]  4B 00 00 00 00 00 00 00
(000.857840)  vcan0  00000309   [8]  04 51 00 00 00 00 00 00
(000.858052)  vcan0  00000170   [8]  CF 00 00 00 00 00 00 00
(000.858267)  vcan0  0000014A   [8]  00 00 00 6A 53 1F 11 B6
(000.858486)  vcan0  0000017C   [8]  4B 00 00 00 00 00 00 00
(000.864595)  vcan0  00000170   [8]  16 00 00 00 00 00 00 00
(000.864845)  vcan0  0000014A   [8]  00 00 00 6A 90 30 FD F8
(000.865099)  vcan0  0000017C   [8]  4B 00 00 00 00 00 00 00
(000.865317)  vcan0  00000309   [8]  04 60 00 00 00 00 00 00
(000.869892)  vcan0  0000017C   [8]  4B 00 00 00 00 00 00 00
(000.870105)  vcan0  00000170   [8]  7E 00 00 00 00 00 00 00
(000.870318)  vcan0  00000309   [8]  04 70 00 00 00 00 00 00
(000.870528)  vcan0  0000014A   [8]  00 00 00 6A D0 5A AF 46
(000.875909)  vcan0  0000017C   [8]  4B 00 00 00 00 00 00 00
(000.876125)  vcan0  00000309   [8]  04 7F 00 00 00 00 00 00
(000.876337)  vcan0  0000014A   [8]  00 00 00 6B 11 12 9F 4A
(000.876546)  vcan0  00000170   [8]  95 00 00 00 00 00 00 00
(000.881857)  vcan0  0000017C   [8]  4B 00 00 00 00 00 00 00
(000.882074)  vcan0  00000309   [8]  04 8E 00 00 00 00 00 00
(000.882286)  vcan0  0000014A   [8]  00 00 00 6B 4E 86 68 20
(000.882495)  vcan0  00000170   [8]  0F 00 00 00 00 00 00 00
(000.888458)  vcan0  00000170   [8]  17 00 00 00 00 00 00 00
(000.888692)  vcan0  0000017C   [8]  4B 00 00 00 00 00 00 00
(000.888904)  vcan0  0000014A   [8]  00 00 00 6B 8C 74 5A C6
(000.889113)  vcan0  00000309   [8]  04 9D 00 00 00 00 00 00
(000.893751)  vcan0  00000170   [8]  EB 00 00 00 00 00 00 00
(000.893976)  vcan0  0000017C   [8]  4B 00 00 00 00 00 00 00
(000.894190)  vcan0  0000014A   [8]  00 00 00 6B CA 35 68 E6
(000.894399)  vcan0  00000309   [8]  04 AC 00 00 00 00 00 00
(000.899903)  vcan0  00000170   [8]  8B 00 00 00 00 00 00 00
(000.900131)  vcan0  00000309   [8]  04 BA 00 00 00 00 00 00
(000.900344)  vcan0  0000014A   [8]  00 00 00 6C 06 F8 88 B6
(000.900563)  vcan0  0000017C   [8]  4B 00 00 00 00 00 00 00
(000.906251)  vcan0  0000014A   [8]  00 00 00 6C 45 3E 4D 7C
(000.906468)  vcan0  00000309   [8]  04 C9 00 00 00 00 00 00
(000.906678)  vcan0  00000170   [8]  D8 00 00 00 00 00 00 00
(000.906901)  vcan0  0000017C   [8]  4B 00 00 00 00 00 00 00
(000.912065)  vcan0  0000017C   [8]  4B 00 00 00 00 00 00 00
(000.912278)  vcan0  00000309   [8]  04 D7 00 00 00 00 00 00
(000.912488)  vcan0  00000170   [8]  D3 00 00 00 00 00 00 00
(000.912700)  vcan0  0000014A   [8]  00 00 00 6C 80 EE AF D0
(000.918142)  vcan0  00000170   [8]  F2 00 00 00 00 00 00 00
(000.918381)  vcan0  0000017C   [8]  4B 00 00 00 00 00 00 00
(000.918594)  vcan0  00000309   [8]  04 E6 00 00 00 00 00 00
(000.918804)  vcan0  0000014A   [8]  00 00 00 6C BA DA DE C0
(000.923915)  vcan0  0000014A   [8]  00 00 00 6C F7 91 8D 70
(000.924141)  vcan0  00000309   [8]  04 F4 00 00 00 00 00 00
(000.924353)  vcan0  00000170   [8]  CE 00 00 00 00 00 00 00
(000.924574)  vcan0  0000017C   [8]  4B 00 00 00 00 00 00 00
(000.929820)  vcan0  00000170   [8]  6C 00 00 00 00 00 00 00
(000.930044)  vcan0  00000309   [8]  05 02 00 00 00 00 00 00
(000.930257)  vcan0  0000014A   [8]  00 00 00 6D 2F AC 70 38
(000.930477)  vcan0  0000017C   [8]  4B 00 00 00 00 00 00 00
(000.935841)  vcan0  00000309   [8]  05 10 00 00 00 00 00 00
(000.936065)  vcan0  0000017C   [8]  4B 00 00 00 00 00 00 00
(000.936276)  vcan0  00000170   [8]  01 00 00 00 00 00 00 00
(000.936488)  vcan0  0000014A   [8]  00 00 00 6D 67 38 EF 06
(000.941886)  vcan0  0000014A   [8]  00 00 00 6D A2 3E D7 96
(000.942113)  vcan0  0000017C   [8]  4B 00 00 00 00 00 00 00
(000.942324)  vcan0  00000170   [8]  56 00 00 00 00 00 00 00
(000.942535)  vcan0  00000309   [8]  05 1E 00 00 00 00 00 00
(000.948427)  vcan0  00000309   [8]  05 2C 00 00 00 00 00 00
(000.948659)  vcan0  00000170   [8]  C9 00 00 00 00 00 00 00
(000.948903)  vcan0  0000017C   [8]  4B 00 00 00 00 00 00 00
(000.949140)  vcan0  0000014A   [8]  00 00 00 6D D9 A1 CA B0
(000.954402)  vcan0  0000014A   [8]  00 00 00 6E 0F 7C B6 7A
(000.954652)  vcan0  0000017C   [8]  4B 00 00 00 00 00 00 00
(000.954873)  vcan0  00000170   [8]  58 00 00 00 00 00 00 00
(000.955100)  vcan0  00000309   [8]  05 3A 00 00 00 00 00 00
(000.959971)  vcan0  00000170   [8]  72 00 00 00 00 00 00 00
(000.960207)  vcan0  0000017C   [8]  4B 00 00 00 00 00 00 00
(000.960420)  vcan0  0000014A   [8]  00 00 00 6E 47 91 57 62
(000.960634)  vcan0  00000309   [8]  05 48 00 00 00 00 00 00
(000.965742)  vcan0  0000014A   [8]  00 00 00 6E 7D 14 EA 1C
(000.965965)  vcan0  0000017C   [8]  4B 00 00 00 00 00 00 00
(000.966177)  vcan0  00000309   [8]  05 55 00 00 00 00 00 00
(000.966386)  vcan0  00000170   [8]  F0 00 00 00 00 00 00 00
(000.971813)  vcan0  0000014A   [8]  00 00 00 6E B2 62 AE 96
(000.972026)  vcan0  00000170   [8]  62 00 00 00 00 00 00 00
(000.972239)  vcan0  00000309   [8]  05 63 00 00 00 00 00 00
(000.972458)  vcan0  0000017C   [8]  4B 00 00 00 00 00 00 00
(000.977680)  vcan0  0000014A   [8]  00 00 00 6E E5 C1 6D FE
(000.977903)  vcan0  0000017C   [8]  4B 00 00 00 00 00 00 00
(000.978112)  vcan0  00000170   [8]  34 00 00 00 00 00 00 00
(000.978322)  vcan0  00000309   [8]  05 71 00 00 00 00 00 00
(000.983988)  vcan0  00000309   [8]  05 7E 00 00 00 00 00 00
(000.984200)  vcan0  00000170   [8]  6A 00 00 00 00 00 00 00
(000.984422)  vcan0  0000017C   [8]  4B 00 00 00 00 00 00 00
(000.984638)  vcan0  0000014A   [8]  00 00 00 6F 16 13 D4 B6
(000.989855)  vcan0  0000014A   [8]  00 00 00 6F 4B 2A 72 54
(000.990071)  vcan0  00000309   [8]  05 8C 00 00 00 00 00 00
(000.990281)  vcan0  00000202   [8]  00 67 00 00 00 00 00 00
(000.990501)  vcan0  0000017C   [8]  4B 00 00 00 00 00 00 00
(000.990708)  vcan0  00000170   [8]  BA 00 00 00 00 00 00 00
(000.995694)  vcan0  0000017C   [8]  4B 00 00 00 00 00 00 00
(000.995908)  vcan0  00000309   [8]  05 99 00 00 00 00 00 00
(000.996119)  vcan0  00000170   [8]  FF 00 00 00 00 00 00 00
(000.996331)  vcan0  0000014A   [8]  00 00 00 6F 7C 58 DF 70
(001.002090)  vcan0  0000017C   [8]  4B 00 00 00 00 00 00 00
(001.002302)  vcan0  00000170   [8]  40 00 00 00 00 00 00 00
(001.002513)  vcan0  00000309   [8]  05 A7 00 00 00 00 00 00
(001.002723)  vcan0  0000014A   [8]  00 00 00 6F AE 09 9C 84
(001.008064)  vcan0  00000309   [8]  05 B4 00 00 00 00 00 00
(001.008289)  vcan0  00000170   [8]  78 00 00 00 00 00 00 00
(001.008530)  vcan0  0000017C   [8]  4B 00 00 00 00 00 00 00
(001.008753)  vcan0  0000014A   [8]  00 00 00 6F DD EB F6 80
(001.014417)  vcan0  0000017C   [8]  4B 00 00 00 00 00 00 00
(001.014634)  vcan0  00000309   [8]  05 C1 00 00 00 00 00 00
(001.014843)  vcan0  00000170   [8]  6D 00 00 00 00 00 00 00
(001.015055)  vcan0  0000014A   [8]  00 00 00 70 0B 84 AC 2C
(001.020225)  vcan0  0000014A   [8]  00 00 00 70 3C D1 83 22
(001.020451)  vcan0  0000017C   [8]  4B 00 00 00 00 00 00 00
(001.020662)  vcan0  00000309   [8]  05 CF 00 00 00 00 00 00
(001.020870)  vcan0  00000170   [8]  1F 00 00 00 00 00 00 00
(001.026008)  vcan0  0000014A   [8]  00 00 00 70 6B 55 74 20
(001.026235)  vcan0  00000309   [8]  05 DC 00 00 00 00 00 00
(001.026470)  vcan0  0000017C   [8]  4B 00 00 00 00 00 00 00
(001.026686)  vcan0  00000170   [8]  8F 00 00 00 00 00 00 00
(001.032022)  vcan0  0000014A   [8]  00 00 00 70 93 F8 12 76
(001.032242)  vcan0  00000170   [8]  57 00 00 00 00 00 00 00
(001.032478)  vcan0  0000017C   [8]  4B 00 00 00 00 00 00 00
(001.032699)  vcan0  00000309   [8]  05 E9 00 00 00 00 00 00
(001.037741)  vcan0  00000170   [8]  26 00 00 00 00 00 00 00
(001.037966)  vcan0  00000309   [8]  05 F6 00 00 00 00 00 00
(001.038188)  vcan0  0000017C   [8]  4B 00 00 00 00 00 00 00
(001.038398)  vcan0  0000014A   [8]  00 00 00 70 C1 93 A7 E2
(001.043999)  vcan0  0000014A   [8]  00 00 00 70 F0 1A 8B 3E
(001.044211)  vcan0  00000170   [8]  D5 00 00 00 00 00 00 00
(001.044433)  vcan0  0000017C   [8]  4B 00 00 00 00 00 00 00
(001.044644)  vcan0  00000309   [8]  06 04 00 00 00 00 00 00
(001.049957)  vcan0  00000309   [8]  06 11 00 00 00 00 00 00
(001.050175)  vcan0  0000014A   [8]  00 00 00 71 16 24 9C E2
(001.050385)  vcan0  00000170   [8]  5E 00 00 00 00 00 00 00
(001.050607)  vcan0  0000017C   [8]  4B 00 00 00 00 00 00 00
(001.055828)  vcan0  00000170   [8]  59 00 00 00 00 00 00 00
(001.056056)  vcan0  00000309   [8]  06 1E 00 00 00 00 00 00
(001.056279)  vcan0  0000017C   [8]  4B 00 00 00 00 00 00 00
(001.056491)  vcan0  0000014A   [8]  00 00 00 71 44 47 E4 A2
(001.061866)  vcan0  00000170   [8]  6E 00 00 00 00 00 00 00
(001.062087)  vcan0  00000309   [8]  06 2B 00 00 00 00 00 00
(001.062301)  vcan0  0000014A   [8]  00 00 00 71 69 EC 19 3E
(001.062522)  vcan0  0000017C   [8]  4B 00 00 00 00 00 00 00
(001.067703)  vcan0  0000014A   [8]  00 00 00 71 97 18 49 90
(001.067928)  vcan0  00000170   [8]  2A 00 00 00 00 00 00 00
(001.068166)  vcan0  0000017C   [8]  4B 00 00 00 00 00 00 00
(001.068388)  vcan0  00000309   [8]  06 38 00 00 00 00 00 00
(001.073892)  vcan0  0000017C   [8]  4B 00 00 00 00 00 00 00
(001.074109)  vcan0  00000309   [8]  06 45 00 00 00 00 00 00
(001.074321)  vcan0  0000014A   [8]  00 00 00 71 B7 AC 19 60
(001.074530)  vcan0  00000170   [8]  64 00 00 00 00 00 00 00
(001.080216)  vcan0  00000309   [8]  06 52 00 00 00 00 00 00
(001.080430)  vcan0  0000014A   [8]  00 00 00 71 E3 18 0D 70
(001.080640)  vcan0  00000170   [8]  E2 00 00 00 00 00 00 00
(001.080861)  vcan0  0000017C   [8]  4B 00 00 00 00 00 00 00
(001.085771)  vcan0  00000170   [8]  00 00 00 00 00 00 00 00
(001.085998)  vcan0  00000309   [8]  06 5F 00 00 00 00 00 00
(001.086211)  vcan0  0000014A   [8]  00 00 00 72 06 F9 8C 7E
(001.086432)  vcan0  0000017C   [8]  4B 00 00 00 00 00 00 00
(001.091744)  vcan0  0000014A   [8]  00 00 00 72 2D 88 26 38
(001.091969)  vcan0  0000017C   [8]  4B 00 00 00 00 00 00 00
(001.092182)  vcan0  00000170   [8]  C0 00 00 00 00 00 00 00
(001.092395)  vcan0  00000309   [8]  06 6C 00 00 00 00 00 00
(001.097894)  vcan0  00000170   [8]  20 00 00 00 00 00 00 00
(001.098146)  vcan0  0000017C   [8]  4B 00 00 00 00 00 00 00
(001.098371)  vcan0  0000014A   [8]  00 00 00 72 4E D8 EA EC
(001.098593)  vcan0  00000309   [8]  06 79 00 00 00 00 00 00
(001.103712)  vcan0  0000014A   [8]  00 00 00 72 74 2E 2D D4
(001.103930)  vcan0  00000309   [8]  06 86 00 00 00 00 00 00
(001.104151)  vcan0  0000017C   [8]  4B 00 00 00 00 00 00 00
(001.104360)  vcan0  00000170   [8]  C8 00 00 00 00 00 00 00
(001.109797)  vcan0  00000309   [8]  06 93 00 00 00 00 00 00
(001.110013)  vcan0  0000014A   [8]  00 00 00 72 99 31 7A 0A
(001.110234)  vcan0  0000017C   [8]  4B 00 00 00 00 00 00 00
(001.110444)  vcan0  00000170   [8]  21 00 00 00 00 00 00 00
(001.115788)  vcan0  0000014A   [8]  00 00 00 72 B9 ED 08 8E
(001.116001)  vcan0  00000170   [8]  E6 00 00 00 00 00 00 00
(001.116216)  vcan0  00000309   [8]  06 A0 00 00 00 00 00 00
(001.116436)  vcan0  0000017C   [8]  4B 00 00 00 00 00 00 00
(001.121862)  vcan0  00000170   [8]  56 00 00 00 00 00 00 00
(001.122093)  vcan0  0000017C   [8]  4B 00 00 00 00 00 00 00
(001.122309)  vcan0  0000014A   [8]  00 00 00 72 DE FB F4 56
(001.122519)  vcan0  00000309   [8]  06 AD 00 00 00 00 00 00
(001.128052)  vcan0  00000309   [8]  06 BA 00 00 00 00 00 00
(001.128265)  vcan0  00000170   [8]  7A 00 00 00 00 00 00 00
(001.128489)  vcan0  0000017C   [8]  4B 00 00 00 00 00 00 00
(001.128704)  vcan0  0000014A   [8]  00 00 00 72 FB 56 4D E4
(001.133767)  vcan0  00000309   [8]  06 C7 00 00 00 00 00 00
(001.133983)  vcan0  0000014A   [8]  00 00 00 73 1A 0D B9 02
(001.134194)  vcan0  00000170   [8]  4F 00 00 00 00 00 00 00
(001.134415)  vcan0  0000017C   [8]  4B 00 00 00 00 00 00 00
(001.139819)  vcan0  00000170   [8]  D4 00 00 00 00 00 00 00
(001.140039)  vcan0  00000309   [8]  06 D4 00 00 00 00 00 00
(001.140259)  vcan0  0000017C   [8]  4B 00 00 00 00 00 00 00
(001.140471)  vcan0  0000014A   [8]  00 00 00 73 39 8F F5 5C
(001.145877)  vcan0  00000309   [8]  06 E1 00 00 00 00 00 00
(001.146095)  vcan0  0000014A   [8]  00 00 00 73 5A 61 29 3C
(001.146397)  vcan0  00000170   [8]  71 00 00 00 00 00 00 00
(001.146618)  vcan0  0000017C   [8]  4B 00 00 00 00 00 00 00
(001.151980)  vcan0  0000017C   [8]  4B 00 00 00 00 00 00 00
(001.152192)  vcan0  00000170   [8]  6C 00 00 00 00 00 00 00
(001.152405)  vcan0  0000014A   [8]  00 00 00 84 64 5A EA 10
(001.152616)  vcan0  00000309   [8]  06 ED 00 00 00 00 00 00
(001.157782)  vcan0  00000309   [8]  06 FA 00 00 00 00 00 00
(001.157997)  vcan0  0000014A   [8]  00 00 00 78 D4 F4 CF 94
(001.158217)  vcan0  0000017C   [8]  4B 00 00 00 00 00 00 00
(001.158426)  vcan0  00000170   [8]  0C 00 00 00 00 00 00 00
(001.163739)  vcan0  0000017C   [8]  4B 00 00 00 00 00 00 00
(001.163957)  vcan0  00000309   [8]  07 07 00 00 00 00 00 00
(001.164165)  vcan0  00000170   [8]  FE 00 00 00 00 00 00 00
(001.164376)  vcan0  0000014A   [8]  00 00 00 78 D0 2D 69 C4
(001.169682)  vcan0  00000170   [8]  85 00 00 00 00 00 00 00
(001.169906)  vcan0  00000309   [8]  07 14 00 00 00 00 00 00
(001.170129)  vcan0  0000017C   [8]  4B 00 00 00 00 00 00 00
(001.170339)  vcan0  0000014A   [8]  00 00 00 78 C9 44 23 00
(001.175806)  vcan0  00000309   [8]  07 21 00 00 00 00 00 00
(001.176036)  vcan0  0000017C   [8]  4B 00 00 00 00 00 00 00
(001.176248)  vcan0  00000170   [8]  2F 00 00 00 00 00 00 00
(001.176461)  vcan0  0000014A   [8]  00 00 00 78 C1 7A 78 44
(001.181858)  vcan0  0000014A   [8]  00 00 00 78 BA 6B 7A 02
(001.182077)  vcan0  00000309   [8]  07 2D 00 00 00 00 00 00
(001.182288)  vcan0  00000170   [8]  3D 00 00 00 00 00 00 00
(001.182592)  vcan0  0000017C   [8]  4B 00 00 00 00 00 00 00
(001.187737)  vcan0  0000014A   [8]  00 00 00 78 B3 B1 3D 40
(001.187961)  vcan0  0000017C   [8]  4B 00 00 00 00 00 00 00
(001.188171)  vcan0  00000170   [8]  55 00 00 00 00 00 00 00
(001.188381)  vcan0  00000309   [8]  07 3A 00 00 00 00 00 00
(001.193847)  vcan0  00000309   [8]  07 47 00 00 00 00 00 00
(001.194063)  vcan0  0000014A   [8]  00 00 00 78 AA D3 CD EE
(001.194286)  vcan0  0000017C   [8]  4B 00 00 00 00 00 00 00
(001.194496)  vcan0  00000170   [8]  DB 00 00 00 00 00 00 00
(001.199742)  vcan0  0000014A   [8]  00 00 00 78 A4 CB 82 7A
(001.199967)  vcan0  0000017C   [8]  4B 00 00 00 00 00 00 00
(001.200181)  vcan0  00000309   [8]  07 53 00 00 00 00 00 00
(001.200391)  vcan0  00000170   [8]  68 00 00 00 00 00 00 00
(001.205806)  vcan0  00000170   [8]  A7 00 00 00 00 00 00 00
(001.206026)  vcan0  0000014A   [8]  00 00 00 78 97 02 D0 D6
(001.206247)  vcan0  0000017C   [8]  4B 00 00 00 00 00 00 00
(001.206457)  vcan0  00000309   [8]  07 60 00 00 00 00 00 00
(001.211975)  vcan0  00000309   [8]  07 6C 00 00 00 00 00 00
(001.212194)  vcan0  0000014A   [8]  00 00 00 78 94 8A F8 BC
(001.212405)  vcan0  00000170   [8]  CD 00 00 00 00 00 00 00
(001.212646)  vcan0  0000017C   [8]  4B 00 00 00 00 00 00 00
(001.217637)  vcan0  0000014A   [8]  00 00 00 78 7E 91 89 A6
(001.217850)  vcan0  00000170   [8]  70 00 00 00 00 00 00 00
(001.218072)  vcan0  0000017C   [8]  4B 00 00 00 00 00 00 00
(001.218283)  vcan0  00000309   [8]  07 79 00 00 00 00 00 00
(001.223986)  vcan0  0000014A   [8]  00 00 00 78 81 F6 FC C2
(001.224199)  vcan0  00000170   [8]  D5 00 00 00 00 00 00 00
(001.224423)  vcan0  0000017C   [8]  4B 00 00 00 00 00 00 00
(001.224635)  vcan0  00000309   [8]  07 7E 00 00 00 00 00 00
(001.229722)  vcan0  0000014A   [8]  00 00 00 78 6F 0A 33 34
(001.229936)  vcan0  00000170   [8]  73 00 00 00 00 00 00 00
(001.230148)  vcan0  00000309   [8]  07 87 00 00 00 00 00 00
(001.230367)  vcan0  0000017C   [8]  4B 00 00 00 00 00 00 00
(001.235833)  vcan0  0000017C   [8]  4B 00 00 00 00 00 00 00
(001.236046)  vcan0  00000170   [8]  3A 00 00 00 00 00 00 00
(001.236259)  vcan0  00000309   [8]  07 80 00 00 00 00 00 00
(001.236469)  vcan0  0000014A   [8]  00 00 00 78 63 57 04 04
(001.236675)  vcan0  00000202   [8]  00 F9 00 00 00 00 00 00
(001.242089)  vcan0  00000170   [8]  53 00 00 00 00 00 00 00
(001.242323)  vcan0  0000017C   [8]  4B 00 00 00 00 00 00 00
(001.242535)  vcan0  00000309   [8]  07 88 00 00 00 00 00 00
(001.242745)  vcan0  0000014A   [8]  00 00 00 78 5E D2 09 D4
(001.248161)  vcan0  0000017C   [8]  4B 00 00 00 00 00 00 00
(001.248374)  vcan0  00000170   [8]  2F 00 00 00 00 00 00 00
(001.248587)  vcan0  00000309   [8]  07 89 00 00 00 00 00 00
(001.248802)  vcan0  0000037B   [8]  00 00 00 00 00 00 00 00
(001.249013)  vcan0  0000014A   [8]  00 00 00 78 54 5B 95 E8
(001.249226)  vcan0  000001A3   [8]  00 00 00 00 00 00 00 00
(001.249441)  vcan0  00000326   [8]  00 00 00 00 00 00 00 00
(001.249655)  vcan0  00000374   [8]  00 00 00 00 00 00 00 00
(001.249869)  vcan0  000001A4   [8]  00 67 00 00 00 00 00 00
(001.250076)  vcan0  0000018F   [8]  00 00 8F 00 00 00 00 00
(001.254389)  vcan0  00000309   [8]  07 94 00 00 00 00 00 00
(001.254635)  vcan0  0000017C   [8]  4B 00 00 00 00 00 00 00
(001.254859)  vcan0  0000014A   [8]  00 00 00 78 4C 01 72 04
(001.255076)  vcan0  00000170   [8]  14 00 00 00 00 00 00 00
(001.260497)  vcan0  00000309   [8]  07 93 00 00 00 00 00 00
(001.260725)  vcan0  0000014A   [8]  00 00 00 78 43 29 F1 EC
(001.260962)  vcan0  0000017C   [8]  4B 00 00 00 00 00 00 00
(001.261190)  vcan0  00000170   [8]  31 00 00 00 00 00 00 00
(001.265970)  vcan0  00000170   [8]  5E 00 00 00 00 00 00 00
(001.266200)  vcan0  0000014A   [8]  00 00 00 78 39 3E F1 EC
(001.266423)  vcan0  00000309   [8]  07 9E 00 00 00 00 00 00
(001.266655)  vcan0  0000017C   [8]  4B 00 00 00 00 00 00 00
(001.272259)  vcan0  00000309   [8]  07 9F 00 00 00 00 00 00
(001.272476)  vcan0  0000014A   [8]  00 00 00 78 35 E4 28 C0
(001.272696)  vcan0  0000017C   [8]  4B 00 00 00 00 00 00 00
(001.272905)  vcan0  00000170   [8]  C2 00 00 00 00 00 00 00
(001.278023)  vcan0  0000014A   [8]  00 00 00 78 24 4A 19 7A
(001.278248)  vcan0  0000017C   [8]  4B 00 00 00 00 00 00 00
(001.278458)  vcan0  00000170   [8]  99 00 00 00 00 00 00 00
(001.278669)  vcan0  00000309   [8]  07 AC 00 00 00 00 00 00
(001.284030)  vcan0  0000017C   [8]  4B 00 00 00 00 00 00 00
(001.284247)  vcan0  0000014A   [8]  00 00 00 78 20 A3 83 0A
(001.284456)  vcan0  00000170   [8]  91 00 00 00 00 00 00 00
(001.284667)  vcan0  00000309   [8]  07 AD 00 00 00 00 00 00
(001.289753)  vcan0  00000170   [8]  E1 00 00 00 00 00 00 00
(001.289980)  vcan0  0000017C   [8]  4B 00 00 00 00 00 00 00
(001.290193)  vcan0  0000014A   [8]  00 00 00 78 16 EC 7D 50
(001.290402)  vcan0  00000309   [8]  07 BA 00 00 00 00 00 00
(001.295814)  vcan0  00000170   [8]  E8 00 00 00 00 00 00 00
(001.296041)  vcan0  0000017C   [8]  4B 00 00 00 00 00 00 00
(001.296253)  vcan0  0000014A   [8]  00 00 00 78 10 BE 17 6C
(001.296463)  vcan0  00000309   [8]  07 BC 00 00 00 00 00 00
(001.301667)  vcan0  00000170   [8]  40 00 00 00 00 00 00 00
(001.301888)  vcan0  00000309   [8]  07 CA 00 00 00 00 00 00
(001.302101)  vcan0  0000014A   [8]  00 00 00 78 07 41 ED 56
(001.302322)  vcan0  0000017C   [8]  4B 00 00 00 00 00 00 00
(001.307697)  vcan0  0000017C   [8]  4B 00 00 00 00 00 00 00
(001.307913)  vcan0  0000014A   [8]  00 00 00 78 02 26 D6 74
(001.308122)  vcan0  00000170   [8]  9F 00 00 00 00 00 00 00
(001.308332)  vcan0  00000309   [8]  07 CC 00 00 00 00 00 00
(001.313877)  vcan0  0000017C   [8]  4B 00 00 00 00 00 00 00
(001.314095)  vcan0  00000309   [8]  07 DB 00 00 00 00 00 00
(001.314304)  vcan0  00000170   [8]  8B 00 00 00 00 00 00 00
(001.314514)  vcan0  0000014A   [8]  00 00 00 77 F9 EB DB 56
(001.319713)  vcan0  0000017C   [8]  4B 00 00 00 00 00 00 00
(001.319935)  vcan0  00000309   [8]  07 DE 00 00 00 00 00 00
(001.320148)  vcan0  0000014A   [8]  00 00 00 77 F5 E8 68 E4
(001.320359)  vcan0  00000170   [8]  5A 00 00 00 00 00 00 00
(001.325979)  vcan0  0000017C   [8]  4B 00 00 00 00 00 00 00
(001.326197)  vcan0  0000014A   [8]  00 00 00 77 EB FD 19 BC
(001.326408)  vcan0  00000309   [8]  07 ED 00 00 00 00 00 00
(001.326617)  vcan0  00000170   [8]  F3 00 00 00 00 00 00 00
(001.332399)  vcan0  0000017C   [8]  4B 00 00 00 00 00 00 00
(001.332613)  vcan0  0000014A   [8]  00 00 00 77 E9 63 53 E2
(001.332822)  vcan0  00000170   [8]  5A 00 00 00 00 00 00 00
(001.333032)  vcan0  00000309   [8]  07 F0 00 00 00 00 00 00
(001.337992)  vcan0  0000014A   [8]  00 00 00 77 DF 34 F1 76
(001.338208)  vcan0  00000309   [8]  08 00 00 00 00 00 00 00
(001.338417)  vcan0  00000170   [8]  54 00 00 00 00 00 00 00
(001.338636)  vcan0  0000017C   [8]  4B 00 00 00 00 00 00 00
(001.343786)  vcan0  0000014A   [8]  00 00 00 77 DB 5E 27 00
(001.344002)  vcan0  00000309   [8]  08 04 00 00 00 00 00 00
(001.344222)  vcan0  0000017C   [8]  4B 00 00 00 00 00 00 00
(001.344431)  vcan0  00000170   [8]  81 00 00 00 00 00 00 00
(001.350006)  vcan0  00000170   [8]  E8 00 00 00 00 00 00 00
(001.350225)  vcan0  0000014A   [8]  00 00 00 77 D0 A8 D0 02
(001.350435)  vcan0  00000309   [8]  08 14 00 00 00 00 00 00
(001.350653)  vcan0  0000017C   [8]  4B 00 00 00 00 00 00 00
(001.356108)  vcan0  0000017C   [8]  4B 00 00 00 00 00 00 00
(001.356325)  vcan0  0000014A   [8]  00 00 00 77 CD 29 9C 4C
(001.356537)  vcan0  00000309   [8]  08 18 00 00 00 00 00 00
(001.356746)  vcan0  00000170   [8]  50 00 00 00 00 00 00 00
(001.361749)  vcan0  00000309   [8]  08 28 00 00 00 00 00 00
(001.361967)  vcan0  0000014A   [8]  00 00 00 83 50 A3 F0 DC
(001.362190)  vcan0  0000017C   [8]  4B 00 00 00 00 00 00 00
(001.362401)  vcan0  00000170   [8]  35 00 00 00 00 00 00 00
(001.367868)  vcan0  0000014A   [8]  00 00 00 7B 65 58 94 00
(001.368093)  vcan0  0000017C   [8]  4B 00 00 00 00 00 00 00
(001.368303)  vcan0  00000170   [8]  BA 00 00 00 00 00 00 00
(001.368514)  vcan0  00000309   [8]  08 2D 00 00 00 00 00 00
(001.374203)  vcan0  00000170   [8]  2A 00 00 00 00 00 00 00
(001.374459)  vcan0  0000017C   [8]  4B 00 00 00 00 00 00 00
(001.374683)  vcan0  0000014A   [8]  00 00 00 7B 4A 13 59 F4
(001.374903)  vcan0  00000309   [8]  08 3E 00 00 00 00 00 00
(001.379978)  vcan0  0000014A   [8]  00 00 00 7B 33 6F C7 3E
(001.380192)  vcan0  00000170   [8]  1A 00 00 00 00 00 00 00
(001.380414)  vcan0  0000017C   [8]  4B 00 00 00 00 00 00 00
(001.380625)  vcan0  00000309   [8]  08 43 00 00 00 00 00 00
(001.386070)  vcan0  0000014A   [8]  00 00 00 7B 14 44 0D BE
(001.386282)  vcan0  00000170   [8]  59 00 00 00 00 00 00 00
(001.386494)  vcan0  00000309   [8]  08 53 00 00 00 00 00 00
(001.386713)  vcan0  0000017C   [8]  4B 00 00 00 00 00 00 00
(001.391650)  vcan0  00000170   [8]  0E 00 00 00 00 00 00 00
(001.391873)  vcan0  0000014A   [8]  00 00 00 7A FA 09 0D E0
(001.392095)  vcan0  0000017C   [8]  4B 00 00 00 00 00 00 00
(001.392306)  vcan0  00000309   [8]  08 59 00 00 00 00 00 00
(001.397913)  vcan0  0000014A   [8]  00 00 00 7A DA 58 78 7A
(001.398126)  vcan0  00000170   [8]  E6 00 00 00 00 00 00 00
(001.398347)  vcan0  0000017C   [8]  4B 00 00 00 00 00 00 00
(001.398557)  vcan0  00000309   [8]  08 6A 00 00 00 00 00 00
(001.403772)  vcan0  0000017C   [8]  4B 00 00 00 00 00 00 00
(001.403986)  vcan0  00000170   [8]  EC 00 00 00 00 00 00 00
(001.404199)  vcan0  0000014A   [8]  00 00 00 7A C0 D3 63 64
(001.404409)  vcan0  00000309   [8]  08 70 00 00 00 00 00 00
(001.409835)  vcan0  0000014A   [8]  00 00 00 7A A3 82 9E B6
(001.410060)  vcan0  0000017C   [8]  4B 00 00 00 00 00 00 00
(001.410271)  vcan0  00000309   [8]  08 81 00 00 00 00 00 00
(001.410479)  vcan0  00000170   [8]  38 00 00 00 00 00 00 00
(001.416110)  vcan0  00000170   [8]  75 00 00 00 00 00 00 00
(001.416346)  vcan0  0000017C   [8]  4B 00 00 00 00 00 00 00
(001.416558)  vcan0  00000309   [8]  08 87 00 00 00 00 00 00
(001.416768)  vcan0  0000014A   [8]  00 00 00 7A 83 EC 1E E4
(001.421708)  vcan0  00000170   [8]  31 00 00 00 00 00 00 00
(001.421934)  vcan0  00000309   [8]  08 98 00 00 00 00 00 00
(001.422155)  vcan0  0000017C   [8]  4B 00 00 00 00 00 00 00
(001.422366)  vcan0  0000014A   [8]  00 00 00 7A 67 95 A9 DC
(001.427707)  vcan0  00000309   [8]  08 9E 00 00 00 00 00 00
(001.427938)  vcan0  0000017C   [8]  4B 00 00 00 00 00 00 00
(001.428150)  vcan0  0000014A   [8]  00 00 00 7A 4D A8 C5 7E
(001.428358)  vcan0  00000170   [8]  48 00 00 00 00 00 00 00
(001.433871)  vcan0  00000170   [8]  47 00 00 00 00 00 00 00
(001.434092)  vcan0  0000014A   [8]  00 00 00 7A 2E D5 AB 02
(001.434303)  vcan0  00000309   [8]  08 B0 00 00 00 00 00 00
(001.434520)  vcan0  0000017C   [8]  4B 00 00 00 00 00 00 00
(001.439921)  vcan0  0000014A   [8]  00 00 00 7A 11 83 7F C4
(001.440139)  vcan0  00000309   [8]  08 B6 00 00 00 00 00 00
(001.440348)  vcan0  00000170   [8]  25 00 00 00 00 00 00 00
(001.440566)  vcan0  0000017C   [8]  4B 00 00 00 00 00 00 00
(001.446147)  vcan0  00000170   [8]  2E 00 00 00 00 00 00 00
(001.446375)  vcan0  0000017C   [8]  4B 00 00 00 00 00 00 00
(001.446585)  vcan0  0000014A   [8]  00 00 00 79 F9 A2 E0 4A
(001.446794)  vcan0  00000309   [8]  08 C7 00 00 00 00 00 00
(001.452464)  vcan0  0000014A   [8]  00 00 00 79 DE EC 00 E4
(001.452692)  vcan0  0000017C   [8]  4B 00 00 00 00 00 00 00
(001.452904)  vcan0  00000309   [8]  08 CE 00 00 00 00 00 00
(001.453113)  vcan0  00000170   [8]  79 00 00 00 00 00 00 00
(001.458632)  vcan0  00000170   [8]  E1 00 00 00 00 00 00 00
(001.458855)  vcan0  0000014A   [8]  00 00 00 79 C2 3F 29 9C
(001.459067)  vcan0  00000309   [8]  08 E0 00 00 00 00 00 00
(001.459288)  vcan0  0000017C   [8]  4B 00 00 00 00 00 00 00
(001.464124)  vcan0  00000170   [8]  D8 00 00 00 00 00 00 00
(001.464350)  vcan0  00000309   [8]  08 E6 00 00 00 00 00 00
(001.464573)  vcan0  0000017C   [8]  4B 00 00 00 00 00 00 00
(001.464784)  vcan0  0000014A   [8]  00 00 00 79 AA EF B1 E8
(001.470078)  vcan0  0000014A   [8]  00 00 00 79 92 7A 0A CE
(001.470303)  vcan0  0000017C   [8]  4B 00 00 00 00 00 00 00
(001.470515)  vcan0  00000309   [8]  08 F8 00 00 00 00 00 00
(001.470724)  vcan0  00000170   [8]  2E 00 00 00 00 00 00 00
(001.475692)  vcan0  00000309   [8]  08 FF 00 00 00 00 00 00
(001.475910)  vcan0  00000170   [8]  27 00 00 00 00 00 00 00
(001.476133)  vcan0  0000017C   [8]  4B 00 00 00 00 00 00 00
(001.476343)  vcan0  0000014A   [8]  00 00 00 79 7A 2D 19 32
(001.482001)  vcan0  00000309   [8]  09 10 00 00 00 00 00 00
(001.482228)  vcan0  0000017C   [8]  4B 00 00 00 00 00 00 00
(001.482437)  vcan0  00000170   [8]  44 00 00 00 00 00 00 00
(001.482720)  vcan0  0000014A   [8]  00 00 00 79 60 53 4E 46
(001.482929)  vcan0  00000202   [8]  00 84 00 00 00 00 00 00
(001.487865)  vcan0  00000170   [8]  8A 00 00 00 00 00 00 00
(001.488098)  vcan0  0000017C   [8]  4B 00 00 00 00 00 00 00
(001.488311)  vcan0  0000014A   [8]  00 00 00 79 4C 9C 31 36
(001.488547)  vcan0  00000309   [8]  09 17 00 00 00 00 00 00
(001.494266)  vcan0  00000309   [8]  09 29 00 00 00 00 00 00
(001.494481)  vcan0  00000170   [8]  99 00 00 00 00 00 00 00
(001.494704)  vcan0  0000017C   [8]  4B 00 00 00 00 00 00 00
(001.494915)  vcan0  0000014A   [8]  00 00 00 79 32 3B B8 BA
(001.499800)  vcan0  00000170   [8]  F4 00 00 00 00 00 00 00
(001.500026)  vcan0  00000309   [8]  09 30 00 00 00 00 00 00
(001.500249)  vcan0  0000017C   [8]  4B 00 00 00 00 00 00 00
(001.500462)  vcan0  0000014A   [8]  00 00 00 79 23 59 1C 90
(001.505802)  vcan0  0000014A   [8]  00 00 00 79 08 2C 05 D8
(001.506018)  vcan0  00000309   [8]  09 42 00 00 00 00 00 00
(001.506242)  vcan0  0000017C   [8]  4B 00 00 00 00 00 00 00
(001.506452)  vcan0  00000170   [8]  92 00 00 00 00 00 00 00
(001.512373)  vcan0  0000017C   [8]  4B 00 00 00 00 00 00 00
(001.512587)  vcan0  00000309   [8]  09 49 00 00 00 00 00 00
(001.512796)  vcan0  00000170   [8]  6B 00 00 00 00 00 00 00
(001.513006)  vcan0  0000014A   [8]  00 00 00 78 F8 46 DC 96
(001.518077)  vcan0  0000014A   [8]  00 00 00 78 E4 32 C7 94
(001.518291)  vcan0  00000170   [8]  90 00 00 00 00 00 00 00
(001.518513)  vcan0  0000017C   [8]  4B 00 00 00 00 00 00 00
(001.518724)  vcan0  00000309   [8]  09 5B 00 00 00 00 00 00
(001.523838)  vcan0  0000014A   [8]  00 00 00 78 D1 4F 03 B4
(001.524062)  vcan0  0000017C   [8]  4B 00 00 00 00 00 00 00
(001.524272)  vcan0  00000170   [8]  51 00 00 00 00 00 00 00
(001.524483)  vcan0  00000309   [8]  09 62 00 00 00 00 00 00
(001.530254)  vcan0  0000014A   [8]  00 00 00 78 BF 1D 6B 5A
(001.530480)  vcan0  0000017C   [8]  4B 00 00 00 00 00 00 00
(001.530689)  vcan0  00000170   [8]  FA 00 00 00 00 00 00 00
(001.530900)  vcan0  00000309   [8]  09 74 00 00 00 00 00 00
(001.535793)  vcan0  00000309   [8]  09 7B 00 00 00 00 00 00
(001.536008)  vcan0  0000014A   [8]  00 00 00 78 B0 59 0F 24
(001.536230)  vcan0  0000017C   [8]  4B 00 00 00 00 00 00 00
(001.536439)  vcan0  00000170   [8]  33 00 00 00 00 00 00 00
(001.542471)  vcan0  00000309   [8]  09 8D 00 00 00 00 00 00
(001.542697)  vcan0  0000017C   [8]  39 ED 00 00 00 00 00 00
(001.542906)  vcan0  00000170   [8]  93 00 00 00 00 00 00 00
(001.543118)  vcan0  0000014A   [8]  00 00 00 80 99 AA 68 04
(001.547682)  vcan0  00000309   [8]  09 94 00 00 00 00 00 00
(001.547896)  vcan0  00000170   [8]  F1 00 00 00 00 00 00 00
(001.548119)  vcan0  0000017C   [8]  32 36 00 00 00 00 00 00
(001.548330)  vcan0  0000014A   [8]  00 00 00 7B 0F 7C 09 9A
(001.553763)  vcan0  0000017C   [8]  20 5B 00 00 00 00 00 00
(001.553983)  vcan0  0000014A   [8]  00 00 00 7A EE 43 50 F0
(001.554197)  vcan0  00000309   [8]  09 A6 00 00 00 00 00 00
(001.554408)  vcan0  00000170   [8]  E1 00 00 00 00 00 00 00
(001.560289)  vcan0  0000017C   [8]  19 0D 00 00 00 00 00 00
(001.560518)  vcan0  00000170   [8]  84 00 00 00 00 00 00 00
(001.560762)  vcan0  00000309   [8]  09 AD 00 00 00 00 00 00
(001.560978)  vcan0  0000014A   [8]  00 00 00 7A CF 50 24 DA
(001.566234)  vcan0  0000014A   [8]  00 00 00 7A AE 5A 24 A4
(001.566468)  vcan0  00000309   [8]  09 BD 00 00 00 00 00 00
(001.566688)  vcan0  00000170   [8]  06 00 00 00 00 00 00 00
(001.566939)  vcan0  0000017C   [8]  08 37 00 00 00 00 00 00
(001.572126)  vcan0  0000017C   [8]  01 F9 00 00 00 00 00 00
(001.572344)  vcan0  00000309   [8]  09 C3 00 00 00 00 00 00
(001.572590)  vcan0  0000014A   [8]  00 00 00 7A 8F 81 AC 76
(001.572800)  vcan0  00000170   [8]  68 00 00 00 00 00 00 00
(001.577840)  vcan0  0000014A   [8]  00 00 00 7A 6F 57 6A FA
(001.578063)  vcan0  0000017C   [8]  00 00 00 00 00 00 08 78
(001.578272)  vcan0  00000170   [8]  01 00 00 00 00 00 00 00
(001.578484)  vcan0  00000309   [8]  09 D2 00 00 00 00 00 00
(001.583906)  vcan0  0000017C   [8]  00 00 00 00 00 00 0B 80
(001.584137)  vcan0  0000014A   [8]  00 00 00 7A 50 6F 73 5A
(001.584410)  vcan0  00000309   [8]  09 D7 00 00 00 00 00 00
(001.584626)  vcan0  00000170   [8]  0D 00 00 00 00 00 00 00
(001.589828)  vcan0  00000309   [8]  09 E3 00 00 00 00 00 00
(001.590046)  vcan0  0000014A   [8]  00 00 00 7A 30 D0 ED F8
(001.590254)  vcan0  00000170   [8]  46 00 00 00 00 00 00 00
(001.590473)  vcan0  0000017C   [8]  00 00 00 00 00 00 13 30
(001.595870)  vcan0  00000170   [8]  29 00 00 00 00 00 00 00
(001.596105)  vcan0  00000309   [8]  09 E5 00 00 00 00 00 00
(001.596329)  vcan0  0000017C   [8]  00 00 00 00 00 00 13 30
(001.596540)  vcan0  0000014A   [8]  00 00 00 7A 13 CE FF 0C
(001.601870)  vcan0  00000170   [8]  95 00 00 00 00 00 00 00
(001.602095)  vcan0  00000309   [8]  09 EE 00 00 00 00 00 00
(001.602308)  vcan0  0000014A   [8]  00 00 00 79 F4 9C 1A D8
(001.602528)  vcan0  0000017C   [8]  00 00 00 00 00 00 13 30
(001.607831)  vcan0  0000017C   [8]  00 00 00 00 00 00 13 30
(001.608047)  vcan0  00000309   [8]  09 ED 00 00 00 00 00 00
(001.608257)  vcan0  00000170   [8]  8B 00 00 00 00 00 00 00
(001.608468)  vcan0  0000014A   [8]  00 00 00 79 D7 2C 52 A2
(001.614338)  vcan0  0000014A   [8]  00 00 00 79 B9 0A 5A 3E
(001.614552)  vcan0  00000170   [8]  09 00 00 00 00 00 00 00
(001.614773)  vcan0  0000017C   [8]  00 00 00 00 00 00 13 30
(001.614983)  vcan0  00000309   [8]  09 F4 00 00 00 00 00 00
(001.620676)  vcan0  0000014A   [8]  00 00 00 79 A2 4D 3D A6
(001.620887)  vcan0  00000170   [8]  0E 00 00 00 00 00 00 00
(001.621099)  vcan0  00000309   [8]  09 F0 00 00 00 00 00 00
(001.621317)  vcan0  0000017C   [8]  00 00 00 00 00 00 13 30
(001.626319)  vcan0  00000309   [8]  09 F5 00 00 00 00 00 00
(001.626535)  vcan0  0000014A   [8]  00 00 00 79 82 FB 0B 6A
(001.626754)  vcan0  0000017C   [8]  00 00 00 00 00 00 13 30
(001.626963)  vcan0  00000170   [8]  80 00 00 00 00 00 00 00
(001.632064)  vcan0  0000017C   [8]  00 00 00 00 00 00 13 30
(001.632280)  vcan0  0000014A   [8]  00 00 00 79 69 89 78 8E
(001.632489)  vcan0  00000170   [8]  0D 00 00 00 00 00 00 00
(001.632699)  vcan0  00000309   [8]  09 EF 00 00 00 00 00 00
(001.637765)  vcan0  0000014A   [8]  00 00 00 79 4F 07 C6 C2
(001.637988)  vcan0  0000017C   [8]  00 00 00 00 00 00 13 30
(001.638196)  vcan0  00000170   [8]  04 00 00 00 00 00 00 00
(001.638405)  vcan0  00000309   [8]  09 F3 00 00 00 00 00 00
(001.643702)  vcan0  0000014A   [8]  00 00 00 79 38 95 39 A0
(001.643923)  vcan0  0000017C   [8]  00 00 00 00 00 00 13 30
(001.644134)  vcan0  00000170   [8]  CB 00 00 00 00 00 00 00
(001.644344)  vcan0  00000309   [8]  09 EC 00 00 00 00 00 00
(001.650373)  vcan0  0000014A   [8]  00 00 00 79 1E 96 47 90
(001.650604)  vcan0  0000017C   [8]  00 00 00 00 00 00 13 30
(001.650813)  vcan0  00000170   [8]  7D 00 00 00 00 00 00 00
(001.651022)  vcan0  00000309   [8]  09 EE 00 00 00 00 00 00
(001.656091)  vcan0  0000014A   [8]  00 00 00 79 09 CA A2 58
(001.656305)  vcan0  00000309   [8]  09 E7 00 00 00 00 00 00
(001.656524)  vcan0  0000017C   [8]  00 00 00 00 00 00 13 30
(001.656732)  vcan0  00000170   [8]  FD 00 00 00 00 00 00 00
(001.661816)  vcan0  00000170   [8]  AB 00 00 00 00 00 00 00
(001.662037)  vcan0  00000309   [8]  09 E8 00 00 00 00 00 00
(001.662252)  vcan0  0000014A   [8]  00 00 00 78 F2 69 15 F8
(001.662477)  vcan0  0000017C   [8]  00 00 00 00 00 00 13 30
(001.667769)  vcan0  0000017C   [8]  00 00 00 00 00 00 12 08
(001.667983)  vcan0  00000309   [8]  09 DF 00 00 00 00 00 00
(001.668192)  vcan0  00000170   [8]  EC 00 00 00 00 00 00 00
(001.668402)  vcan0  0000014A   [8]  00 00 00 78 DF BE 1C 0A
(001.673753)  vcan0  00000170   [8]  66 00 00 00 00 00 00 00
(001.673971)  vcan0  0000014A   [8]  00 00 00 78 CB 26 44 DC
(001.674190)  vcan0  0000017C   [8]  00 00 00 00 00 00 12 58
(001.674399)  vcan0  00000309   [8]  09 E0 00 00 00 00 00 00
(001.679833)  vcan0  0000014A   [8]  00 00 00 78 B8 CD 9E C2
(001.680044)  vcan0  00000170   [8]  44 00 00 00 00 00 00 00
(001.680264)  vcan0  0000017C   [8]  00 00 00 00 00 00 0C 28
(001.680474)  vcan0  00000309   [8]  09 D6 00 00 00 00 00 00
(001.686504)  vcan0  0000017C   [8]  00 00 00 00 00 00 0C 10
(001.686718)  vcan0  0000014A   [8]  00 00 00 78 A6 73 B0 5E
(001.686929)  vcan0  00000170   [8]  FD 00 00 00 00 00 00 00
(001.687139)  vcan0  00000309   [8]  09 D6 00 00 00 00 00 00
(001.692123)  vcan0  0000014A   [8]  00 00 00 78 96 8F E9 04
(001.692344)  vcan0  0000017C   [8]  00 00 00 00 00 00 05 B8
(001.692551)  vcan0  00000170   [8]  06 00 00 00 00 00 00 00
(001.692760)  vcan0  00000309   [8]  09 CC 00 00 00 00 00 00
(001.698083)  vcan0  0000014A   [8]  00 00 00 78 86 12 D3 BA
(001.698306)  vcan0  0000017C   [8]  00 00 00 00 00 00 05 A0
(001.698514)  vcan0  00000170   [8]  E1 00 00 00 00 00 00 00
(001.698724)  vcan0  00000309   [8]  09 CC 00 00 00 00 00 00
(001.703897)  vcan0  0000014A   [8]  00 00 00 78 75 BD 0D 62
(001.704119)  vcan0  0000017C   [8]  01 0E 00 00 00 00 00 00
(001.704329)  vcan0  00000309   [8]  09 C2 00 00 00 00 00 00
(001.704536)  vcan0  00000170   [8]  4F 00 00 00 00 00 00 00
(001.709728)  vcan0  00000170   [8]  CB 00 00 00 00 00 00 00
(001.709947)  vcan0  00000309   [8]  09 C2 00 00 00 00 00 00
(001.710166)  vcan0  0000017C   [8]  01 2F 00 00 00 00 00 00
(001.710376)  vcan0  0000014A   [8]  00 00 00 78 66 60 CE 74
(001.715721)  vcan0  0000017C   [8]  0A CD 00 00 00 00 00 00
(001.715934)  vcan0  00000170   [8]  50 00 00 00 00 00 00 00
(001.716145)  vcan0  0000014A   [8]  00 00 00 78 58 1B 53 48
(001.716353)  vcan0  00000309   [8]  09 B9 00 00 00 00 00 00
(001.721873)  vcan0  0000017C   [8]  0A DC 00 00 00 00 00 00
(001.722088)  vcan0  00000309   [8]  09 B9 00 00 00 00 00 00
(001.722298)  vcan0  0000014A   [8]  00 00 00 78 49 C5 55 12
(001.722507)  vcan0  00000170   [8]  8F 00 00 00 00 00 00 00
(001.727842)  vcan0  00000170   [8]  13 00 00 00 00 00 00 00
(001.728063)  vcan0  00000309   [8]  09 AF 00 00 00 00 00 00
(001.728274)  vcan0  0000014A   [8]  00 00 00 78 38 D4 7A C4
(001.728493)  vcan0  0000017C   [8]  14 E8 00 00 00 00 00 00
(001.728699)  vcan0  00000202   [8]  00 8C 00 00 00 00 00 00
(001.733905)  vcan0  0000017C   [8]  15 1A 00 00 00 00 00 00
(001.734120)  vcan0  00000309   [8]  09 AF 00 00 00 00 00 00
(001.734329)  vcan0  00000170   [8]  3D 00 00 00 00 00 00 00
(001.734539)  vcan0  0000014A   [8]  00 00 00 78 2E 67 22 A6
(001.740000)  vcan0  0000014A   [8]  00 00 00 78 25 03 D2 A8
(001.740211)  vcan0  00000170   [8]  3D 00 00 00 00 00 00 00
(001.740431)  vcan0  0000017C   [8]  1F 37 00 00 00 00 00 00
(001.740640)  vcan0  00000309   [8]  09 A5 00 00 00 00 00 00
(001.746239)  vcan0  00000170   [8]  93 00 00 00 00 00 00 00
(001.746449)  vcan0  0000018F   [8]  00 00 67 00 00 00 00 00
(001.746664)  vcan0  00000309   [8]  09 A5 00 00 00 00 00 00
(001.746882)  vcan0  0000017C   [8]  1F 46 00 00 00 00 00 00
(001.747094)  vcan0  000001A3   [8]  00 00 00 00 00 00 00 00
(001.747305)  vcan0  0000014A   [8]  00 00 00 78 17 0C 99 66
(001.752271)  vcan0  0000014A   [8]  00 00 00 78 10 B6 A4 8A
(001.752493)  vcan0  0000017C   [8]  29 27 00 00 00 00 00 00
(001.752703)  vcan0  00000309   [8]  09 9B 00 00 00 00 00 00
(001.752910)  vcan0  00000170   [8]  8F 00 00 00 00 00 00 00
(001.758329)  vcan0  00000309   [8]  09 9C 00 00 00 00 00 00
(001.758543)  vcan0  0000014A   [8]  00 00 00 7D F9 CA 0A E0
(001.758750)  vcan0  00000170   [8]  5A 00 00 00 00 00 00 00
(001.758966)  vcan0  0000017C   [8]  28 D7 00 00 00 00 00 00
(001.764477)  vcan0  0000014A   [8]  00 00 00 79 DF 3C DB 8A
(001.764689)  vcan0  00000170   [8]  52 00 00 00 00 00 00 00
(001.764910)  vcan0  0000017C   [8]  32 36 00 00 00 00 00 00
(001.765121)  vcan0  00000309   [8]  09 92 00 00 00 00 00 00
(001.770290)  vcan0  00000309   [8]  09 93 00 00 00 00 00 00
(001.770523)  vcan0  0000017C   [8]  31 53 00 00 00 00 00 00
(001.770733)  vcan0  00000170   [8]  3A 00 00 00 00 00 00 00
(001.770944)  vcan0  0000014A   [8]  00 00 00 79 CC 1B 72 66
(001.775729)  vcan0  00000170   [8]  E5 00 00 00 00 00 00 00
(001.775948)  vcan0  00000309   [8]  09 8B 00 00 00 00 00 00
(001.776159)  vcan0  0000014A   [8]  00 00 00 79 BC 2F 8B E0
(001.776378)  vcan0  0000017C   [8]  39 F5 00 00 00 00 00 00
(001.781771)  vcan0  0000014A   [8]  00 00 00 79 A2 BA ED 06
(001.782015)  vcan0  0000017C   [8]  38 4C 00 00 00 00 00 00
(001.782239)  vcan0  00000309   [8]  09 8D 00 00 00 00 00 00
(001.782459)  vcan0  00000170   [8]  F4 00 00 00 00 00 00 00
(001.788107)  vcan0  00000170   [8]  03 00 00 00 00 00 00 00
(001.788358)  vcan0  0000017C   [8]  3F FA 00 00 00 00 00 00
(001.788582)  vcan0  00000309   [8]  09 85 00 00 00 00 00 00
(001.788794)  vcan0  0000014A   [8]  00 00 00 79 92 11 DE 62
(001.794589)  vcan0  00000170   [8]  A7 00 00 00 00 00 00 00
(001.794821)  vcan0  0000017C   [8]  3D 63 00 00 00 00 00 00
(001.795033)  vcan0  00000309   [8]  09 88 00 00 00 00 00 00
(001.795243)  vcan0  0000014A   [8]  00 00 00 79 7A C9 57 2C
(001.800281)  vcan0  00000170   [8]  AB 00 00 00 00 00 00 00
(001.800502)  vcan0  00000309   [8]  09 81 00 00 00 00 00 00
(001.800723)  vcan0  0000017C   [8]  43 FD 00 00 00 00 00 00
(001.800937)  vcan0  0000014A   [8]  00 00 00 79 69 BA 6B 80
(001.805714)  vcan0  0000014A   [8]  00 00 00 79 53 9C 91 E0
(001.805933)  vcan0  00000309   [8]  09 85 00 00 00 00 00 00
(001.806144)  vcan0  00000170   [8]  93 00 00 00 00 00 00 00
(001.806364)  vcan0  0000017C   [8]  40 62 00 00 00 00 00 00
(001.811753)  vcan0  0000014A   [8]  00 00 00 79 3F BE 46 78
(001.811975)  vcan0  0000017C   [8]  45 DB 00 00 00 00 00 00
(001.812185)  vcan0  00000309   [8]  09 80 00 00 00 00 00 00
(001.812392)  vcan0  00000170   [8]  91 00 00 00 00 00 00 00
(001.817949)  vcan0  0000014A   [8]  00 00 00 79 2A 72 C1 44
(001.818161)  vcan0  00000309   [8]  09 84 00 00 00 00 00 00
(001.818379)  vcan0  0000017C   [8]  41 30 00 00 00 00 00 00
(001.818586)  vcan0  00000170   [8]  0B 00 00 00 00 00 00 00
(001.824586)  vcan0  00000309   [8]  09 80 00 00 00 00 00 00
(001.824798)  vcan0  00000170   [8]  C6 00 00 00 00 00 00 00
(001.825009)  vcan0  0000014A   [8]  00 00 00 79 17 93 5F A2
(001.825228)  vcan0  0000017C   [8]  45 8B 00 00 00 00 00 00
(001.830030)  vcan0  0000017C   [8]  3F D7 00 00 00 00 00 00
(001.830252)  vcan0  00000170   [8]  9C 00 00 00 00 00 00 00
(001.830477)  vcan0  0000014A   [8]  00 00 00 79 07 73 9D 1A
(001.830699)  vcan0  00000309   [8]  09 86 00 00 00 00 00 00
(001.835893)  vcan0  00000170   [8]  CB 00 00 00 00 00 00 00
(001.836129)  vcan0  0000017C   [8]  43 29 00 00 00 00 00 00
(001.836341)  vcan0  0000014A   [8]  00 00 00 78 F3 47 F2 CA
(001.836566)  vcan0  00000309   [8]  09 82 00 00 00 00 00 00
(001.841874)  vcan0  00000170   [8]  50 00 00 00 00 00 00 00
(001.842098)  vcan0  0000014A   [8]  00 00 00 78 DE 81 98 A6
(001.842320)  vcan0  0000017C   [8]  3C 84 00 00 00 00 00 00
(001.842619)  vcan0  00000309   [8]  09 89 00 00 00 00 00 00
(001.847887)  vcan0  00000170   [8]  95 00 00 00 00 00 00 00
(001.848116)  vcan0  0000017C   [8]  3E F5 00 00 00 00 00 00
(001.848327)  vcan0  00000309   [8]  09 87 00 00 00 00 00 00
(001.848539)  vcan0  0000014A   [8]  00 00 00 78 CE 17 CD B4
(001.853871)  vcan0  00000309   [8]  09 8E 00 00 00 00 00 00
(001.854083)  vcan0  00000170   [8]  91 00 00 00 00 00 00 00
(001.854304)  vcan0  0000017C   [8]  37 8D 00 00 00 00 00 00
(001.854516)  vcan0  0000014A   [8]  00 00 00 78 B9 80 AE 74
(001.859787)  vcan0  00000170   [8]  A0 00 00 00 00 00 00 00
(001.860014)  vcan0  0000017C   [8]  39 50 00 00 00 00 00 00
(001.860226)  vcan0  00000309   [8]  09 8C 00 00 00 00 00 00
(001.860436)  vcan0  0000014A   [8]  00 00 00 78 AC 16 36 10
(001.866164)  vcan0  0000014A   [8]  00 00 00 78 9A E6 E4 F4
(001.866405)  vcan0  00000309   [8]  09 94 00 00 00 00 00 00
(001.866619)  vcan0  00000170   [8]  14 00 00 00 00 00 00 00
(001.866843)  vcan0  0000017C   [8]  31 61 00 00 00 00 00 00
(001.871714)  vcan0  00000170   [8]  86 00 00 00 00 00 00 00
(001.871938)  vcan0  00000309   [8]  09 93 00 00 00 00 00 00
(001.872151)  vcan0  0000014A   [8]  00 00 00 78 8B 83 4A 6E
(001.872448)  vcan0  0000017C   [8]  32 B5 00 00 00 00 00 00
(001.878311)  vcan0  00000309   [8]  09 9B 00 00 00 00 00 00
(001.878543)  vcan0  0000014A   [8]  00 00 00 78 7D 6E 63 E8
(001.878761)  vcan0  00000170   [8]  4C 00 00 00 00 00 00 00
(001.878999)  vcan0  0000017C   [8]  2A 82 00 00 00 00 00 00
(001.884169)  vcan0  0000014A   [8]  00 00 00 78 6F C2 DD 24
(001.884391)  vcan0  00000170   [8]  24 00 00 00 00 00 00 00
(001.884635)  vcan0  0000017C   [8]  2B A9 00 00 00 00 00 00
(001.884848)  vcan0  00000309   [8]  09 9A 00 00 00 00 00 00
(001.890146)  vcan0  00000309   [8]  09 A2 00 00 00 00 00 00
(001.890369)  vcan0  0000017C   [8]  23 76 00 00 00 00 00 00
(001.890580)  vcan0  00000170   [8]  D8 00 00 00 00 00 00 00
(001.890792)  vcan0  0000014A   [8]  00 00 00 78 60 06 33 D4
(001.895957)  vcan0  00000170   [8]  07 00 00 00 00 00 00 00
(001.896194)  vcan0  0000014A   [8]  00 00 00 78 55 36 17 78
(001.896421)  vcan0  00000309   [8]  09 A1 00 00 00 00 00 00
(001.896642)  vcan0  0000017C   [8]  24 B0 00 00 00 00 00 00
(001.902507)  vcan0  0000014A   [8]  00 00 00 78 46 B9 5A AC
(001.902732)  vcan0  0000017C   [8]  1C BD 00 00 00 00 00 00
(001.902941)  vcan0  00000170   [8]  55 00 00 00 00 00 00 00
(001.903152)  vcan0  00000309   [8]  09 A8 00 00 00 00 00 00
(001.908383)  vcan0  00000309   [8]  09 A7 00 00 00 00 00 00
(001.908621)  vcan0  0000014A   [8]  00 00 00 78 3C FC BF 5E
(001.908841)  vcan0  0000017C   [8]  1E 44 00 00 00 00 00 00
(001.909051)  vcan0  00000170   [8]  2B 00 00 00 00 00 00 00
(001.914889)  vcan0  0000017C   [8]  16 C7 00 00 00 00 00 00
(001.915105)  vcan0  0000014A   [8]  00 00 00 78 2B 41 60 AC
(001.915315)  vcan0  00000309   [8]  09 AE 00 00 00 00 00 00
(001.915523)  vcan0  00000170   [8]  B2 00 00 00 00 00 00 00
(001.921119)  vcan0  0000014A   [8]  00 00 00 78 21 DC 1F 96
(001.921332)  vcan0  00000309   [8]  09 AC 00 00 00 00 00 00
(001.921550)  vcan0  0000017C   [8]  18 CB 00 00 00 00 00 00
(001.921757)  vcan0  00000170   [8]  82 00 00 00 00 00 00 00
(001.926808)  vcan0  0000017C   [8]  11 EB 00 00 00 00 00 00
(001.927037)  vcan0  00000309   [8]  09 B3 00 00 00 00 00 00
(001.927254)  vcan0  00000170   [8]  A7 00 00 00 00 00 00 00
(001.927477)  vcan0  0000014A   [8]  00 00 00 78 18 31 D8 FC
(001.932771)  vcan0  00000170   [8]  EE 00 00 00 00 00 00 00
(001.933004)  vcan0  00000309   [8]  09 B0 00 00 00 00 00 00
(001.933240)  vcan0  0000017C   [8]  14 8D 00 00 00 00 00 00
(001.933460)  vcan0  0000014A   [8]  00 00 00 78 0E 90 C5 76
(001.938066)  vcan0  0000017C   [8]  0E 60 00 00 00 00 00 00
(001.938284)  vcan0  00000309   [8]  09 B6 00 00 00 00 00 00
(001.938494)  vcan0  00000170   [8]  D8 00 00 00 00 00 00 00
(001.938705)  vcan0  0000014A   [8]  00 00 00 78 00 3B A7 EE
(001.943922)  vcan0  0000014A   [8]  00 00 00 77 F8 9A B2 B0
(001.944139)  vcan0  00000309   [8]  09 B3 00 00 00 00 00 00
(001.944359)  vcan0  0000017C   [8]  11 B4 00 00 00 00 00 00
(001.944567)  vcan0  00000170   [8]  57 00 00 00 00 00 00 00
(001.950206)  vcan0  0000017C   [8]  0C 41 00 00 00 00 00 00
(001.950436)  vcan0  0000014A   [8]  00 00 00 77 EE EA 5F C4
(001.950653)  vcan0  00000170   [8]  5D 00 00 00 00 00 00 00
(001.950876)  vcan0  00000309   [8]  09 B8 00 00 00 00 00 00
(001.956026)  vcan0  00000309   [8]  09 B4 00 00 00 00 00 00
(001.956246)  vcan0  00000170   [8]  A5 00 00 00 00 00 00 00
(001.956470)  vcan0  0000014A   [8]  00 00 00 77 E6 1F 9A 22
(001.956705)  vcan0  0000017C   [8]  10 4D 00 00 00 00 00 00
(001.962140)  vcan0  00000309   [8]  09 B9 00 00 00 00 00 00
(001.962373)  vcan0  0000014A   [8]  00 00 00 77 DF C7 12 5C
(001.962612)  vcan0  0000017C   [8]  0B 8F 00 00 00 00 00 00
(001.962830)  vcan0  00000170   [8]  8D 00 00 00 00 00 00 00
(001.967824)  vcan0  00000170   [8]  96 00 00 00 00 00 00 00
(001.968084)  vcan0  0000017C   [8]  10 4D 00 00 00 00 00 00
(001.968312)  vcan0  00000309   [8]  09 B4 00 00 00 00 00 00
(001.968536)  vcan0  0000014A   [8]  00 00 00 77 D4 1F DF E2
(001.974190)  vcan0  0000014A   [8]  00 00 00 7B 1E 1F 4D 1C
(001.974416)  vcan0  0000017C   [8]  0C 33 00 00 00 00 00 00
(001.974624)  vcan0  00000202   [8]  00 EE 00 00 00 00 00 00
(001.974834)  vcan0  00000309   [8]  09 B8 00 00 00 00 00 00
(001.975040)  vcan0  00000170   [8]  48 00 00 00 00 00 00 00
(001.979814)  vcan0  00000309   [8]  09 B3 00 00 00 00 00 00
(001.980026)  vcan0  00000170   [8]  2F 00 00 00 00 00 00 00
(001.980248)  vcan0  0000017C   [8]  11 92 00 00 00 00 00 00
(001.980460)  vcan0  0000014A   [8]  00 00 00 78 D2 AF B2 C4
(001.986225)  vcan0  00000170   [8]  36 00 00 00 00 00 00 00
(001.986452)  vcan0  0000014A   [8]  00 00 00 78 C6 4E 45 E2
(001.986664)  vcan0  00000309   [8]  09 B6 00 00 00 00 00 00
(001.986884)  vcan0  0000017C   [8]  0E 02 00 00 00 00 00 00
(001.992809)  vcan0  0000014A   [8]  00 00 00 78 BA 4A 47 B2
(001.993030)  vcan0  0000017C   [8]  13 EB 00 00 00 00 00 00
(001.993238)  vcan0  00000170   [8]  E7 00 00 00 00 00 00 00
(001.993447)  vcan0  00000309   [8]  09 B0 00 00 00 00 00 00
(001.999000)  vcan0  00000170   [8]  FD 00 00 00 00 00 00 00
(001.999230)  vcan0  0000014A   [8]  00 00 00 78 AE B5 F9 1A
(001.999455)  vcan0  0000017C   [8]  10 C9 00 00 00 00 00 00
(001.999666)  vcan0  00000309   [8]  09 B4 00 00 00 00 00 00
(002.004238)  vcan0  00000309   [8]  09 AD 00 00 00 00 00 00
(002.004464)  vcan0  0000017C   [8]  17 1E 00 00 00 00 00 00
(002.004675)  vcan0  0000014A   [8]  00 00 00 78 A0 81 6E 68
(002.004885)  vcan0  00000170   [8]  59 00 00 00 00 00 00 00
(002.010746)  vcan0  00000309   [8]  09 B0 00 00 00 00 00 00
(002.010969)  vcan0  00000170   [8]  E1 00 00 00 00 00 00 00
(002.011195)  vcan0  0000014A   [8]  00 00 00 78 91 C5 13 1A
(002.011435)  vcan0  0000017C   [8]  14 4A 00 00 00 00 00 00
(002.016192)  vcan0  0000014A   [8]  00 00 00 78 86 A3 29 F4
(002.016409)  vcan0  00000170   [8]  A6 00 00 00 00 00 00 00
(002.016632)  vcan0  0000017C   [8]  1A EA 00 00 00 00 00 00
(002.016844)  vcan0  00000309   [8]  09 AA 00 00 00 00 00 00
(002.022343)  vcan0  0000014A   [8]  00 00 00 78 79 26 B6 80
(002.022557)  vcan0  00000170   [8]  32 00 00 00 00 00 00 00
(002.022781)  vcan0  0000017C   [8]  18 42 00 00 00 00 00 00
(002.022991)  vcan0  00000309   [8]  09 AC 00 00 00 00 00 00
(002.028051)  vcan0  00000309   [8]  09 A5 00 00 00 00 00 00
(002.028273)  vcan0  0000017C   [8]  1F 09 00 00 00 00 00 00
(002.028484)  vcan0  00000170   [8]  E5 00 00 00 00 00 00 00
(002.028695)  vcan0  0000014A   [8]  00 00 00 78 6A 06 41 DC
(002.034530)  vcan0  0000017C   [8]  1C 6B 00 00 00 00 00 00
(002.034748)  vcan0  0000014A   [8]  00 00 00 78 5F 3E 3E DA
(002.034961)  vcan0  00000309   [8]  09 A8 00 00 00 00 00 00
(002.035171)  vcan0  00000170   [8]  F8 00 00 00 00 00 00 00
(002.040540)  vcan0  00000170   [8]  37 00 00 00 00 00 00 00
(002.040770)  vcan0  0000014A   [8]  00 00 00 78 53 C2 BF E2
(002.040994)  vcan0  0000017C   [8]  23 36 00 00 00 00 00 00
(002.041206)  vcan0  00000309   [8]  09 A1 00 00 00 00 00 00
(002.046571)  vcan0  00000170   [8]  B3 00 00 00 00 00 00 00
(002.046828)  vcan0  00000309   [8]  09 A4 00 00 00 00 00 00
(002.047055)  vcan0  0000017C   [8]  20 84 00 00 00 00 00 00
(002.047267)  vcan0  0000014A   [8]  00 00 00 78 47 AE A2 C4
(002.052252)  vcan0  0000014A   [8]  00 00 00 78 3A FF 83 2A
(002.052476)  vcan0  00000170   [8]  BD 00 00 00 00 00 00 00
(002.052719)  vcan0  0000017C   [8]  27 30 00 00 00 00 00 00
(002.053010)  vcan0  00000309   [8]  09 9D 00 00 00 00 00 00
(002.058072)  vcan0  0000017C   [8]  24 4D 00 00 00 00 00 00
(002.058289)  vcan0  0000014A   [8]  00 00 00 78 30 B8 84 58
(002.058503)  vcan0  00000309   [8]  09 A0 00 00 00 00 00 00
(002.058720)  vcan0  00000170   [8]  B5 00 00 00 00 00 00 00
(002.064161)  vcan0  0000017C   [8]  2A BE 00 00 00 00 00 00
(002.064375)  vcan0  00000170   [8]  51 00 00 00 00 00 00 00
(002.064590)  vcan0  0000014A   [8]  00 00 00 78 26 A7 26 64
(002.064800)  vcan0  00000309   [8]  09 9A 00 00 00 00 00 00
(002.070086)  vcan0  0000014A   [8]  00 00 00 78 1B DE 49 B0
(002.070301)  vcan0  00000309   [8]  09 9D 00 00 00 00 00 00
(002.070511)  vcan0  00000170   [8]  FB 00 00 00 00 00 00 00
(002.070731)  vcan0  0000017C   [8]  27 92 00 00 00 00 00 00
(002.076042)  vcan0  00000309   [8]  09 97 00 00 00 00 00 00
(002.076254)  vcan0  0000014A   [8]  00 00 00 78 10 DD 00 2C
(002.076474)  vcan0  0000017C   [8]  2D AE 00 00 00 00 00 00
(002.076682)  vcan0  00000170   [8]  F6 00 00 00 00 00 00 00
(002.082170)  vcan0  00000309   [8]  09 9B 00 00 00 00 00 00
(002.082391)  vcan0  0000017C   [8]  2A 27 00 00 00 00 00 00
(002.082601)  vcan0  0000014A   [8]  00 00 00 78 07 DD 3D D4
(002.082808)  vcan0  00000170   [8]  EA 00 00 00 00 00 00 00
(002.087788)  vcan0  0000014A   [8]  00 00 00 77 FB 72 01 DE
(002.087998)  vcan0  00000170   [8]  27 00 00 00 00 00 00 00
(002.088216)  vcan0  0000017C   [8]  2F DE 00 00 00 00 00 00
(002.088425)  vcan0  00000309   [8]  09 95 00 00 00 00 00 00
(002.093908)  vcan0  0000017C   [8]  2B EF 00 00 00 00 00 00
(002.094120)  vcan0  00000170   [8]  EC 00 00 00 00 00 00 00
(002.094331)  vcan0  0000014A   [8]  00 00 00 77 F5 A8 36 8A
(002.094540)  vcan0  00000309   [8]  09 99 00 00 00 00 00 00
(002.100619)  vcan0  0000017C   [8]  31 36 00 00 00 00 00 00
(002.100832)  vcan0  00000309   [8]  09 94 00 00 00 00 00 00
(002.101041)  vcan0  00000170   [8]  FF 00 00 00 00 00 00 00
(002.101250)  vcan0  0000014A   [8]  00 00 00 77 ED 30 56 40
(002.106315)  vcan0  0000014A   [8]  00 00 00 77 E2 B5 2F C4
(002.106525)  vcan0  00000170   [8]  10 00 00 00 00 00 00 00
(002.106744)  vcan0  0000017C   [8]  2C D9 00 00 00 00 00 00
(002.106954)  vcan0  00000309   [8]  09 98 00 00 00 00 00 00
(002.112136)  vcan0  00000170   [8]  AA 00 00 00 00 00 00 00
(002.112354)  vcan0  00000309   [8]  09 93 00 00 00 00 00 00
(002.112572)  vcan0  0000017C   [8]  31 AD 00 00 00 00 00 00
(002.112781)  vcan0  0000014A   [8]  00 00 00 77 DC 2F C1 26
(002.118396)  vcan0  0000017C   [8]  2C E3 00 00 00 00 00 00
(002.118609)  vcan0  0000014A   [8]  00 00 00 77 D3 F0 9A 82
(002.118817)  vcan0  00000170   [8]  FF 00 00 00 00 00 00 00
(002.119026)  vcan0  00000309   [8]  09 98 00 00 00 00 00 00
(002.124295)  vcan0  00000170   [8]  EB 00 00 00 00 00 00 00
(002.124514)  vcan0  0000014A   [8]  00 00 00 77 CD E4 CA 02
(002.124733)  vcan0  0000017C   [8]  31 47 00 00 00 00 00 00
(002.124943)  vcan0  00000309   [8]  09 94 00 00 00 00 00 00
(002.130355)  vcan0  00000170   [8]  47 00 00 00 00 00 00 00
(002.130580)  vcan0  0000017C   [8]  2C 18 00 00 00 00 00 00
(002.130790)  vcan0  00000309   [8]  09 99 00 00 00 00 00 00
(002.130999)  vcan0  0000014A   [8]  00 00 00 77 C5 38 A6 1C
(002.135882)  vcan0  00000309   [8]  09 95 00 00 00 00 00 00
(002.136097)  vcan0  00000170   [8]  D5 00 00 00 00 00 00 00
(002.136319)  vcan0  0000017C   [8]  30 19 00 00 00 00 00 00
(002.136530)  vcan0  0000014A   [8]  00 00 00 77 C0 F9 06 6A
(002.142025)  vcan0  0000017C   [8]  2A 93 00 00 00 00 00 00
(002.142244)  vcan0  0000014A   [8]  00 00 00 77 B5 E0 9A 46
(002.142457)  vcan0  00000309   [8]  09 9B 00 00 00 00 00 00
(002.142721)  vcan0  00000170   [8]  4A 00 00 00 00 00 00 00
(002.148267)  vcan0  00000170   [8]  5E 00 00 00 00 00 00 00
(002.148509)  vcan0  00000309   [8]  09 97 00 00 00 00 00 00
(002.148734)  vcan0  0000014A   [8]  00 00 00 77 B1 72 B6 7E
(002.148972)  vcan0  0000017C   [8]  2E 44 00 00 00 00 00 00
(002.154478)  vcan0  0000014A   [8]  00 00 00 77 AE 28 5E 50
(002.154701)  vcan0  00000170   [8]  9F 00 00 00 00 00 00 00
(002.154931)  vcan0  00000309   [8]  09 9D 00 00 00 00 00 00
(002.155168)  vcan0  0000017C   [8]  28 7C 00 00 00 00 00 00
(002.160239)  vcan0  00000309   [8]  09 99 00 00 00 00 00 00
(002.160459)  vcan0  0000014A   [8]  00 00 00 77 A6 6B 47 0A
(002.160669)  vcan0  00000170   [8]  20 00 00 00 00 00 00 00
(002.160889)  vcan0  0000017C   [8]  2B F1 00 00 00 00 00 00
(002.166871)  vcan0  0000014A   [8]  00 00 00 77 9F 94 00 94
(002.167103)  vcan0  00000309   [8]  09 9F 00 00 00 00 00 00
(002.167341)  vcan0  0000017C   [8]  25 FF 00 00 00 00 00 00
(002.167559)  vcan0  00000170   [8]  96 00 00 00 00 00 00 00
(002.172094)  vcan0  00000170   [8]  9A 00 00 00 00 00 00 00
(002.172321)  vcan0  00000309   [8]  09 9C 00 00 00 00 00 00
(002.172535)  vcan0  0000014A   [8]  00 00 00 77 9D 70 22 E4
(002.172757)  vcan0  0000017C   [8]  29 52 00 00 00 00 00 00
(002.178181)  vcan0  0000017C   [8]  23 4E 00 00 00 00 00 00
(002.178407)  vcan0  0000014A   [8]  00 00 00 77 97 43 4C E2
(002.178618)  vcan0  00000170   [8]  4D 00 00 00 00 00 00 00
(002.178830)  vcan0  00000309   [8]  09 A2 00 00 00 00 00 00
(002.184226)  vcan0  00000170   [8]  27 00 00 00 00 00 00 00
(002.184466)  vcan0  0000014A   [8]  00 00 00 77 92 B7 5F DE
(002.184706)  vcan0  0000017C   [8]  26 96 00 00 00 00 00 00
(002.184932)  vcan0  00000309   [8]  09 9E 00 00 00 00 00 00
(002.190263)  vcan0  0000017C   [8]  20 9A 00 00 00 00 00 00
(002.190492)  vcan0  00000309   [8]  09 A4 00 00 00 00 00 00
(002.190709)  vcan0  00000170   [8]  5A 00 00 00 00 00 00 00
(002.190953)  vcan0  0000014A   [8]  00 00 00 77 90 7E 35 4A
(002.196341)  vcan0  0000017C   [8]  23 F0 00 00 00 00 00 00
(002.196563)  vcan0  00000170   [8]  F8 00 00 00 00 00 00 00
(002.196788)  vcan0  00000309   [8]  09 A1 00 00 00 00 00 00
(002.197029)  vcan0  0000014A   [8]  00 00 00 00 5A EA 37 80
(002.202258)  vcan0  0000014A   [8]  00 00 00 4B CB 2A DF 60
(002.202481)  vcan0  00000309   [8]  09 A6 00 00 00 00 00 00
(002.202695)  vcan0  00000170   [8]  8F 00 00 00 00 00 00 00
(002.202920)  vcan0  0000017C   [8]  1E 92 00 00 00 00 00 00
(002.207949)  vcan0  00000170   [8]  F3 00 00 00 00 00 00 00
(002.208178)  vcan0  0000014A   [8]  00 00 00 4C 5D D9 81 FA
(002.208393)  vcan0  00000309   [8]  09 A3 00 00 00 00 00 00
(002.208617)  vcan0  0000017C   [8]  21 C5 00 00 00 00 00 00
(002.214109)  vcan0  00000309   [8]  09 A8 00 00 00 00 00 00
(002.214333)  vcan0  0000017C   [8]  1C 6A 00 00 00 00 00 00
(002.214544)  vcan0  00000170   [8]  A4 00 00 00 00 00 00 00
(002.214755)  vcan0  0000014A   [8]  00 00 00 4D 4D 5E 0A 32
(002.220060)  vcan0  0000014A   [8]  00 00 00 4E 19 99 08 B2
(002.220273)  vcan0  00000170   [8]  97 00 00 00 00 00 00 00
(002.220481)  vcan0  00000202   [8]  00 3F 00 00 00 00 00 00
(002.220702)  vcan0  0000017C   [8]  20 0D 00 00 00 00 00 00
(002.220913)  vcan0  00000309   [8]  09 A5 00 00 00 00 00 00
(002.226097)  vcan0  00000170   [8]  41 00 00 00 00 00 00 00
(002.226320)  vcan0  00000309   [8]  09 AA 00 00 00 00 00 00
(002.226540)  vcan0  0000017C   [8]  1A C3 00 00 00 00 00 00
(002.226751)  vcan0  0000014A   [8]  00 00 00 4F 31 39 B0 40
(002.232503)  vcan0  00000170   [8]  CF 00 00 00 00 00 00 00
(002.232746)  vcan0  0000014A   [8]  00 00 00 50 21 87 E8 FC
(002.232972)  vcan0  00000309   [8]  09 A6 00 00 00 00 00 00
(002.233208)  vcan0  0000017C   [8]  1E A1 00 00 00 00 00 00
(002.238137)  vcan0  0000017C   [8]  19 83 00 00 00 00 00 00
(002.238364)  vcan0  00000309   [8]  09 AB 00 00 00 00 00 00
(002.238574)  vcan0  00000170   [8]  04 00 00 00 00 00 00 00
(002.238787)  vcan0  0000014A   [8]  00 00 00 51 51 0B 92 08
(002.244091)  vcan0  000001A3   [8]  00 00 00 00 00 00 00 00
(002.244314)  vcan0  00000374   [8]  00 00 00 00 00 00 00 00
(002.244526)  vcan0  00000309   [8]  09 A7 00 00 00 00 00 00
(002.244744)  vcan0  0000017C   [8]  1D A6 00 00 00 00 00 00
(002.244958)  vcan0  0000037B   [8]  00 00 00 00 00 00 00 00
(002.245167)  vcan0  0000018F   [8]  00 00 5C 00 00 00 00 00
(002.245383)  vcan0  00000326   [8]  00 00 00 00 00 00 00 00
(002.245597)  vcan0  000001A4   [8]  00 67 00 00 00 00 00 00
(002.245803)  vcan0  00000170   [8]  98 00 00 00 00 00 00 00
(002.246012)  vcan0  0000014A   [8]  00 00 00 52 55 2F D4 12
(002.250012)  vcan0  0000014A   [8]  00 00 00 53 90 90 2E B0
(002.250240)  vcan0  0000017C   [8]  18 BF 00 00 00 00 00 00
(002.250452)  vcan0  00000170   [8]  B7 00 00 00 00 00 00 00
(002.250665)  vcan0  00000309   [8]  09 AC 00 00 00 00 00 00
(002.255965)  vcan0  00000170   [8]  0F 00 00 00 00 00 00 00
(002.256186)  vcan0  0000014A   [8]  00 00 00 54 AA A7 CE D4
(002.256405)  vcan0  0000017C   [8]  1D 25 00 00 00 00 00 00
(002.256616)  vcan0  00000309   [8]  09 A8 00 00 00 00 00 00
(002.261848)  vcan0  0000017C   [8]  18 78 00 00 00 00 00 00
(002.262067)  vcan0  00000309   [8]  09 AC 00 00 00 00 00 00
(002.262278)  vcan0  0000014A   [8]  00 00 00 55 F7 E8 BD 40
(002.262487)  vcan0  00000170   [8]  BC 00 00 00 00 00 00 00
(002.267877)  vcan0  00000309   [8]  09 A8 00 00 00 00 00 00
(002.268091)  vcan0  00000170   [8]  59 00 00 00 00 00 00 00
(002.268312)  vcan0  0000017C   [8]  1D 1E 00 00 00 00 00 00
(002.268524)  vcan0  0000014A   [8]  00 00 00 57 0F 4C 46 96
(002.274045)  vcan0  00000309   [8]  09 AC 00 00 00 00 00 00
(002.274267)  vcan0  0000014A   [8]  00 00 00 58 58 57 58 C2
(002.274491)  vcan0  0000017C   [8]  18 A9 00 00 00 00 00 00
(002.274704)  vcan0  00000170   [8]  6E 00 00 00 00 00 00 00
(002.280030)  vcan0  00000309   [8]  09 A7 00 00 00 00 00 00
(002.280248)  vcan0  0000014A   [8]  00 00 00 59 6C A4 47 12
(002.280469)  vcan0  0000017C   [8]  1D 8A 00 00 00 00 00 00
(002.280679)  vcan0  00000170   [8]  A0 00 00 00 00 00 00 00
(002.285910)  vcan0  00000309   [8]  09 AB 00 00 00 00 00 00
(002.286132)  vcan0  0000017C   [8]  19 46 00 00 00 00 00 00
(002.286342)  vcan0  00000170   [8]  23 00 00 00 00 00 00 00
(002.286554)  vcan0  0000014A   [8]  00 00 00 5A A9 7E 8B 7A
(002.291941)  vcan0  0000017C   [8]  1E 5A 00 00 00 00 00 00
(002.292171)  vcan0  00000309   [8]  09 A6 00 00 00 00 00 00
(002.292395)  vcan0  0000014A   [8]  00 00 00 5B B3 44 06 44
(002.292613)  vcan0  00000170   [8]  D0 00 00 00 00 00 00 00
(002.298189)  vcan0  0000014A   [8]  00 00 00 5C E1 E5 67 0C
(002.298419)  vcan0  0000017C   [8]  1A 3E 00 00 00 00 00 00
(002.298632)  vcan0  00000309   [8]  09 AA 00 00 00 00 00 00
(002.298843)  vcan0  00000170   [8]  E9 00 00 00 00 00 00 00
(002.304113)  vcan0  0000014A   [8]  00 00 00 5D DE 89 63 C8
(002.304327)  vcan0  00000170   [8]  41 00 00 00 00 00 00 00
(002.304594)  vcan0  00000309   [8]  09 A5 00 00 00 00 00 00
(002.304815)  vcan0  0000017C   [8]  1F 7A 00 00 00 00 00 00
(002.310528)  vcan0  00000170   [8]  E9 00 00 00 00 00 00 00
(002.310770)  vcan0  0000014A   [8]  00 00 00 5E FD 3D 07 B6
(002.310996)  vcan0  00000309   [8]  09 A9 00 00 00 00 00 00
(002.311235)  vcan0  0000017C   [8]  1B 7B 00 00 00 00 00 00
(002.316433)  vcan0  00000309   [8]  09 A4 00 00 00 00 00 00
(002.316663)  vcan0  0000014A   [8]  00 00 00 5F EE 61 2A 38
(002.316900)  vcan0  0000017C   [8]  20 D4 00 00 00 00 00 00
(002.317118)  vcan0  00000170   [8]  21 00 00 00 00 00 00 00
(002.322273)  vcan0  0000014A   [8]  00 00 00 60 FB 8D 49 20
(002.322503)  vcan0  00000309   [8]  09 A8 00 00 00 00 00 00
(002.322740)  vcan0  0000017C   [8]  1C E7 00 00 00 00 00 00
(002.322958)  vcan0  00000170   [8]  53 00 00 00 00 00 00 00
(002.328321)  vcan0  0000014A   [8]  00 00 00 61 DC FE 2E 72
(002.328546)  vcan0  00000170   [8]  DD 00 00 00 00 00 00 00
(002.328771)  vcan0  00000309   [8]  09 A2 00 00 00 00 00 00
(002.329008)  vcan0  0000017C   [8]  22 4E 00 00 00 00 00 00
(002.334089)  vcan0  0000014A   [8]  00 00 00 62 D6 D0 3F 88
(002.334316)  vcan0  0000017C   [8]  1E 67 00 00 00 00 00 00
(002.334527)  vcan0  00000170   [8]  7E 00 00 00 00 00 00 00
(002.334737)  vcan0  00000309   [8]  09 A6 00 00 00 00 00 00
(002.339993)  vcan0  0000014A   [8]  00 00 00 63 A8 03 84 28
(002.340207)  vcan0  00000170   [8]  DE 00 00 00 00 00 00 00
(002.340432)  vcan0  0000017C   [8]  23 D1 00 00 00 00 00 00
(002.340643)  vcan0  00000309   [8]  09 A1 00 00 00 00 00 00
(002.345938)  vcan0  00000309   [8]  09 A5 00 00 00 00 00 00
(002.346162)  vcan0  0000017C   [8]  1F E3 00 00 00 00 00 00
(002.346374)  vcan0  0000014A   [8]  00 00 00 64 93 85 43 E4
(002.346583)  vcan0  00000170   [8]  63 00 00 00 00 00 00 00
(002.351966)  vcan0  0000017C   [8]  25 43 00 00 00 00 00 00
(002.352177)  vcan0  00000170   [8]  AE 00 00 00 00 00 00 00
(002.352388)  vcan0  00000309   [8]  09 A0 00 00 00 00 00 00
(002.352598)  vcan0  0000014A   [8]  00 00 00 65 55 6F E3 18
(002.357993)  vcan0  0000014A   [8]  00 00 00 66 2E 6A 13 52
(002.358236)  vcan0  0000017C   [8]  21 44 00 00 00 00 00 00
(002.358455)  vcan0  00000170   [8]  C7 00 00 00 00 00 00 00
(002.358678)  vcan0  00000309   [8]  09 A4 00 00 00 00 00 00
(002.364098)  vcan0  00000309   [8]  09 9E 00 00 00 00 00 00
(002.364313)  vcan0  00000170   [8]  D0 00 00 00 00 00 00 00
(002.364535)  vcan0  0000017C   [8]  26 8F 00 00 00 00 00 00
(002.364746)  vcan0  0000014A   [8]  00 00 00 66 E4 33 C1 54
(002.370148)  vcan0  00000309   [8]  09 A2 00 00 00 00 00 00
(002.370373)  vcan0  00000170   [8]  C3 00 00 00 00 00 00 00
(002.370612)  vcan0  0000017C   [8]  22 76 00 00 00 00 00 00
(002.370834)  vcan0  0000014A   [8]  00 00 00 67 AB DE E2 A8
(002.376649)  vcan0  0000017C   [8]  27 A3 00 00 00 00 00 00
(002.376951)  vcan0  00000170   [8]  6E 00 00 00 00 00 00 00
(002.377165)  vcan0  0000014A   [8]  00 00 00 68 50 18 05 F8
(002.377376)  vcan0  00000309   [8]  09 9D 00 00 00 00 00 00
(002.382876)  vcan0  00000309   [8]  09 A1 00 00 00 00 00 00
(002.383090)  vcan0  00000170   [8]  F9 00 00 00 00 00 00 00
(002.383303)  vcan0  0000014A   [8]  00 00 00 69 08 8C B2 7C
(002.383522)  vcan0  0000017C   [8]  23 68 00 00 00 00 00 00
(002.388164)  vcan0  00000309   [8]  09 9C 00 00 00 00 00 00
(002.388383)  vcan0  0000014A   [8]  00 00 00 69 A2 EC C9 E0
(002.388593)  vcan0  00000170   [8]  6B 00 00 00 00 00 00 00
(002.388813)  vcan0  0000017C   [8]  28 72 00 00 00 00 00 00
(002.394127)  vcan0  00000170   [8]  BC 00 00 00 00 00 00 00
(002.394353)  vcan0  0000017C   [8]  24 11 00 00 00 00 00 00
(002.394651)  vcan0  00000309   [8]  09 A1 00 00 00 00 00 00
(002.394862)  vcan0  0000014A   [8]  00 00 00 6A 4B 87 39 6E
(002.400273)  vcan0  0000017C   [8]  28 F2 00 00 00 00 00 00
(002.400505)  vcan0  0000014A   [8]  00 00 00 6A D8 8E 74 08
(002.400742)  vcan0  00000309   [8]  09 9C 00 00 00 00 00 00
(002.400957)  vcan0  00000170   [8]  DD 00 00 00 00 00 00 00
(002.406099)  vcan0  00000309   [8]  09 A0 00 00 00 00 00 00
(002.406324)  vcan0  0000017C   [8]  24 69 00 00 00 00 00 00
(002.406536)  vcan0  0000014A   [8]  00 00 00 6B 73 7B 1D BA
(002.406745)  vcan0  00000170   [8]  74 00 00 00 00 00 00 00
(002.412058)  vcan0  0000017C   [8]  29 22 00 00 00 00 00 00
(002.412275)  vcan0  00000309   [8]  09 9C 00 00 00 00 00 00
(002.412484)  vcan0  00000170   [8]  73 00 00 00 00 00 00 00
(002.412695)  vcan0  0000014A   [8]  00 00 00 6B F6 82 84 84
(002.418432)  vcan0  00000170   [8]  BE 00 00 00 00 00 00 00
(002.418668)  vcan0  00000309   [8]  09 A0 00 00 00 00 00 00
(002.418882)  vcan0  0000014A   [8]  00 00 00 6C 80 6D 77 3C
(002.419104)  vcan0  0000017C   [8]  24 71 00 00 00 00 00 00
(002.424224)  vcan0  00000309   [8]  09 9C 00 00 00 00 00 00
(002.424451)  vcan0  0000017C   [8]  29 02 00 00 00 00 00 00
(002.424668)  vcan0  00000170   [8]  19 00 00 00 00 00 00 00
(002.424881)  vcan0  0000014A   [8]  00 00 00 6C FA 0D B0 80
(002.430165)  vcan0  0000017C   [8]  24 2D 00 00 00 00 00 00
(002.430395)  vcan0  0000014A   [8]  00 00 00 6D 7C C7 2A 5C
(002.430613)  vcan0  00000170   [8]  F2 00 00 00 00 00 00 00
(002.430836)  vcan0  00000309   [8]  09 A1 00 00 00 00 00 00
(002.436173)  vcan0  0000014A   [8]  00 00 00 6D E7 00 BA CA
(002.436400)  vcan0  0000017C   [8]  28 9A 00 00 00 00 00 00
(002.436611)  vcan0  00000309   [8]  09 9C 00 00 00 00 00 00
(002.436820)  vcan0  00000170   [8]  CB 00 00 00 00 00 00 00
(002.442602)  vcan0  00000309   [8]  09 A1 00 00 00 00 00 00
(002.442829)  vcan0  0000017C   [8]  23 A7 00 00 00 00 00 00
(002.443040)  vcan0  00000170   [8]  0E 00 00 00 00 00 00 00
(002.443254)  vcan0  0000014A   [8]  01 FF FF F6 B1 6D 03 6E
(002.447988)  vcan0  0000014A   [8]  00 00 00 01 68 CC F6 CE
(002.448215)  vcan0  0000017C   [8]  27 FD 00 00 00 00 00 00
(002.448426)  vcan0  00000170   [8]  A0 00 00 00 00 00 00 00
(002.448637)  vcan0  00000309   [8]  09 9D 00 00 00 00 00 00
(002.454262)  vcan0  00000170   [8]  56 00 00 00 00 00 00 00
(002.454507)  vcan0  00000309   [8]  09 A1 00 00 00 00 00 00
(002.454747)  vcan0  0000017C   [8]  23 70 00 00 00 00 00 00
(002.454972)  vcan0  0000014A   [8]  00 00 00 02 27 3E 89 66
(002.460324)  vcan0  00000309   [8]  09 9D 00 00 00 00 00 00
(002.460546)  vcan0  00000170   [8]  11 00 00 00 00 00 00 00
(002.460772)  vcan0  0000014A   [8]  00 00 00 03 20 2A 89 A2
(002.461012)  vcan0  0000017C   [8]  27 8B 00 00 00 00 00 00
(002.466311)  vcan0  00000309   [8]  09 A1 00 00 00 00 00 00
(002.466526)  vcan0  00000170   [8]  90 00 00 00 00 00 00 00
(002.466747)  vcan0  0000017C   [8]  24 09 00 00 00 00 00 00
(002.466955)  vcan0  00000202   [8]  00 32 00 00 00 00 00 00
(002.467165)  vcan0  0000014A   [8]  00 00 00 05 40 AE 3E 76
(002.472105)  vcan0  0000017C   [8]  27 D3 00 00 00 00 00 00
(002.472319)  vcan0  00000170   [8]  A2 00 00 00 00 00 00 00
(002.472537)  vcan0  00000309   [8]  09 9D 00 00 00 00 00 00
(002.472749)  vcan0  0000014A   [8]  00 00 00 07 3C C5 AA 48
(002.477944)  vcan0  0000017C   [8]  24 1A 00 00 00 00 00 00
(002.478165)  vcan0  0000014A   [8]  00 00 00 0A 0C A2 89 9C
(002.478379)  vcan0  00000309   [8]  09 A1 00 00 00 00 00 00
(002.478594)  vcan0  00000170   [8]  CB 00 00 00 00 00 00 00
(002.484250)  vcan0  0000017C   [8]  28 16 00 00 00 00 00 00
(002.484479)  vcan0  00000170   [8]  D3 00 00 00 00 00 00 00
(002.484708)  vcan0  00000309   [8]  09 9D 00 00 00 00 00 00
(002.484940)  vcan0  0000014A   [8]  00 00 00 0C 70 B0 3F 5A
(002.489969)  vcan0  00000170   [8]  D4 00 00 00 00 00 00 00
(002.490194)  vcan0  00000309   [8]  09 A1 00 00 00 00 00 00
(002.490407)  vcan0  0000014A   [8]  00 00 00 0F 8E AA F1 A0
(002.490630)  vcan0  0000017C   [8]  23 B6 00 00 00 00 00 00
(002.496156)  vcan0  0000017C   [8]  27 B8 00 00 00 00 00 00
(002.496372)  vcan0  0000014A   [8]  00 00 00 12 2D 66 E3 0E
(002.496583)  vcan0  00000170   [8]  4A 00 00 00 00 00 00 00
(002.496793)  vcan0  00000309   [8]  09 9D 00 00 00 00 00 00
(002.502239)  vcan0  0000017C   [8]  22 ED 00 00 00 00 00 00
(002.502455)  vcan0  0000014A   [8]  00 00 00 15 90 F9 C8 BC
(002.502663)  vcan0  00000170   [8]  8B 00 00 00 00 00 00 00
(002.502873)  vcan0  00000309   [8]  09 A2 00 00 00 00 00 00
(002.508158)  vcan0  0000014A   [8]  00 00 00 18 75 69 49 22
(002.508383)  vcan0  0000017C   [8]  26 E8 00 00 00 00 00 00
(002.508595)  vcan0  00000170   [8]  9D 00 00 00 00 00 00 00
(002.508807)  vcan0  00000309   [8]  09 9E 00 00 00 00 00 00
(002.513904)  vcan0  00000309   [8]  09 A3 00 00 00 00 00 00
(002.514125)  vcan0  0000017C   [8]  21 DD 00 00 00 00 00 00
(002.514335)  vcan0  00000170   [8]  C3 00 00 00 00 00 00 00
(002.514546)  vcan0  0000014A   [8]  00 00 00 1B E7 8D 8C 36
(002.520437)  vcan0  00000170   [8]  66 00 00 00 00 00 00 00
(002.520657)  vcan0  0000014A   [8]  00 00 00 1E D2 4C E4 D8
(002.520877)  vcan0  0000017C   [8]  25 D3 00 00 00 00 00 00
(002.521090)  vcan0  00000309   [8]  09 9F 00 00 00 00 00 00
(002.525863)  vcan0  00000170   [8]  44 00 00 00 00 00 00 00
(002.526080)  vcan0  0000014A   [8]  00 00 00 22 37 E7 00 E2
(002.526289)  vcan0  00000309   [8]  09 A4 00 00 00 00 00 00
(002.526506)  vcan0  0000017C   [8]  20 A7 00 00 00 00 00 00
(002.532030)  vcan0  00000170   [8]  40 00 00 00 00 00 00 00
(002.532246)  vcan0  0000014A   [8]  00 00 00 25 1B AD B3 EA
(002.532457)  vcan0  00000309   [8]  09 A0 00 00 00 00 00 00
(002.532676)  vcan0  0000017C   [8]  24 9D 00 00 00 00 00 00
(002.537855)  vcan0  00000170   [8]  D4 00 00 00 00 00 00 00
(002.538081)  vcan0  0000017C   [8]  1F 68 00 00 00 00 00 00
(002.538291)  vcan0  00000309   [8]  09 A5 00 00 00 00 00 00
(002.538501)  vcan0  0000014A   [8]  00 00 00 28 66 08 C9 D0
(002.543973)  vcan0  0000017C   [8]  23 67 00 00 00 00 00 00
(002.544193)  vcan0  0000014A   [8]  00 00 00 2B 33 F2 D2 30
(002.544405)  vcan0  00000309   [8]  09 A1 00 00 00 00 00 00
(002.544614)  vcan0  00000170   [8]  86 00 00 00 00 00 00 00
(002.549879)  vcan0  00000170   [8]  92 00 00 00 00 00 00 00
(002.550097)  vcan0  00000309   [8]  09 A7 00 00 00 00 00 00
(002.550316)  vcan0  0000017C   [8]  1E 3B 00 00 00 00 00 00
(002.550526)  vcan0  0000014A   [8]  00 00 00 2E 60 80 A0 E2
(002.555956)  vcan0  00000170   [8]  D7 00 00 00 00 00 00 00
(002.556182)  vcan0  0000017C   [8]  22 4D 00 00 00 00 00 00
(002.556392)  vcan0  00000309   [8]  09 A3 00 00 00 00 00 00
(002.556601)  vcan0  0000014A   [8]  00 00 00 31 0E 90 EE 9A
(002.562016)  vcan0  0000017C   [8]  1D 36 00 00 00 00 00 00
(002.562229)  vcan0  0000014A   [8]  00 00 00 34 14 73 12 50
(002.562438)  vcan0  00000170   [8]  79 00 00 00 00 00 00 00
(002.562647)  vcan0  00000309   [8]  09 A8 00 00 00 00 00 00
(002.567898)  vcan0  0000014A   [8]  00 00 00 36 A3 25 A0 D8
(002.568118)  vcan0  0000017C   [8]  21 64 00 00 00 00 00 00
(002.568327)  vcan0  00000170   [8]  69 00 00 00 00 00 00 00
(002.568537)  vcan0  00000309   [8]  09 A3 00 00 00 00 00 00
(002.574013)  vcan0  0000014A   [8]  00 00 00 39 76 F6 26 5A
(002.574248)  vcan0  00000170   [8]  EA 00 00 00 00 00 00 00
(002.574463)  vcan0  00000309   [8]  09 A8 00 00 00 00 00 00
(002.574683)  vcan0  0000017C   [8]  1C 6A 00 00 00 00 00 00
(002.580001)  vcan0  00000170   [8]  4F 00 00 00 00 00 00 00
(002.580234)  vcan0  0000014A   [8]  00 00 00 3B E0 A7 68 E6
(002.580448)  vcan0  00000309   [8]  09 A4 00 00 00 00 00 00
(002.580669)  vcan0  0000017C   [8]  20 B9 00 00 00 00 00 00
(002.585977)  vcan0  00000309   [8]  09 A9 00 00 00 00 00 00
(002.586190)  vcan0  00000170   [8]  09 00 00 00 00 00 00 00
(002.586416)  vcan0  0000017C   [8]  1B E1 00 00 00 00 00 00
(002.586657)  vcan0  0000014A   [8]  00 00 00 3E 8B DF 89 16
(002.591981)  vcan0  0000017C   [8]  20 55 00 00 00 00 00 00
(002.592196)  vcan0  00000309   [8]  09 A4 00 00 00 00 00 00
(002.592409)  vcan0  0000014A   [8]  00 00 00 40 CD E0 5B 72
(002.592619)  vcan0  00000170   [8]  74 00 00 00 00 00 00 00
(002.598204)  vcan0  0000017C   [8]  1B A0 00 00 00 00 00 00
(002.598439)  vcan0  0000014A   [8]  00 00 00 43 47 08 07 74
(002.598657)  vcan0  00000170   [8]  8F 00 00 00 00 00 00 00
(002.598896)  vcan0  00000309   [8]  09 A9 00 00 00 00 00 00
(002.604257)  vcan0  00000309   [8]  09 A5 00 00 00 00 00 00
(002.604475)  vcan0  0000014A   [8]  00 00 00 45 61 97 91 60
(002.604696)  vcan0  0000017C   [8]  20 39 00 00 00 00 00 00
(002.604906)  vcan0  00000170   [8]  D8 00 00 00 00 00 00 00
(002.610197)  vcan0  00000170   [8]  35 00 00 00 00 00 00 00
(002.610422)  vcan0  0000014A   [8]  00 00 00 47 B2 26 D8 12
(002.610636)  vcan0  00000309   [8]  09 A9 00 00 00 00 00 00
(002.610857)  vcan0  0000017C   [8]  1B A7 00 00 00 00 00 00
(002.616024)  vcan0  00000170   [8]  1D 00 00 00 00 00 00 00
(002.616255)  vcan0  0000017C   [8]  20 63 00 00 00 00 00 00
(002.616468)  vcan0  0000014A   [8]  00 00 00 49 A3 50 83 92
(002.616678)  vcan0  00000309   [8]  09 A4 00 00 00 00 00 00
(002.622030)  vcan0  0000014A   [8]  00 00 00 4B C7 B1 75 A2
(002.622257)  vcan0  00000170   [8]  6D 00 00 00 00 00 00 00
(002.622501)  vcan0  0000017C   [8]  1B EF 00 00 00 00 00 00
(002.622725)  vcan0  00000309   [8]  09 A9 00 00 00 00 00 00
(002.628309)  vcan0  00000170   [8]  50 00 00 00 00 00 00 00
(002.628552)  vcan0  0000014A   [8]  00 00 00 4D 90 A5 65 48
(002.628778)  vcan0  00000309   [8]  09 A4 00 00 00 00 00 00
(002.629017)  vcan0  0000017C   [8]  20 CA 00 00 00 00 00 00
(002.634363)  vcan0  0000017C   [8]  1C 70 00 00 00 00 00 00
(002.634581)  vcan0  00000309   [8]  09 A8 00 00 00 00 00 00
(002.634792)  vcan0  0000014A   [8]  00 00 00 4F 8E A7 81 E4
(002.635002)  vcan0  00000170   [8]  EA 00 00 00 00 00 00 00
(002.640042)  vcan0  00000309   [8]  09 A3 00 00 00 00 00 00
(002.640257)  vcan0  0000014A   [8]  00 00 00 51 33 BB 70 54
(002.640467)  vcan0  00000170   [8]  9B 00 00 00 00 00 00 00
(002.640688)  vcan0  0000017C   [8]  21 63 00 00 00 00 00 00
(002.646086)  vcan0  00000170   [8]  FB 00 00 00 00 00 00 00
(002.646305)  vcan0  00000309   [8]  09 A8 00 00 00 00 00 00
(002.646517)  vcan0  0000014A   [8]  00 00 00 53 07 9E 6F 92
(002.646735)  vcan0  0000017C   [8]  1D 1D 00 00 00 00 00 00
(002.652035)  vcan0  00000170   [8]  4A 00 00 00 00 00 00 00
(002.652264)  vcan0  0000017C   [8]  22 23 00 00 00 00 00 00
(002.652476)  vcan0  0000014A   [8]  00 00 00 54 8C 98 C1 52
(002.652686)  vcan0  00000309   [8]  09 A3 00 00 00 00 00 00
(002.658017)  vcan0  0000017C   [8]  1D E8 00 00 00 00 00 00
(002.658232)  vcan0  00000309   [8]  09 A7 00 00 00 00 00 00
