(000.000000)  vcan0  1FFFFFFF   [8]  00 00 00 00 00 00 00 00
(000.003417)  vcan0  00000326   [8]  00 00 00 00 00 00 00 00
(000.003648)  vcan0  0000017C   [8]  4B 00 00 00 00 00 00 00
(000.003860)  vcan0  000001A3   [8]  00 00 00 00 00 00 00 00
(000.004070)  vcan0  0000018F   [8]  00 00 83 00 00 00 00 00
(000.004285)  vcan0  000001A4   [8]  00 67 00 00 00 00 00 00
(000.004494)  vcan0  00000309   [8]  00 9A 00 00 00 00 00 00
(000.004700)  vcan0  00000202   [8]  00 EE 00 00 00 00 00 00
(000.004912)  vcan0  0000037B   [8]  00 00 00 00 00 00 00 00
(000.005122)  vcan0  0000014A   [8]  00 00 00 EE 6B 28 1D CE
(000.005335)  vcan0  00000374   [8]  00 00 00 00 00 00 00 00
(000.005543)  vcan0  00000170   [8]  E4 00 00 00 00 00 00 00
(000.009038)  vcan0  00000309   [8]  00 B7 00 00 00 00 00 00
(000.009255)  vcan0  0000014A   [8]  00 00 01 65 A0 BC 3B 9A
(000.009477)  vcan0  0000017C   [8]  4B 00 00 00 00 00 00 00
(000.009687)  vcan0  00000170   [8]  07 00 00 00 00 00 00 00
(000.014045)  vcan0  0000017C   [8]  4B 00 00 00 00 00 00 00
(000.014260)  vcan0  00000170   [8]  18 00 00 00 00 00 00 00
(000.014474)  vcan0  00000309   [8]  00 D3 00 00 00 00 00 00
(000.014685)  vcan0  0000014A   [8]  00 00 01 DC D6 50 EE 6C
(000.020806)  vcan0  00000170   [8]  8C 00 00 00 00 00 00 00
(000.021042)  vcan0  0000017C   [8]  4B 00 00 00 00 00 00 00
(000.021254)  vcan0  0000014A   [8]  00 00 02 54 0B E4 77 36
(000.021465)  vcan0  00000309   [8]  00 EF 00 00 00 00 00 00
(000.028981)  vcan0  00000309   [8]  01 0B 00 00 00 00 00 00
(000.029196)  vcan0  00000170   [8]  A9 00 00 00 00 00 00 00
(000.029417)  vcan0  0000017C   [8]  4B 00 00 00 00 00 00 00
(000.029629)  vcan0  0000014A   [8]  00 00 02 CB 41 78 00 00
(000.043748)  vcan0  0000017C   [8]  4B 00 00 00 00 00 00 00
(000.043972)  vcan0  0000014A   [8]  00 00 03 42 77 0D DC D6
(000.044184)  vcan0  00000309   [8]  01 27 00 00 00 00 00 00
(000.044393)  vcan0  00000170   [8]  DD 00 00 00 00 00 00 00
(000.058610)  vcan0  00000170   [8]  43 00 00 00 00 00 00 00
(000.058847)  vcan0  0000017C   [8]  4B 00 00 00 00 00 00 00
(000.059059)  vcan0  00000309   [8]  01 44 00 00 00 00 00 00
(000.059270)  vcan0  0000014A   [8]  00 00 03 48 BA 62 59 04
(000.067746)  vcan0  00000170   [8]  4E 00 00 00 00 00 00 00
(000.067968)  vcan0  00000309   [8]  01 60 00 00 00 00 00 00
(000.068178)  vcan0  0000014A   [8]  00 00 03 49 A5 16 9F A6
(000.068397)  vcan0  0000017C   [8]  4B 00 00 00 00 00 00 00
(000.074542)  vcan0  00000309   [8]  01 7C 00 00 00 00 00 00
(000.074755)  vcan0  00000170   [8]  AE 00 00 00 00 00 00 00
(000.074976)  vcan0  0000017C   [8]  4B 00 00 00 00 00 00 00
(000.075186)  vcan0  0000014A   [8]  00 00 03 4A 8F CA E6 48
(000.082024)  vcan0  0000017C   [8]  4B 00 00 00 00 00 00 00
(000.082238)  vcan0  00000309   [8]  01 98 00 00 00 00 00 00
(000.082447)  vcan0  00000170   [8]  2E 00 00 00 00 00 00 00
(000.082657)  vcan0  0000014A   [8]  00 00 03 4B 7A 7F 2C EA
(000.089492)  vcan0  0000017C   [8]  4B 00 00 00 00 00 00 00
(000.089705)  vcan0  00000170   [8]  ED 00 00 00 00 00 00 00
(000.089917)  vcan0  0000014A   [8]  00 00 03 4B 7A 7F 2C EA
(000.090126)  vcan0  00000309   [8]  01 B5 00 00 00 00 00 00
(000.098000)  vcan0  0000014A   [8]  00 00 03 4B 7A 7F 2C EA
(000.098214)  vcan0  00000309   [8]  01 D1 00 00 00 00 00 00
(000.098431)  vcan0  0000017C   [8]  4B 00 00 00 00 00 00 00
(000.098639)  vcan0  00000170   [8]  E1 00 00 00 00 00 00 00
(000.105197)  vcan0  0000014A   [8]  00 00 03 4B 7A 7F 2C EA
(000.105420)  vcan0  0000017C   [8]  4B 00 00 00 00 00 00 00
(000.105629)  vcan0  00000309   [8]  01 ED 00 00 00 00 00 00
(000.105837)  vcan0  00000170   [8]  95 00 00 00 00 00 00 00
(000.112982)  vcan0  00000170   [8]  BB 00 00 00 00 00 00 00
(000.113210)  vcan0  0000017C   [8]  4B 00 00 00 00 00 00 00
(000.113421)  vcan0  0000014A   [8]  00 00 03 4B 7A 7F 2C EA
(000.113630)  vcan0  00000309   [8]  02 09 00 00 00 00 00 00
(000.120929)  vcan0  0000014A   [8]  00 00 03 4B 7A 7F 2C EA
(000.121151)  vcan0  0000017C   [8]  4B 00 00 00 00 00 00 00
(000.121365)  vcan0  00000309   [8]  02 25 00 00 00 00 00 00
(000.121573)  vcan0  00000170   [8]  12 00 00 00 00 00 00 00
(000.128725)  vcan0  0000017C   [8]  4B 00 00 00 00 00 00 00
(000.128939)  vcan0  00000309   [8]  02 42 00 00 00 00 00 00
(000.129147)  vcan0  00000170   [8]  DE 00 00 00 00 00 00 00
(000.129357)  vcan0  0000014A   [8]  00 00 03 4B 7A 7F 2C EA
(000.136839)  vcan0  00000309   [8]  02 5E 00 00 00 00 00 00
(000.137050)  vcan0  00000170   [8]  4E 00 00 00 00 00 00 00
(000.137268)  vcan0  0000017C   [8]  4B 00 00 00 00 00 00 00
(000.137479)  vcan0  0000014A   [8]  00 00 03 4B 7A 7F 2C EA
(000.144154)  vcan0  00000309   [8]  02 7A 00 00 00 00 00 00
(000.144377)  vcan0  0000017C   [8]  4B 00 00 00 00 00 00 00
(000.144585)  vcan0  00000170   [8]  81 00 00 00 00 00 00 00
(000.144795)  vcan0  0000014A   [8]  00 00 03 4B 7A 7F 2C EA
(000.152354)  vcan0  0000017C   [8]  4B 00 00 00 00 00 00 00
(000.152566)  vcan0  00000309   [8]  02 96 00 00 00 00 00 00
(000.152776)  vcan0  0000014A   [8]  00 00 03 4B 7A 7F 2C EA
(000.152983)  vcan0  00000170   [8]  84 00 00 00 00 00 00 00
(000.160126)  vcan0  0000017C   [8]  4B 00 00 00 00 00 00 00
(000.160339)  vcan0  00000170   [8]  EC 00 00 00 00 00 00 00
(000.160550)  vcan0  0000014A   [8]  00 00 03 4B 7A 7F 2C EA
(000.160759)  vcan0  00000309   [8]  02 B3 00 00 00 00 00 00
(000.166497)  vcan0  00000170   [8]  6F 00 00 00 00 00 00 00
(000.166724)  vcan0  0000017C   [8]  4B 00 00 00 00 00 00 00
(000.166935)  vcan0  0000014A   [8]  00 00 03 4B 7A 7F 2C EA
(000.167143)  vcan0  00000309   [8]  02 CF 00 00 00 00 00 00
(000.173996)  vcan0  00000309   [8]  02 EB 00 00 00 00 00 00
(000.174208)  vcan0  00000170   [8]  15 00 00 00 00 00 00 00
(000.174427)  vcan0  0000017C   [8]  4B 00 00 00 00 00 00 00
(000.174636)  vcan0  0000014A   [8]  00 00 03 4B 7A 7F 2C EA
(000.180973)  vcan0  00000309   [8]  03 07 00 00 00 00 00 00
(000.181197)  vcan0  0000017C   [8]  4B 00 00 00 00 00 00 00
(000.181408)  vcan0  0000014A   [8]  00 00 03 4B 7A 7F 2C EA
(000.181616)  vcan0  00000170   [8]  B4 00 00 00 00 00 00 00
(000.187555)  vcan0  0000014A   [8]  00 00 03 4B 7A 7F 2C EA
(000.187768)  vcan0  00000309   [8]  03 23 00 00 00 00 00 00
(000.187986)  vcan0  0000017C   [8]  4B 00 00 00 00 00 00 00
(000.188193)  vcan0  00000170   [8]  7E 00 00 00 00 00 00 00
(000.194121)  vcan0  00000309   [8]  03 40 00 00 00 00 00 00
(000.194345)  vcan0  0000017C   [8]  4B 00 00 00 00 00 00 00
(000.194554)  vcan0  00000170   [8]  F1 00 00 00 00 00 00 00
(000.194763)  vcan0  0000014A   [8]  00 00 03 4B 7A 7F 2C EA
(000.200877)  vcan0  0000014A   [8]  00 00 03 4B 7A 7F 2C EA
(000.201087)  vcan0  00000170   [8]  7D 00 00 00 00 00 00 00
(000.201298)  vcan0  00000309   [8]  03 5C 00 00 00 00 00 00
(000.201514)  vcan0  0000017C   [8]  4B 00 00 00 00 00 00 00
(000.207582)  vcan0  0000014A   [8]  00 00 03 4B 7A 7F 2C EA
(000.207792)  vcan0  00000170   [8]  1F 00 00 00 00 00 00 00
(000.208011)  vcan0  0000017C   [8]  4B 00 00 00 00 00 00 00
(000.208220)  vcan0  00000309   [8]  03 78 00 00 00 00 00 00
(000.214513)  vcan0  0000017C   [8]  4B 00 00 00 00 00 00 00
(000.214728)  vcan0  00000309   [8]  03 94 00 00 00 00 00 00
(000.214937)  vcan0  00000170   [8]  25 00 00 00 00 00 00 00
(000.215146)  vcan0  0000014A   [8]  00 00 03 4B 7A 7F 2C EA
(000.220707)  vcan0  00000309   [8]  03 B1 00 00 00 00 00 00
(000.220920)  vcan0  00000170   [8]  4D 00 00 00 00 00 00 00
(000.221131)  vcan0  0000014A   [8]  00 00 03 4B 7A 7F 2C EA
(000.221350)  vcan0  0000017C   [8]  4B 00 00 00 00 00 00 00
(000.227332)  vcan0  00000170   [8]  DB 00 00 00 00 00 00 00
(000.227559)  vcan0  00000309   [8]  03 CD 00 00 00 00 00 00
(000.227781)  vcan0  0000017C   [8]  4B 00 00 00 00 00 00 00
(000.227991)  vcan0  0000014A   [8]  00 00 03 4B 7A 7F 2C EA
(000.234504)  vcan0  00000170   [8]  60 00 00 00 00 00 00 00
(000.234725)  vcan0  0000014A   [8]  00 00 03 4B 7A 7F 2C EA
(000.234944)  vcan0  0000017C   [8]  4B 00 00 00 00 00 00 00
(000.235154)  vcan0  00000309   [8]  03 E9 00 00 00 00 00 00
(000.240969)  vcan0  0000014A   [8]  00 00 03 4B 7A 7F 2C EA
(000.241191)  vcan0  0000017C   [8]  4B 00 00 00 00 00 00 00
(000.241401)  vcan0  00000309   [8]  04 05 00 00 00 00 00 00
(000.241609)  vcan0  00000170   [8]  8F 00 00 00 00 00 00 00
(000.247609)  vcan0  00000309   [8]  04 21 00 00 00 00 00 00
(000.247823)  vcan0  0000014A   [8]  00 00 03 4B 7A 7F 2C EA
(000.248041)  vcan0  0000017C   [8]  4B 00 00 00 00 00 00 00
(000.248250)  vcan0  00000170   [8]  23 00 00 00 00 00 00 00
(000.254597)  vcan0  0000014A   [8]  00 00 03 4B 7A 7F 2C EA
(000.254811)  vcan0  00000170   [8]  43 00 00 00 00 00 00 00
(000.255037)  vcan0  0000017C   [8]  4B 00 00 00 00 00 00 00
(000.255250)  vcan0  00000309   [8]  04 3E 00 00 00 00 00 00
(000.261169)  vcan0  00000309   [8]  03 B0 00 00 00 00 00 00
(000.261384)  vcan0  0000014A   [8]  00 00 03 4B 7A 7F 2C EA
(000.261592)  vcan0  00000170   [8]  2E 00 00 00 00 00 00 00
(000.261810)  vcan0  0000017C   [8]  4B 00 00 00 00 00 00 00
(000.268288)  vcan0  0000014A   [8]  00 00 03 4B 7A 7F 2C EA
(000.268513)  vcan0  0000017C   [8]  4B 00 00 00 00 00 00 00
(000.268724)  vcan0  00000309   [8]  03 37 00 00 00 00 00 00
(000.268933)  vcan0  00000170   [8]  E5 00 00 00 00 00 00 00
(000.274801)  vcan0  0000014A   [8]  00 00 03 4B 7A 7F 2C EA
(000.275014)  vcan0  00000170   [8]  0E 00 00 00 00 00 00 00
(000.275225)  vcan0  00000309   [8]  02 CB 00 00 00 00 00 00
(000.275444)  vcan0  0000017C   [8]  4B 00 00 00 00 00 00 00
(000.281806)  vcan0  00000170   [8]  3C 00 00 00 00 00 00 00
(000.282027)  vcan0  00000309   [8]  02 6B 00 00 00 00 00 00
(000.282238)  vcan0  0000014A   [8]  00 00 03 4B 7A 7F 2C EA
(000.282455)  vcan0  0000017C   [8]  4B 00 00 00 00 00 00 00
(000.288577)  vcan0  0000017C   [8]  4B 00 00 00 00 00 00 00
(000.288792)  vcan0  0000014A   [8]  00 00 03 4B 7A 7F 2C EA
(000.289000)  vcan0  00000170   [8]  DB 00 00 00 00 00 00 00
(000.289210)  vcan0  00000309   [8]  02 14 00 00 00 00 00 00
(000.294866)  vcan0  0000017C   [8]  4B 00 00 00 00 00 00 00
(000.295077)  vcan0  00000170   [8]  3C 00 00 00 00 00 00 00
(000.295289)  vcan0  00000309   [8]  01 C7 00 00 00 00 00 00
(000.295498)  vcan0  0000014A   [8]  00 00 03 4B 7A 7F 2C EA
(000.301956)  vcan0  0000014A   [8]  00 00 03 4B 7A 7F 2C EA
(000.302177)  vcan0  0000017C   [8]  4B 00 00 00 00 00 00 00
(000.302386)  vcan0  00000170   [8]  6A 00 00 00 00 00 00 00
(000.302596)  vcan0  00000309   [8]  01 82 00 00 00 00 00 00
(000.308939)  vcan0  0000017C   [8]  4B 00 00 00 00 00 00 00
(000.309152)  vcan0  00000202   [8]  00 E6 00 00 00 00 00 00
(000.309363)  vcan0  0000014A   [8]  00 00 03 4B 7A 7F 2C EA
(000.309573)  vcan0  00000309   [8]  01 45 00 00 00 00 00 00
(000.309778)  vcan0  00000170   [8]  1F 00 00 00 00 00 00 00
(000.315609)  vcan0  00000170   [8]  7F 00 00 00 00 00 00 00
(000.315829)  vcan0  0000014A   [8]  00 00 03 4B 7A 7F 2C EA
(000.316049)  vcan0  0000017C   [8]  4B 00 00 00 00 00 00 00
(000.316258)  vcan0  00000309   [8]  01 0F 00 00 00 00 00 00
(000.322489)  vcan0  0000017C   [8]  4B 00 00 00 00 00 00 00
(000.322706)  vcan0  0000014A   [8]  00 00 03 4B 7A 7F 2C EA
(000.322917)  vcan0  00000309   [8]  00 DE 00 00 00 00 00 00
(000.323125)  vcan0  00000170   [8]  64 00 00 00 00 00 00 00
(000.329349)  vcan0  0000014A   [8]  00 00 03 4B 7A 7F 2C EA
(000.329570)  vcan0  00000309   [8]  00 B4 00 00 00 00 00 00
(000.329798)  vcan0  0000017C   [8]  4B 00 00 00 00 00 00 00
(000.330011)  vcan0  00000170   [8]  9A 00 00 00 00 00 00 00
(000.336250)  vcan0  00000309   [8]  00 8E 00 00 00 00 00 00
(000.336485)  vcan0  0000017C   [8]  4B 00 00 00 00 00 00 00
(000.336697)  vcan0  00000170   [8]  7B 00 00 00 00 00 00 00
(000.336911)  vcan0  0000014A   [8]  00 00 03 4B 7A 7F 2C EA
(000.342928)  vcan0  00000309   [8]  00 6D 00 00 00 00 00 00
(000.343143)  vcan0  0000014A   [8]  00 00 03 4B 7A 7F 2C EA
(000.343362)  vcan0  0000017C   [8]  4B 00 00 00 00 00 00 00
(000.343570)  vcan0  00000170   [8]  D6 00 00 00 00 00 00 00
(000.350267)  vcan0  0000017C   [8]  4B 00 00 00 00 00 00 00
(000.350482)  vcan0  00000309   [8]  00 4F 00 00 00 00 00 00
(000.350691)  vcan0  00000170   [8]  4F 00 00 00 00 00 00 00
(000.350901)  vcan0  0000014A   [8]  00 00 03 4B 7A 7F 2C EA
(000.356783)  vcan0  00000170   [8]  67 00 00 00 00 00 00 00
(000.357003)  vcan0  0000014A   [8]  00 00 03 4B 7A 7F 2C EA
(000.357214)  vcan0  00000309   [8]  00 36 00 00 00 00 00 00
(000.357432)  vcan0  0000017C   [8]  4B 00 00 00 00 00 00 00
(000.362629)  vcan0  00000170   [8]  EC 00 00 00 00 00 00 00
(000.362869)  vcan0  00000309   [8]  00 20 00 00 00 00 00 00
(000.363094)  vcan0  0000014A   [8]  00 00 03 4B 7A 7F 2C EA
(000.363333)  vcan0  0000017C   [8]  4B 00 00 00 00 00 00 00
(000.365239)  vcan0  00000170   [8]  4D 00 00 00 00 00 00 00
(000.365471)  vcan0  0000017C   [8]  4B 00 00 00 00 00 00 00
(000.365685)  vcan0  0000014A   [8]  00 00 03 4B 7A 7F 2C EA
(000.365895)  vcan0  00000309   [8]  00 0C 00 00 00 00 00 00
(000.371354)  vcan0  0000017C   [8]  4B 00 00 00 00 00 00 00
(000.371569)  vcan0  0000014A   [8]  00 00 03 4B 7A 7F 2C EA
(000.371779)  vcan0  00000309   [8]  00 05 00 00 00 00 00 00
(000.371987)  vcan0  00000170   [8]  71 00 00 00 00 00 00 00
(000.377619)  vcan0  0000014A   [8]  00 00 03 4B 7A 7F 2C EA
(000.377831)  vcan0  00000170   [8]  C1 00 00 00 00 00 00 00
(000.378057)  vcan0  0000017C   [8]  4B 00 00 00 00 00 00 00
(000.378267)  vcan0  00000309   [8]  00 13 00 00 00 00 00 00
(000.383215)  vcan0  0000014A   [8]  00 00 03 4B 7A 7F 2C EA
(000.383442)  vcan0  00000309   [8]  00 1F 00 00 00 00 00 00
(000.383678)  vcan0  0000017C   [8]  4B 00 00 00 00 00 00 00
(000.383894)  vcan0  00000170   [8]  FF 00 00 00 00 00 00 00
(000.389157)  vcan0  00000309   [8]  00 2A 00 00 00 00 00 00
(000.389370)  vcan0  00000170   [8]  76 00 00 00 00 00 00 00
(000.389582)  vcan0  0000014A   [8]  00 00 03 4B 7A 7F 2C EA
(000.389801)  vcan0  0000017C   [8]  4B 00 00 00 00 00 00 00
(000.394942)  vcan0  0000017C   [8]  4B 00 00 00 00 00 00 00
(000.395159)  vcan0  00000309   [8]  00 32 00 00 00 00 00 00
(000.395370)  vcan0  0000014A   [8]  00 00 03 4B 7A 7F 2C EA
(000.395578)  vcan0  00000170   [8]  2C 00 00 00 00 00 00 00
(000.401940)  vcan0  0000017C   [8]  4B 00 00 00 00 00 00 00
(000.402157)  vcan0  0000014A   [8]  00 00 03 4B 7A 7F 2C EA
(000.402366)  vcan0  00000309   [8]  00 3A 00 00 00 00 00 00
(000.402575)  vcan0  00000170   [8]  04 00 00 00 00 00 00 00
(000.407788)  vcan0  0000014A   [8]  00 00 03 4B 7A 7F 2C EA
(000.407999)  vcan0  00000170   [8]  B0 00 00 00 00 00 00 00
(000.408218)  vcan0  0000017C   [8]  4B 00 00 00 00 00 00 00
(000.408428)  vcan0  00000309   [8]  00 40 00 00 00 00 00 00
(000.412967)  vcan0  0000017C   [8]  4B 00 00 00 00 00 00 00
(000.413180)  vcan0  0000014A   [8]  00 00 03 4B 7A 7F 2C EA
(000.413388)  vcan0  00000170   [8]  39 00 00 00 00 00 00 00
(000.413597)  vcan0  00000309   [8]  00 44 00 00 00 00 00 00
(000.419290)  vcan0  0000017C   [8]  4B 00 00 00 00 00 00 00
(000.419503)  vcan0  00000309   [8]  00 48 00 00 00 00 00 00
(000.419712)  vcan0  00000170   [8]  E9 00 00 00 00 00 00 00
(000.419921)  vcan0  0000014A   [8]  00 00 03 4B 7A 7F 2C EA
(000.425228)  vcan0  0000017C   [8]  4B 00 00 00 00 00 00 00
(000.425440)  vcan0  00000309   [8]  00 4B 00 00 00 00 00 00
(000.425649)  vcan0  00000170   [8]  DC 00 00 00 00 00 00 00
(000.425857)  vcan0  0000014A   [8]  00 00 03 4B 7A 7F 2C EA
(000.432091)  vcan0  00000170   [8]  5A 00 00 00 00 00 00 00
(000.432319)  vcan0  0000017C   [8]  4B 00 00 00 00 00 00 00
(000.432530)  vcan0  0000014A   [8]  00 00 03 4B 7A 7F 2C EA
(000.432739)  vcan0  00000309   [8]  00 4D 00 00 00 00 00 00
(000.437469)  vcan0  00000170   [8]  33 00 00 00 00 00 00 00
(000.437694)  vcan0  0000017C   [8]  4B 00 00 00 00 00 00 00
(000.437905)  vcan0  00000309   [8]  00 4F 00 00 00 00 00 00
(000.438116)  vcan0  0000014A   [8]  00 00 03 4B 7A 7F 2C EA
(000.443462)  vcan0  00000309   [8]  00 4F 00 00 00 00 00 00
(000.443675)  vcan0  0000014A   [8]  00 00 03 4B 7A 7F 2C EA
(000.443894)  vcan0  0000017C   [8]  4B 00 00 00 00 00 00 00
(000.444101)  vcan0  00000170   [8]  21 00 00 00 00 00 00 00
(000.448902)  vcan0  00000309   [8]  00 50 00 00 00 00 00 00
(000.449118)  vcan0  00000170   [8]  C1 00 00 00 00 00 00 00
(000.449330)  vcan0  0000014A   [8]  00 00 03 4B 7A 7F 2C EA
(000.449549)  vcan0  0000017C   [8]  4B 00 00 00 00 00 00 00
(000.455082)  vcan0  00000309   [8]  00 4F 00 00 00 00 00 00
(000.455295)  vcan0  0000014A   [8]  00 00 03 4B 74 4B 45 3C
(000.455514)  vcan0  0000017C   [8]  4B 00 00 00 00 00 00 00
(000.455722)  vcan0  00000170   [8]  5E 00 00 00 00 00 00 00
(000.460956)  vcan0  0000017C   [8]  4B 00 00 00 00 00 00 00
(000.461170)  vcan0  00000309   [8]  00 6C 00 00 00 00 00 00
(000.461381)  vcan0  0000014A   [8]  00 00 03 48 52 4D 35 78
(000.461589)  vcan0  00000170   [8]  B0 00 00 00 00 00 00 00
(000.466846)  vcan0  00000309   [8]  00 9E 00 00 00 00 00 00
(000.467068)  vcan0  0000017C   [8]  4B 00 00 00 00 00 00 00
(000.467276)  vcan0  00000170   [8]  D9 00 00 00 00 00 00 00
(000.467486)  vcan0  0000014A   [8]  00 00 03 45 20 89 DD 2A
(000.472813)  vcan0  0000014A   [8]  00 00 03 42 C2 94 1E 8A
(000.473036)  vcan0  0000017C   [8]  4B 00 00 00 00 00 00 00
(000.473247)  vcan0  00000309   [8]  00 C1 00 00 00 00 00 00
(000.473455)  vcan0  00000170   [8]  7B 00 00 00 00 00 00 00
(000.478704)  vcan0  0000014A   [8]  00 00 03 3E 38 C0 F1 1E
(000.478927)  vcan0  0000017C   [8]  4B 00 00 00 00 00 00 00
(000.479138)  vcan0  00000309   [8]  00 FC 00 00 00 00 00 00
(000.479345)  vcan0  00000170   [8]  16 00 00 00 00 00 00 00
(000.485082)  vcan0  0000014A   [8]  00 00 03 3A 09 9A FA C8
(000.485296)  vcan0  00000309   [8]  01 28 00 00 00 00 00 00
(000.485505)  vcan0  00000170   [8]  5C 00 00 00 00 00 00 00
(000.485724)  vcan0  0000017C   [8]  4B 00 00 00 00 00 00 00
(000.490740)  vcan0  00000309   [8]  01 47 00 00 00 00 00 00
(000.490961)  vcan0  0000017C   [8]  4B 00 00 00 00 00 00 00
(000.491171)  vcan0  0000014A   [8]  00 00 03 36 5E 63 6E 36
(000.491380)  vcan0  00000170   [8]  DF 00 00 00 00 00 00 00
(000.496851)  vcan0  0000017C   [8]  4B 00 00 00 00 00 00 00
(000.497067)  vcan0  0000014A   [8]  00 00 03 30 B7 B5 B2 0C
(000.497277)  vcan0  00000309   [8]  01 76 00 00 00 00 00 00
(000.497485)  vcan0  00000170   [8]  CA 00 00 00 00 00 00 00
(000.502690)  vcan0  0000014A   [8]  00 00 03 2B C5 DB 59 5C
(000.502902)  vcan0  00000170   [8]  35 00 00 00 00 00 00 00
(000.503118)  vcan0  00000309   [8]  01 9F 00 00 00 00 00 00
(000.503337)  vcan0  0000017C   [8]  4B 00 00 00 00 00 00 00
(000.508747)  vcan0  00000170   [8]  48 00 00 00 00 00 00 00
(000.508967)  vcan0  0000014A   [8]  00 00 03 25 EE D8 FE 5E
(000.509178)  vcan0  00000309   [8]  01 C6 00 00 00 00 00 00
(000.509396)  vcan0  0000017C   [8]  4B 00 00 00 00 00 00 00
(000.514826)  vcan0  00000170   [8]  F8 00 00 00 00 00 00 00
(000.515056)  vcan0  0000017C   [8]  4B 00 00 00 00 00 00 00
(000.515268)  vcan0  0000014A   [8]  00 00 03 20 5D E3 41 1E
(000.515477)  vcan0  00000309   [8]  01 E9 00 00 00 00 00 00
(000.520769)  vcan0  00000309   [8]  02 0A 00 00 00 00 00 00
(000.520984)  vcan0  0000014A   [8]  00 00 03 19 FE 20 7B BE
(000.521192)  vcan0  00000170   [8]  B2 00 00 00 00 00 00 00
(000.521410)  vcan0  0000017C   [8]  4B 00 00 00 00 00 00 00
(000.527011)  vcan0  00000170   [8]  51 00 00 00 00 00 00 00
(000.527234)  vcan0  0000014A   [8]  00 00 03 14 00 C1 54 D6
(000.527445)  vcan0  00000309   [8]  02 2B 00 00 00 00 00 00
(000.527664)  vcan0  0000017C   [8]  4B 00 00 00 00 00 00 00
(000.532837)  vcan0  00000309   [8]  02 49 00 00 00 00 00 00
(000.533058)  vcan0  0000017C   [8]  4B 00 00 00 00 00 00 00
(000.533268)  vcan0  00000170   [8]  F2 00 00 00 00 00 00 00
(000.533477)  vcan0  0000014A   [8]  00 00 03 0D 12 38 CE 52
(000.539284)  vcan0  00000309   [8]  02 64 00 00 00 00 00 00
(000.539529)  vcan0  0000017C   [8]  4B 00 00 00 00 00 00 00
(000.539753)  vcan0  0000014A   [8]  00 00 03 06 D8 96 4B A8
(000.539970)  vcan0  00000170   [8]  C2 00 00 00 00 00 00 00
(000.546275)  vcan0  00000170   [8]  B9 00 00 00 00 00 00 00
(000.546507)  vcan0  00000309   [8]  02 81 00 00 00 00 00 00
(000.546729)  vcan0  0000014A   [8]  00 00 02 FF 79 BB 2F 82
(000.546963)  vcan0  0000017C   [8]  4B 00 00 00 00 00 00 00
(000.551700)  vcan0  0000014A   [8]  00 00 02 F8 EA B1 E0 B2
(000.551926)  vcan0  0000017C   [8]  4B 00 00 00 00 00 00 00
(000.552137)  vcan0  00000309   [8]  02 99 00 00 00 00 00 00
(000.552345)  vcan0  00000170   [8]  28 00 00 00 00 00 00 00
(000.557773)  vcan0  0000014A   [8]  00 00 02 F1 38 BF 5C 34
(000.558001)  vcan0  0000017C   [8]  4B 00 00 00 00 00 00 00
(000.558213)  vcan0  00000309   [8]  02 B4 00 00 00 00 00 00
(000.558422)  vcan0  00000202   [8]  00 5C 00 00 00 00 00 00
(000.558629)  vcan0  00000170   [8]  86 00 00 00 00 00 00 00
(000.563497)  vcan0  0000017C   [8]  4B 00 00 00 00 00 00 00
(000.563715)  vcan0  000001A3   [8]  00 00 00 00 00 00 00 00
(000.563927)  vcan0  0000014A   [8]  00 00 02 EA 5E A8 DE 1C
(000.564136)  vcan0  00000170   [8]  CE 00 00 00 00 00 00 00
(000.564346)  vcan0  00000309   [8]  02 CB 00 00 00 00 00 00
(000.564552)  vcan0  0000018F   [8]  00 00 D3 00 00 00 00 00
(000.569293)  vcan0  00000170   [8]  CB 00 00 00 00 00 00 00
(000.569514)  vcan0  00000309   [8]  02 E4 00 00 00 00 00 00
(000.569725)  vcan0  0000014A   [8]  00 00 02 E2 69 5A E9 A0
(000.569946)  vcan0  0000017C   [8]  4B 00 00 00 00 00 00 00
(000.575018)  vcan0  0000017C   [8]  4B 00 00 00 00 00 00 00
(000.575234)  vcan0  00000309   [8]  02 FA 00 00 00 00 00 00
(000.575445)  vcan0  00000170   [8]  8D 00 00 00 00 00 00 00
(000.575659)  vcan0  0000014A   [8]  00 00 02 DB 49 ED 69 68
(000.581082)  vcan0  0000017C   [8]  4B 00 00 00 00 00 00 00
(000.581296)  vcan0  00000309   [8]  03 10 00 00 00 00 00 00
(000.581505)  vcan0  00000170   [8]  B7 00 00 00 00 00 00 00
(000.581716)  vcan0  0000014A   [8]  00 00 02 D3 25 ED EE 76
(000.586868)  vcan0  00000309   [8]  03 25 00 00 00 00 00 00
(000.587094)  vcan0  0000017C   [8]  4B 00 00 00 00 00 00 00
(000.587306)  vcan0  0000014A   [8]  00 00 02 CB CD BB 24 52
(000.587515)  vcan0  00000170   [8]  AF 00 00 00 00 00 00 00
(000.592757)  vcan0  0000014A   [8]  00 00 02 C3 7F 6E B5 58
(000.592967)  vcan0  00000170   [8]  B4 00 00 00 00 00 00 00
(000.593188)  vcan0  0000017C   [8]  4B 00 00 00 00 00 00 00
(000.593398)  vcan0  00000309   [8]  03 3A 00 00 00 00 00 00
(000.608937)  vcan0  0000014A   [8]  00 00 02 BB FA 57 65 EE
(000.609154)  vcan0  00000170   [8]  99 00 00 00 00 00 00 00
(000.609368)  vcan0  00000309   [8]  03 4F 00 00 00 00 00 00
(000.609589)  vcan0  0000017C   [8]  4B 00 00 00 00 00 00 00
(000.618071)  vcan0  00000170   [8]  CC 00 00 00 00 00 00 00
(000.618314)  vcan0  0000017C   [8]  4B 00 00 00 00 00 00 00
(000.618528)  vcan0  00000309   [8]  03 62 00 00 00 00 00 00
(000.618740)  vcan0  0000014A   [8]  00 00 02 B3 99 C7 B9 B2
(000.621003)  vcan0  00000170   [8]  D7 00 00 00 00 00 00 00
(000.621225)  vcan0  00000309   [8]  03 76 00 00 00 00 00 00
(000.621447)  vcan0  0000017C   [8]  4B 00 00 00 00 00 00 00
(000.621657)  vcan0  0000014A   [8]  00 00 02 AB E4 FA 1E 9E
(000.626398)  vcan0  00000309   [8]  03 88 00 00 00 00 00 00
(000.626612)  vcan0  00000170   [8]  0F 00 00 00 00 00 00 00
(000.626834)  vcan0  0000017C   [8]  4B 00 00 00 00 00 00 00
(000.627044)  vcan0  0000014A   [8]  00 00 02 A3 71 7F 91 C4
(000.632468)  vcan0  0000017C   [8]  4B 00 00 00 00 00 00 00
(000.632685)  vcan0  00000309   [8]  03 9C 00 00 00 00 00 00
(000.632897)  vcan0  0000014A   [8]  00 00 02 9B 99 A0 03 96
(000.633106)  vcan0  00000170   [8]  7B 00 00 00 00 00 00 00
(000.638258)  vcan0  00000170   [8]  DE 00 00 00 00 00 00 00
(000.638489)  vcan0  0000017C   [8]  4B 00 00 00 00 00 00 00
(000.638700)  vcan0  00000309   [8]  03 AD 00 00 00 00 00 00
(000.638910)  vcan0  0000014A   [8]  00 00 02 93 21 37 85 90
(000.644174)  vcan0  0000017C   [8]  4B 00 00 00 00 00 00 00
(000.644386)  vcan0  00000170   [8]  33 00 00 00 00 00 00 00
(000.644598)  vcan0  0000014A   [8]  00 00 02 8B 31 1B 07 9A
(000.644808)  vcan0  00000309   [8]  03 C0 00 00 00 00 00 00
(000.650183)  vcan0  00000170   [8]  4C 00 00 00 00 00 00 00
(000.650404)  vcan0  00000309   [8]  03 D1 00 00 00 00 00 00
(000.650615)  vcan0  0000014A   [8]  00 00 02 82 B1 62 94 3A
(000.650834)  vcan0  0000017C   [8]  4B 00 00 00 00 00 00 00
(000.656089)  vcan0  00000309   [8]  03 E3 00 00 00 00 00 00
(000.656304)  vcan0  0000014A   [8]  00 00 02 7A AE 4D 3D 60
(000.656512)  vcan0  00000170   [8]  FD 00 00 00 00 00 00 00
(000.656731)  vcan0  0000017C   [8]  4B 00 00 00 00 00 00 00
(000.662197)  vcan0  00000170   [8]  82 00 00 00 00 00 00 00
(000.662422)  vcan0  00000309   [8]  03 F3 00 00 00 00 00 00
(000.662643)  vcan0  0000017C   [8]  4B 00 00 00 00 00 00 00
(000.662854)  vcan0  0000014A   [8]  00 00 02 72 36 C8 EB E6
(000.668276)  vcan0  00000309   [8]  04 05 00 00 00 00 00 00
(000.668499)  vcan0  0000017C   [8]  4B 00 00 00 00 00 00 00
(000.668709)  vcan0  00000170   [8]  57 00 00 00 00 00 00 00
(000.668920)  vcan0  0000014A   [8]  00 00 02 6A 22 D2 3E D8
(000.674343)  vcan0  00000309   [8]  04 15 00 00 00 00 00 00
(000.674557)  vcan0  0000014A   [8]  00 00 02 61 B6 DA E0 5C
(000.674766)  vcan0  00000170   [8]  B2 00 00 00 00 00 00 00
(000.674985)  vcan0  0000017C   [8]  4B 00 00 00 00 00 00 00
(000.680184)  vcan0  00000170   [8]  4F 00 00 00 00 00 00 00
(000.680415)  vcan0  0000017C   [8]  4B 00 00 00 00 00 00 00
(000.680627)  vcan0  0000014A   [8]  00 00 02 59 9B 5E B0 E2
(000.680837)  vcan0  00000309   [8]  04 26 00 00 00 00 00 00
(000.686667)  vcan0  0000017C   [8]  4B 00 00 00 00 00 00 00
(000.686880)  vcan0  00000309   [8]  04 36 00 00 00 00 00 00
(000.687089)  vcan0  00000170   [8]  B4 00 00 00 00 00 00 00
(000.687298)  vcan0  0000014A   [8]  00 00 02 51 3D 80 32 64
(000.692616)  vcan0  0000014A   [8]  00 00 02 49 18 2C C8 AA
(000.692828)  vcan0  00000170   [8]  1A 00 00 00 00 00 00 00
(000.693051)  vcan0  0000017C   [8]  4B 00 00 00 00 00 00 00
(000.693262)  vcan0  00000309   [8]  04 47 00 00 00 00 00 00
(000.698620)  vcan0  0000014A   [8]  00 00 02 40 D3 94 A7 40
(000.698833)  vcan0  00000170   [8]  D3 00 00 00 00 00 00 00
(000.699054)  vcan0  0000017C   [8]  4B 00 00 00 00 00 00 00
(000.699265)  vcan0  00000309   [8]  04 56 00 00 00 00 00 00
(000.704523)  vcan0  00000309   [8]  04 66 00 00 00 00 00 00
(000.704738)  vcan0  0000014A   [8]  00 00 02 38 B3 CF D5 E8
(000.704949)  vcan0  00000170   [8]  F1 00 00 00 00 00 00 00
(000.705168)  vcan0  0000017C   [8]  4B 00 00 00 00 00 00 00
(000.710288)  vcan0  0000017C   [8]  4B 00 00 00 00 00 00 00
(000.710504)  vcan0  00000309   [8]  04 76 00 00 00 00 00 00
(000.710715)  vcan0  00000170   [8]  64 00 00 00 00 00 00 00
(000.710927)  vcan0  0000014A   [8]  00 00 02 30 82 ED 25 24
(000.716780)  vcan0  00000170   [8]  05 00 00 00 00 00 00 00
(000.717014)  vcan0  0000017C   [8]  4B 00 00 00 00 00 00 00
(000.717225)  vcan0  00000309   [8]  04 85 00 00 00 00 00 00
(000.717435)  vcan0  0000014A   [8]  00 00 02 28 69 9B 18 BA
(000.722278)  vcan0  00000309   [8]  04 94 00 00 00 00 00 00
(000.722491)  vcan0  00000170   [8]  1B 00 00 00 00 00 00 00
(000.722704)  vcan0  0000014A   [8]  00 00 02 20 5A BC 45 AE
(000.722928)  vcan0  0000017C   [8]  4B 00 00 00 00 00 00 00
(000.728289)  vcan0  00000309   [8]  04 A4 00 00 00 00 00 00
(000.728502)  vcan0  00000170   [8]  A9 00 00 00 00 00 00 00
(000.728716)  vcan0  0000014A   [8]  00 00 02 18 56 71 44 A8
(000.728936)  vcan0  0000017C   [8]  4B 00 00 00 00 00 00 00
(000.734323)  vcan0  00000170   [8]  84 00 00 00 00 00 00 00
(000.734546)  vcan0  00000309   [8]  04 B3 00 00 00 00 00 00
(000.734758)  vcan0  0000014A   [8]  00 00 02 10 5D 30 D4 02
(000.734976)  vcan0  0000017C   [8]  4B 00 00 00 00 00 00 00
(000.741062)  vcan0  00000170   [8]  CA 00 00 00 00 00 00 00
(000.741311)  vcan0  0000017C   [8]  4B 00 00 00 00 00 00 00
(000.741534)  vcan0  0000014A   [8]  00 00 02 08 75 5F C0 6A
(000.741755)  vcan0  00000309   [8]  04 C2 00 00 00 00 00 00
(000.746462)  vcan0  00000309   [8]  04 D0 00 00 00 00 00 00
(000.746679)  vcan0  0000014A   [8]  00 00 02 00 95 F1 5F A2
(000.746903)  vcan0  0000017C   [8]  4B 00 00 00 00 00 00 00
(000.747116)  vcan0  00000170   [8]  31 00 00 00 00 00 00 00
(000.752453)  vcan0  0000017C   [8]  4B 00 00 00 00 00 00 00
(000.752667)  vcan0  00000309   [8]  04 DF 00 00 00 00 00 00
(000.752875)  vcan0  00000170   [8]  90 00 00 00 00 00 00 00
(000.753085)  vcan0  0000014A   [8]  00 00 01 F8 CE 1A 9F 58
(000.758410)  vcan0  0000014A   [8]  00 00 01 F1 13 B9 C3 CC
(000.758623)  vcan0  00000170   [8]  3F 00 00 00 00 00 00 00
(000.758835)  vcan0  00000309   [8]  04 EE 00 00 00 00 00 00
(000.759054)  vcan0  0000017C   [8]  4B 00 00 00 00 00 00 00
(000.764315)  vcan0  00000170   [8]  BD 00 00 00 00 00 00 00
(000.764543)  vcan0  0000017C   [8]  4B 00 00 00 00 00 00 00
(000.764755)  vcan0  0000014A   [8]  00 00 01 E9 6A CA 99 56
(000.764965)  vcan0  00000309   [8]  04 FC 00 00 00 00 00 00
(000.770631)  vcan0  0000014A   [8]  00 00 01 E1 D2 E2 05 D4
(000.770843)  vcan0  00000170   [8]  E4 00 00 00 00 00 00 00
(000.771054)  vcan0  00000309   [8]  05 0B 00 00 00 00 00 00
(000.771273)  vcan0  0000017C   [8]  4B 00 00 00 00 00 00 00
(000.776558)  vcan0  0000017C   [8]  4B 00 00 00 00 00 00 00
(000.776771)  vcan0  00000170   [8]  F1 00 00 00 00 00 00 00
(000.776982)  vcan0  00000309   [8]  05 19 00 00 00 00 00 00
(000.777193)  vcan0  0000014A   [8]  00 00 01 DA 49 55 D7 A8
(000.782249)  vcan0  0000014A   [8]  00 00 01 D2 DB 04 9C 8C
(000.782470)  vcan0  0000017C   [8]  4B 00 00 00 00 00 00 00
(000.782681)  vcan0  00000309   [8]  05 27 00 00 00 00 00 00
(000.782889)  vcan0  00000170   [8]  DF 00 00 00 00 00 00 00
(000.788245)  vcan0  0000014A   [8]  00 00 01 CB 75 8F 26 B0
(000.788456)  vcan0  00000170   [8]  2A 00 00 00 00 00 00 00
(000.788668)  vcan0  00000309   [8]  05 35 00 00 00 00 00 00
(000.788887)  vcan0  0000017C   [8]  4B 00 00 00 00 00 00 00
(000.794156)  vcan0  0000017C   [8]  4B 00 00 00 00 00 00 00
(000.794368)  vcan0  00000170   [8]  FA 00 00 00 00 00 00 00
(000.794580)  vcan0  0000014A   [8]  00 00 01 C4 2D 0C B0 AA
(000.794790)  vcan0  00000309   [8]  05 43 00 00 00 00 00 00
(000.800110)  vcan0  0000017C   [8]  4B 00 00 00 00 00 00 00
(000.800328)  vcan0  00000309   [8]  05 51 00 00 00 00 00 00
(000.800537)  vcan0  00000170   [8]  01 00 00 00 00 00 00 00
(000.800747)  vcan0  0000014A   [8]  00 00 01 BC F1 37 E3 64
(000.806257)  vcan0  0000017C   [8]  4B 00 00 00 00 00 00 00
(000.806470)  vcan0  00000170   [8]  A8 00 00 00 00 00 00 00
(000.806684)  vcan0  00000309   [8]  05 5F 00 00 00 00 00 00
(000.806894)  vcan0  0000014A   [8]  00 00 01 B5 CB 37 05 98
(000.812567)  vcan0  0000014A   [8]  00 00 01 AE BB F0 97 DE
(000.812781)  vcan0  00000309   [8]  05 6D 00 00 00 00 00 00
(000.812990)  vcan0  00000202   [8]  00 51 00 00 00 00 00 00
(000.813197)  vcan0  00000170   [8]  A8 00 00 00 00 00 00 00
(000.813417)  vcan0  0000017C   [8]  4B 00 00 00 00 00 00 00
(000.818493)  vcan0  0000014A   [8]  00 00 01 A7 C2 3F 3C 5C
(000.818708)  vcan0  00000309   [8]  05 7B 00 00 00 00 00 00
(000.818917)  vcan0  00000170   [8]  59 00 00 00 00 00 00 00
(000.819135)  vcan0  0000017C   [8]  4B 00 00 00 00 00 00 00
(000.824415)  vcan0  00000309   [8]  05 89 00 00 00 00 00 00
(000.824639)  vcan0  0000017C   [8]  4B 00 00 00 00 00 00 00
(000.824847)  vcan0  00000170   [8]  05 00 00 00 00 00 00 00
(000.825058)  vcan0  0000014A   [8]  00 00 01 A0 E0 4A C2 16
(000.830126)  vcan0  00000170   [8]  0D 00 00 00 00 00 00 00
(000.830346)  vcan0  0000014A   [8]  00 00 01 9A 0C 36 1C AA
(000.830557)  vcan0  00000309   [8]  05 97 00 00 00 00 00 00
(000.830774)  vcan0  0000017C   [8]  4B 00 00 00 00 00 00 00
(000.836727)  vcan0  0000014A   [8]  00 00 01 93 58 54 D5 B0
(000.836940)  vcan0  00000309   [8]  05 A5 00 00 00 00 00 00
(000.837159)  vcan0  0000017C   [8]  4B 00 00 00 00 00 00 00
(000.837367)  vcan0  00000170   [8]  AC 00 00 00 00 00 00 00
(000.842243)  vcan0  00000309   [8]  05 B2 00 00 00 00 00 00
(000.842454)  vcan0  00000170   [8]  56 00 00 00 00 00 00 00
(000.842665)  vcan0  0000014A   [8]  00 00 01 8C B4 60 6C 0C
(000.842884)  vcan0  0000017C   [8]  4B 00 00 00 00 00 00 00
(000.848653)  vcan0  0000014A   [8]  00 00 01 86 28 39 2F F6
(000.848864)  vcan0  00000170   [8]  13 00 00 00 00 00 00 00
(000.849083)  vcan0  0000017C   [8]  4B 00 00 00 00 00 00 00
(000.849293)  vcan0  00000309   [8]  05 C0 00 00 00 00 00 00
(000.854678)  vcan0  0000014A   [8]  00 00 01 7F B1 87 97 76
(000.854894)  vcan0  00000170   [8]  96 00 00 00 00 00 00 00
(000.855107)  vcan0  00000309   [8]  05 CD 00 00 00 00 00 00
(000.855330)  vcan0  0000017C   [8]  4B 00 00 00 00 00 00 00
(000.860659)  vcan0  0000014A   [8]  00 00 01 79 58 2E 46 D4
(000.860874)  vcan0  00000309   [8]  05 DB 00 00 00 00 00 00
(000.861083)  vcan0  00000170   [8]  A5 00 00 00 00 00 00 00
(000.861301)  vcan0  0000017C   [8]  4B 00 00 00 00 00 00 00
(000.866969)  vcan0  0000017C   [8]  4B 00 00 00 00 00 00 00
(000.867184)  vcan0  0000014A   [8]  00 00 01 73 13 6F BD 6E
(000.867394)  vcan0  00000309   [8]  05 E9 00 00 00 00 00 00
(000.867602)  vcan0  00000170   [8]  50 00 00 00 00 00 00 00
(000.872333)  vcan0  00000309   [8]  05 F6 00 00 00 00 00 00
(000.872556)  vcan0  0000017C   [8]  4B 00 00 00 00 00 00 00
(000.872764)  vcan0  00000170   [8]  58 00 00 00 00 00 00 00
(000.872976)  vcan0  0000014A   [8]  00 00 01 6C E6 67 19 1C
(000.878362)  vcan0  00000170   [8]  69 00 00 00 00 00 00 00
(000.878592)  vcan0  0000017C   [8]  4B 00 00 00 00 00 00 00
(000.878804)  vcan0  00000309   [8]  06 04 00 00 00 00 00 00
(000.879014)  vcan0  0000014A   [8]  00 00 01 66 D0 0D 40 A4
(000.884259)  vcan0  0000014A   [8]  00 00 01 60 D0 6C AE 36
(000.884471)  vcan0  00000170   [8]  7C 00 00 00 00 00 00 00
(000.884683)  vcan0  00000309   [8]  06 11 00 00 00 00 00 00
(000.884901)  vcan0  0000017C   [8]  4B 00 00 00 00 00 00 00
(000.890137)  vcan0  00000309   [8]  06 1E 00 00 00 00 00 00
(000.890347)  vcan0  00000170   [8]  4A 00 00 00 00 00 00 00
(000.890566)  vcan0  0000017C   [8]  4B 00 00 00 00 00 00 00
(000.890776)  vcan0  0000014A   [8]  00 00 01 5A E9 61 85 56
(000.896062)  vcan0  0000014A   [8]  00 00 01 55 20 2F DC E6
(000.896285)  vcan0  0000017C   [8]  4B 00 00 00 00 00 00 00
(000.896494)  vcan0  00000170   [8]  8F 00 00 00 00 00 00 00
(000.896704)  vcan0  00000309   [8]  06 2C 00 00 00 00 00 00
(000.902232)  vcan0  00000170   [8]  33 00 00 00 00 00 00 00
(000.902461)  vcan0  0000017C   [8]  4B 00 00 00 00 00 00 00
(000.902672)  vcan0  0000014A   [8]  00 00 01 4F 6C 00 97 C2
(000.902881)  vcan0  00000309   [8]  06 39 00 00 00 00 00 00
(000.908132)  vcan0  00000170   [8]  CC 00 00 00 00 00 00 00
(000.908359)  vcan0  0000017C   [8]  4B 00 00 00 00 00 00 00
(000.908570)  vcan0  0000014A   [8]  00 00 01 49 CC 23 EC 68
(000.908779)  vcan0  00000309   [8]  06 46 00 00 00 00 00 00
(000.914106)  vcan0  0000014A   [8]  00 00 01 44 47 3D 84 C0
(000.914319)  vcan0  00000170   [8]  B9 00 00 00 00 00 00 00
(000.914531)  vcan0  00000309   [8]  06 54 00 00 00 00 00 00
(000.914750)  vcan0  0000017C   [8]  4B 00 00 00 00 00 00 00
(000.920146)  vcan0  0000017C   [8]  4B 00 00 00 00 00 00 00
(000.920359)  vcan0  0000014A   [8]  00 00 01 3E DA 9F B1 1C
(000.920569)  vcan0  00000309   [8]  06 61 00 00 00 00 00 00
(000.920777)  vcan0  00000170   [8]  A5 00 00 00 00 00 00 00
(000.926208)  vcan0  00000309   [8]  06 6E 00 00 00 00 00 00
(000.926476)  vcan0  0000017C   [8]  4B 00 00 00 00 00 00 00
(000.926688)  vcan0  0000014A   [8]  00 00 01 39 85 5B CA B8
(000.926896)  vcan0  00000170   [8]  E6 00 00 00 00 00 00 00
(000.932575)  vcan0  00000170   [8]  79 00 00 00 00 00 00 00
(000.932798)  vcan0  0000014A   [8]  00 00 01 34 4A D6 46 E8
(000.933019)  vcan0  0000017C   [8]  4B 00 00 00 00 00 00 00
(000.933229)  vcan0  00000309   [8]  06 7B 00 00 00 00 00 00
(000.938472)  vcan0  00000170   [8]  80 00 00 00 00 00 00 00
(000.938696)  vcan0  0000014A   [8]  00 00 01 2F 28 C3 3F F4
(000.938907)  vcan0  00000309   [8]  06 88 00 00 00 00 00 00
(000.939126)  vcan0  0000017C   [8]  4B 00 00 00 00 00 00 00
(000.944249)  vcan0  0000014A   [8]  00 00 01 2A 1D 0F DB 42
(000.944463)  vcan0  00000309   [8]  06 95 00 00 00 00 00 00
(000.944671)  vcan0  00000170   [8]  FC 00 00 00 00 00 00 00
(000.944890)  vcan0  0000017C   [8]  4B 00 00 00 00 00 00 00
(000.950569)  vcan0  0000014A   [8]  00 00 01 25 2C C7 24 94
(000.950780)  vcan0  00000170   [8]  EA 00 00 00 00 00 00 00
(000.950992)  vcan0  00000309   [8]  06 A3 00 00 00 00 00 00
(000.951209)  vcan0  0000017C   [8]  4B 00 00 00 00 00 00 00
(000.956765)  vcan0  0000014A   [8]  00 00 01 20 55 17 55 84
(000.956975)  vcan0  00000170   [8]  44 00 00 00 00 00 00 00
(000.957193)  vcan0  0000017C   [8]  4B 00 00 00 00 00 00 00
(000.957402)  vcan0  00000309   [8]  06 B0 00 00 00 00 00 00
(000.962624)  vcan0  00000170   [8]  EF 00 00 00 00 00 00 00
(000.962862)  vcan0  0000017C   [8]  4B 00 00 00 00 00 00 00
(000.963074)  vcan0  00000309   [8]  06 BD 00 00 00 00 00 00
(000.963285)  vcan0  0000014A   [8]  00 00 01 1B 92 F7 F0 96
(000.968348)  vcan0  0000017C   [8]  4B 00 00 00 00 00 00 00
(000.968562)  vcan0  00000309   [8]  06 CA 00 00 00 00 00 00
(000.968771)  vcan0  00000170   [8]  96 00 00 00 00 00 00 00
(000.968980)  vcan0  0000014A   [8]  00 00 01 16 E8 A4 8F 2E
(000.974860)  vcan0  0000017C   [8]  4B 00 00 00 00 00 00 00
(000.975074)  vcan0  00000309   [8]  06 D7 00 00 00 00 00 00
(000.975282)  vcan0  00000170   [8]  9B 00 00 00 00 00 00 00
(000.975491)  vcan0  0000014A   [8]  00 00 01 12 55 0C C7 E0
(000.980590)  vcan0  00000309   [8]  06 E4 00 00 00 00 00 00
(000.980805)  vcan0  0000014A   [8]  00 00 01 0D DD 44 F6 9A
(000.981014)  vcan0  00000170   [8]  84 00 00 00 00 00 00 00
(000.981234)  vcan0  0000017C   [8]  4B 00 00 00 00 00 00 00
(000.986104)  vcan0  00000309   [8]  06 F1 00 00 00 00 00 00
(000.986328)  vcan0  0000017C   [8]  4B 00 00 00 00 00 00 00
(000.986537)  vcan0  00000170   [8]  9C 00 00 00 00 00 00 00
(000.986747)  vcan0  0000014A   [8]  00 00 01 09 7B A9 8E 92
(000.992316)  vcan0  00000309   [8]  06 FE 00 00 00 00 00 00
(000.992528)  vcan0  00000170   [8]  1D 00 00 00 00 00 00 00
(000.992750)  vcan0  0000017C   [8]  4B 00 00 00 00 00 00 00
(000.992960)  vcan0  0000014A   [8]  00 00 01 05 30 0A 3F D2
(000.998062)  vcan0  0000017C   [8]  4B 00 00 00 00 00 00 00
(000.998278)  vcan0  00000309   [8]  07 0B 00 00 00 00 00 00
(000.998487)  vcan0  00000170   [8]  F9 00 00 00 00 00 00 00
(000.998698)  vcan0  0000014A   [8]  00 00 01 00 FC 07 CE A8
(001.004407)  vcan0  0000017C   [8]  4B 00 00 00 00 00 00 00
(001.004619)  vcan0  00000170   [8]  BB 00 00 00 00 00 00 00
(001.004831)  vcan0  00000309   [8]  07 17 00 00 00 00 00 00
(001.005041)  vcan0  0000014A   [8]  00 00 00 FC DC A8 4A E2
(001.010505)  vcan0  0000017C   [8]  4B 00 00 00 00 00 00 00
(001.010715)  vcan0  00000170   [8]  57 00 00 00 00 00 00 00
(001.010927)  vcan0  0000014A   [8]  00 00 00 F8 E8 0D A3 88
(001.011139)  vcan0  00000309   [8]  07 24 00 00 00 00 00 00
(001.016168)  vcan0  00000309   [8]  07 31 00 00 00 00 00 00
(001.016380)  vcan0  00000170   [8]  E9 00 00 00 00 00 00 00
(001.016592)  vcan0  0000014A   [8]  00 00 00 F5 03 52 76 3C
(001.016811)  vcan0  0000017C   [8]  4B 00 00 00 00 00 00 00
(001.022350)  vcan0  0000017C   [8]  4B 00 00 00 00 00 00 00
(001.022565)  vcan0  00000309   [8]  07 3E 00 00 00 00 00 00
(001.022774)  vcan0  00000170   [8]  B5 00 00 00 00 00 00 00
(001.022984)  vcan0  0000014A   [8]  00 00 00 F1 33 6F C3 68
(001.028382)  vcan0  0000014A   [8]  00 00 00 ED 7A BB EA F8
(001.028608)  vcan0  0000017C   [8]  4B 00 00 00 00 00 00 00
(001.028817)  vcan0  00000170   [8]  40 00 00 00 00 00 00 00
(001.029028)  vcan0  00000309   [8]  07 4B 00 00 00 00 00 00
(001.034567)  vcan0  00000170   [8]  97 00 00 00 00 00 00 00
(001.034787)  vcan0  00000309   [8]  07 58 00 00 00 00 00 00
(001.034999)  vcan0  0000014A   [8]  00 00 00 E9 E1 C5 DC A2
(001.035217)  vcan0  0000017C   [8]  4B 00 00 00 00 00 00 00
(001.040556)  vcan0  00000170   [8]  9A 00 00 00 00 00 00 00
(001.040785)  vcan0  0000017C   [8]  4B 00 00 00 00 00 00 00
(001.040995)  vcan0  0000014A   [8]  00 00 00 E6 3A 11 9F 02
(001.041204)  vcan0  00000309   [8]  07 64 00 00 00 00 00 00
(001.046605)  vcan0  00000170   [8]  A5 00 00 00 00 00 00 00
(001.046825)  vcan0  00000309   [8]  07 70 00 00 00 00 00 00
(001.047038)  vcan0  0000014A   [8]  00 00 00 E3 08 51 2F C2
(001.047256)  vcan0  0000017C   [8]  4B 00 00 00 00 00 00 00
(001.052396)  vcan0  0000014A   [8]  00 00 00 DF 0C CD 05 1C
(001.052610)  vcan0  00000309   [8]  07 7D 00 00 00 00 00 00
(001.052828)  vcan0  0000017C   [8]  4B 00 00 00 00 00 00 00
(001.053036)  vcan0  00000170   [8]  54 00 00 00 00 00 00 00
(001.058370)  vcan0  00000309   [8]  07 7F 00 00 00 00 00 00
(001.058584)  vcan0  0000014A   [8]  00 00 00 DC 9A 0E 83 56
(001.058803)  vcan0  0000017C   [8]  4B 00 00 00 00 00 00 00
(001.059011)  vcan0  00000202   [8]  00 D6 00 00 00 00 00 00
(001.059217)  vcan0  00000170   [8]  FF 00 00 00 00 00 00 00
(001.064864)  vcan0  0000014A   [8]  00 00 00 D8 7E FF C7 9A
(001.065076)  vcan0  00000170   [8]  EB 00 00 00 00 00 00 00
(001.065296)  vcan0  0000017C   [8]  4B 00 00 00 00 00 00 00
(001.065506)  vcan0  00000309   [8]  07 8A 00 00 00 00 00 00
(001.070933)  vcan0  000001A4   [8]  00 67 00 00 00 00 00 00
(001.071173)  vcan0  00000374   [8]  00 00 00 00 00 00 00 00
(001.071398)  vcan0  0000014A   [8]  00 00 00 D5 BB D4 0F 18
(001.071615)  vcan0  00000170   [8]  12 00 00 00 00 00 00 00
(001.071830)  vcan0  0000018F   [8]  00 00 0C 00 00 00 00 00
(001.072064)  vcan0  0000017C   [8]  4B 00 00 00 00 00 00 00
(001.072292)  vcan0  0000037B   [8]  00 00 00 00 00 00 00 00
(001.072515)  vcan0  000001A3   [8]  00 00 00 00 00 00 00 00
(001.072744)  vcan0  00000326   [8]  00 00 00 00 00 00 00 00
(001.072964)  vcan0  00000309   [8]  07 82 00 00 00 00 00 00
(001.076292)  vcan0  0000014A   [8]  00 00 00 D2 B1 A4 EB EA
(001.076506)  vcan0  00000170   [8]  5F 00 00 00 00 00 00 00
(001.076718)  vcan0  00000309   [8]  07 8D 00 00 00 00 00 00
(001.076937)  vcan0  0000017C   [8]  4B 00 00 00 00 00 00 00
(001.082148)  vcan0  00000309   [8]  07 8D 00 00 00 00 00 00
(001.082371)  vcan0  0000017C   [8]  4B 00 00 00 00 00 00 00
(001.082581)  vcan0  00000170   [8]  1B 00 00 00 00 00 00 00
(001.082792)  vcan0  0000014A   [8]  00 00 00 D0 01 52 9D AC
(001.088417)  vcan0  0000017C   [8]  4B 00 00 00 00 00 00 00
(001.088634)  vcan0  0000014A   [8]  00 00 00 CC 8C CF 3F 7A
(001.088843)  vcan0  00000170   [8]  28 00 00 00 00 00 00 00
(001.089052)  vcan0  00000309   [8]  07 98 00 00 00 00 00 00
(001.094498)  vcan0  00000170   [8]  6B 00 00 00 00 00 00 00
(001.094718)  vcan0  00000309   [8]  07 97 00 00 00 00 00 00
(001.094930)  vcan0  0000014A   [8]  00 00 00 C9 F9 44 49 32
(001.095148)  vcan0  0000017C   [8]  4B 00 00 00 00 00 00 00
(001.100596)  vcan0  00000309   [8]  07 A3 00 00 00 00 00 00
(001.100810)  vcan0  00000170   [8]  61 00 00 00 00 00 00 00
(001.101030)  vcan0  0000017C   [8]  4B 00 00 00 00 00 00 00
(001.101240)  vcan0  0000014A   [8]  00 00 00 C7 22 0B 3B 48
(001.106462)  vcan0  00000170   [8]  A3 00 00 00 00 00 00 00
(001.106682)  vcan0  00000309   [8]  07 A4 00 00 00 00 00 00
(001.106901)  vcan0  0000017C   [8]  4B 00 00 00 00 00 00 00
(001.107114)  vcan0  0000014A   [8]  00 00 00 C4 B2 30 8B 44
(001.112486)  vcan0  0000017C   [8]  4B 00 00 00 00 00 00 00
(001.112702)  vcan0  00000309   [8]  07 B0 00 00 00 00 00 00
(001.112913)  vcan0  0000014A   [8]  00 00 00 C1 AF 7B 90 C8
(001.113122)  vcan0  00000170   [8]  25 00 00 00 00 00 00 00
(001.118756)  vcan0  00000170   [8]  9B 00 00 00 00 00 00 00
(001.118976)  vcan0  00000309   [8]  07 B2 00 00 00 00 00 00
(001.119187)  vcan0  0000014A   [8]  00 00 00 BF 5F 40 1B C2
(001.119405)  vcan0  0000017C   [8]  4B 00 00 00 00 00 00 00
(001.124476)  vcan0  00000309   [8]  07 BF 00 00 00 00 00 00
(001.124693)  vcan0  0000014A   [8]  00 00 00 BC C9 A4 09 EE
(001.124902)  vcan0  00000170   [8]  1D 00 00 00 00 00 00 00
(001.125122)  vcan0  0000017C   [8]  4B 00 00 00 00 00 00 00
(001.130495)  vcan0  00000309   [8]  07 C1 00 00 00 00 00 00
(001.130709)  vcan0  0000014A   [8]  00 00 00 BA A0 FC 7F 88
(001.130919)  vcan0  00000170   [8]  48 00 00 00 00 00 00 00
(001.131138)  vcan0  0000017C   [8]  4B 00 00 00 00 00 00 00
(001.136843)  vcan0  00000309   [8]  07 CF 00 00 00 00 00 00
(001.137067)  vcan0  0000017C   [8]  4B 00 00 00 00 00 00 00
(001.137280)  vcan0  0000014A   [8]  00 00 00 B7 F5 79 93 5A
(001.137488)  vcan0  00000170   [8]  66 00 00 00 00 00 00 00
(001.142231)  vcan0  0000014A   [8]  00 00 00 B5 E5 59 7A 38
(001.142453)  vcan0  0000017C   [8]  4B 00 00 00 00 00 00 00
(001.142662)  vcan0  00000170   [8]  88 00 00 00 00 00 00 00
(001.142872)  vcan0  00000309   [8]  07 D2 00 00 00 00 00 00
(001.148264)  vcan0  00000170   [8]  9F 00 00 00 00 00 00 00
(001.148485)  vcan0  00000309   [8]  07 E0 00 00 00 00 00 00
(001.148696)  vcan0  0000014A   [8]  00 00 00 B3 9C B8 C6 8A
(001.148914)  vcan0  0000017C   [8]  4B 00 00 00 00 00 00 00
(001.154294)  vcan0  0000014A   [8]  00 00 00 B1 AA 0C E5 D4
(001.154517)  vcan0  0000017C   [8]  4B 00 00 00 00 00 00 00
(001.154725)  vcan0  00000170   [8]  48 00 00 00 00 00 00 00
(001.154935)  vcan0  00000309   [8]  07 E3 00 00 00 00 00 00
(001.160554)  vcan0  00000170   [8]  24 00 00 00 00 00 00 00
(001.160776)  vcan0  0000014A   [8]  00 00 00 AF 50 F8 94 A0
(001.160997)  vcan0  0000017C   [8]  4B 00 00 00 00 00 00 00
(001.161208)  vcan0  00000309   [8]  07 F2 00 00 00 00 00 00
(001.166458)  vcan0  0000014A   [8]  00 00 00 AD 7B 85 8D 28
(001.166671)  vcan0  00000170   [8]  7E 00 00 00 00 00 00 00
(001.166891)  vcan0  0000017C   [8]  4B 00 00 00 00 00 00 00
(001.167101)  vcan0  00000309   [8]  07 F6 00 00 00 00 00 00
(001.172262)  vcan0  00000309   [8]  08 05 00 00 00 00 00 00
(001.172491)  vcan0  0000014A   [8]  00 00 00 AB 76 5C 84 86
(001.172708)  vcan0  00000170   [8]  E8 00 00 00 00 00 00 00
(001.172944)  vcan0  0000017C   [8]  4B 00 00 00 00 00 00 00
(001.178862)  vcan0  00000170   [8]  75 00 00 00 00 00 00 00
(001.179083)  vcan0  00000309   [8]  08 0A 00 00 00 00 00 00
(001.179295)  vcan0  0000014A   [8]  00 00 00 A9 B4 04 63 20
(001.179513)  vcan0  0000017C   [8]  4B 00 00 00 00 00 00 00
(001.184900)  vcan0  0000014A   [8]  00 00 00 A7 A9 FD B5 A6
(001.185125)  vcan0  0000017C   [8]  4B 00 00 00 00 00 00 00
(001.185335)  vcan0  00000309   [8]  08 19 00 00 00 00 00 00
(001.185542)  vcan0  00000170   [8]  8D 00 00 00 00 00 00 00
(001.190582)  vcan0  00000170   [8]  39 00 00 00 00 00 00 00
(001.190814)  vcan0  0000017C   [8]  4B 00 00 00 00 00 00 00
(001.191026)  vcan0  00000309   [8]  08 1E 00 00 00 00 00 00
(001.191236)  vcan0  0000014A   [8]  00 00 00 A6 05 1F 54 46
(001.197032)  vcan0  0000014A   [8]  00 00 00 A4 3D BB 92 1C
(001.197246)  vcan0  00000309   [8]  08 2E 00 00 00 00 00 00
(001.197454)  vcan0  00000170   [8]  FB 00 00 00 00 00 00 00
(001.197673)  vcan0  0000017C   [8]  4B 00 00 00 00 00 00 00
(001.202914)  vcan0  0000014A   [8]  00 00 00 A2 B4 4E 90 64
(001.203128)  vcan0  00000309   [8]  08 33 00 00 00 00 00 00
(001.203336)  vcan0  00000170   [8]  CF 00 00 00 00 00 00 00
(001.203555)  vcan0  0000017C   [8]  4B 00 00 00 00 00 00 00
(001.208315)  vcan0  00000170   [8]  E1 00 00 00 00 00 00 00
(001.208543)  vcan0  0000017C   [8]  4B 00 00 00 00 00 00 00
(001.208755)  vcan0  0000014A   [8]  00 00 00 A0 E2 9F BE A8
(001.208965)  vcan0  00000309   [8]  08 44 00 00 00 00 00 00
(001.214379)  vcan0  00000309   [8]  08 49 00 00 00 00 00 00
(001.214591)  vcan0  00000170   [8]  34 00 00 00 00 00 00 00
(001.214803)  vcan0  0000014A   [8]  00 00 00 9F 71 47 CD 6C
(001.215021)  vcan0  0000017C   [8]  4B 00 00 00 00 00 00 00
(001.220352)  vcan0  0000014A   [8]  00 00 00 9D E0 AA 44 FC
(001.220583)  vcan0  0000017C   [8]  4B 00 00 00 00 00 00 00
(001.220795)  vcan0  00000309   [8]  08 5A 00 00 00 00 00 00
(001.221004)  vcan0  00000170   [8]  A1 00 00 00 00 00 00 00
(001.226214)  vcan0  0000014A   [8]  00 00 00 9C 7E F7 03 A4
(001.226443)  vcan0  0000017C   [8]  4B 00 00 00 00 00 00 00
(001.226652)  vcan0  00000170   [8]  03 00 00 00 00 00 00 00
(001.226863)  vcan0  00000309   [8]  08 5F 00 00 00 00 00 00
(001.232537)  vcan0  0000017C   [8]  4B 00 00 00 00 00 00 00
(001.232760)  vcan0  00000170   [8]  28 00 00 00 00 00 00 00
(001.232984)  vcan0  00000309   [8]  08 70 00 00 00 00 00 00
(001.233206)  vcan0  0000014A   [8]  00 00 00 9A E9 40 77 2C
(001.238403)  vcan0  00000309   [8]  08 76 00 00 00 00 00 00
(001.238628)  vcan0  0000017C   [8]  4B 00 00 00 00 00 00 00
(001.238840)  vcan0  0000014A   [8]  00 00 00 99 A6 CB 86 64
(001.239049)  vcan0  00000170   [8]  4B 00 00 00 00 00 00 00
(001.244516)  vcan0  00000309   [8]  08 87 00 00 00 00 00 00
(001.244740)  vcan0  0000017C   [8]  4B 00 00 00 00 00 00 00
(001.244949)  vcan0  00000170   [8]  A9 00 00 00 00 00 00 00
(001.245160)  vcan0  0000014A   [8]  00 00 00 98 46 49 21 E2
(001.250146)  vcan0  00000309   [8]  08 8D 00 00 00 00 00 00
(001.250368)  vcan0  0000017C   [8]  4B 00 00 00 00 00 00 00
(001.250578)  vcan0  00000170   [8]  E3 00 00 00 00 00 00 00
(001.250788)  vcan0  0000014A   [8]  00 00 00 97 13 B7 E3 7E
(001.256315)  vcan0  00000170   [8]  68 00 00 00 00 00 00 00
(001.256538)  vcan0  00000309   [8]  08 9E 00 00 00 00 00 00
(001.256759)  vcan0  0000017C   [8]  4B 00 00 00 00 00 00 00
(001.256969)  vcan0  0000014A   [8]  00 00 00 95 A5 B9 C8 20
(001.262326)  vcan0  0000017C   [8]  4B 00 00 00 00 00 00 00
(001.262541)  vcan0  00000309   [8]  08 A5 00 00 00 00 00 00
(001.262750)  vcan0  00000170   [8]  71 00 00 00 00 00 00 00
(001.262961)  vcan0  0000014A   [8]  00 00 00 94 8F C8 72 2E
(001.268174)  vcan0  00000309   [8]  08 B6 00 00 00 00 00 00
(001.268386)  vcan0  00000170   [8]  62 00 00 00 00 00 00 00
(001.268598)  vcan0  0000014A   [8]  00 00 00 93 60 76 B2 E2
(001.268818)  vcan0  0000017C   [8]  4B 00 00 00 00 00 00 00
(001.274153)  vcan0  00000309   [8]  08 BC 00 00 00 00 00 00
(001.274377)  vcan0  0000017C   [8]  4B 00 00 00 00 00 00 00
(001.274588)  vcan0  0000014A   [8]  00 00 00 92 47 83 91 14
(001.274797)  vcan0  00000170   [8]  64 00 00 00 00 00 00 00
(001.280239)  vcan0  0000017C   [8]  4B 00 00 00 00 00 00 00
(001.280453)  vcan0  00000309   [8]  08 CE 00 00 00 00 00 00
(001.280664)  vcan0  0000014A   [8]  00 00 00 91 1A 8B AF C8
(001.280873)  vcan0  00000170   [8]  A0 00 00 00 00 00 00 00
(001.286158)  vcan0  0000017C   [8]  4B 00 00 00 00 00 00 00
(001.286372)  vcan0  00000309   [8]  08 D4 00 00 00 00 00 00
(001.286582)  vcan0  0000014A   [8]  00 00 00 90 1E F5 ED B2
(001.286790)  vcan0  00000170   [8]  67 00 00 00 00 00 00 00
(001.292872)  vcan0  0000014A   [8]  00 00 00 8F 10 CF F3 8C
(001.293100)  vcan0  00000309   [8]  08 E6 00 00 00 00 00 00
(001.293343)  vcan0  0000017C   [8]  4B 00 00 00 00 00 00 00
(001.293556)  vcan0  00000170   [8]  98 00 00 00 00 00 00 00
(001.298365)  vcan0  00000170   [8]  FE 00 00 00 00 00 00 00
(001.298586)  vcan0  00000309   [8]  08 ED 00 00 00 00 00 00
(001.298808)  vcan0  0000017C   [8]  4B 00 00 00 00 00 00 00
(001.299019)  vcan0  0000014A   [8]  00 00 00 8E 27 22 31 28
(001.304570)  vcan0  00000309   [8]  08 FE 00 00 00 00 00 00
(001.304793)  vcan0  0000017C   [8]  4B 00 00 00 00 00 00 00
(001.305003)  vcan0  00000170   [8]  AA 00 00 00 00 00 00 00
(001.305209)  vcan0  00000202   [8]  00 9E 00 00 00 00 00 00
(001.305419)  vcan0  0000014A   [8]  00 00 00 8D 16 9D 66 68
(001.310741)  vcan0  00000309   [8]  09 05 00 00 00 00 00 00
(001.310954)  vcan0  00000170   [8]  FB 00 00 00 00 00 00 00
(001.311175)  vcan0  0000017C   [8]  4B 00 00 00 00 00 00 00
(001.311384)  vcan0  0000014A   [8]  00 00 00 8C 43 39 BC D8
(001.316329)  vcan0  0000017C   [8]  4B 00 00 00 00 00 00 00
(001.316545)  vcan0  00000309   [8]  09 17 00 00 00 00 00 00
(001.316755)  vcan0  00000170   [8]  E9 00 00 00 00 00 00 00
(001.316964)  vcan0  0000014A   [8]  00 00 00 8B 57 C2 E7 16
(001.322455)  vcan0  0000014A   [8]  00 00 00 8A 86 1B 38 22
(001.322668)  vcan0  00000170   [8]  DB 00 00 00 00 00 00 00
(001.322890)  vcan0  0000017C   [8]  4B 00 00 00 00 00 00 00
(001.323101)  vcan0  00000309   [8]  09 1E 00 00 00 00 00 00
(001.328117)  vcan0  00000170   [8]  68 00 00 00 00 00 00 00
(001.328338)  vcan0  00000309   [8]  09 30 00 00 00 00 00 00
(001.328559)  vcan0  0000017C   [8]  4B 00 00 00 00 00 00 00
(001.328769)  vcan0  0000014A   [8]  00 00 00 89 A6 5F 63 E6
(001.334238)  vcan0  0000014A   [8]  00 00 00 88 E8 BB F2 0C
(001.334481)  vcan0  00000309   [8]  09 37 00 00 00 00 00 00
(001.334720)  vcan0  0000017C   [8]  4B 00 00 00 00 00 00 00
(001.334937)  vcan0  00000170   [8]  08 00 00 00 00 00 00 00
(001.340222)  vcan0  00000170   [8]  BB 00 00 00 00 00 00 00
(001.340447)  vcan0  0000014A   [8]  00 00 00 88 23 2F E4 8C
(001.340659)  vcan0  00000309   [8]  09 48 00 00 00 00 00 00
(001.340878)  vcan0  0000017C   [8]  4B 00 00 00 00 00 00 00
(001.346316)  vcan0  0000014A   [8]  00 00 00 87 6C 50 20 3E
(001.346528)  vcan0  00000170   [8]  C7 00 00 00 00 00 00 00
(001.346748)  vcan0  0000017C   [8]  4B 00 00 00 00 00 00 00
(001.346959)  vcan0  00000309   [8]  09 50 00 00 00 00 00 00
(001.352142)  vcan0  00000170   [8]  9B 00 00 00 00 00 00 00
(001.352379)  vcan0  0000014A   [8]  00 00 00 86 AA 03 7F 34
(001.352604)  vcan0  00000309   [8]  09 61 00 00 00 00 00 00
(001.352841)  vcan0  0000017C   [8]  4B 00 00 00 00 00 00 00
(001.358186)  vcan0  0000017C   [8]  4B 00 00 00 00 00 00 00
(001.358400)  vcan0  00000309   [8]  09 69 00 00 00 00 00 00
(001.358612)  vcan0  0000014A   [8]  00 00 00 86 03 1D D6 3E
(001.358820)  vcan0  00000170   [8]  08 00 00 00 00 00 00 00
(001.364521)  vcan0  0000017C   [8]  4B 00 00 00 00 00 00 00
(001.364738)  vcan0  0000014A   [8]  00 00 00 85 5A D1 09 1C
(001.364949)  vcan0  00000309   [8]  09 7A 00 00 00 00 00 00
(001.365158)  vcan0  00000170   [8]  C1 00 00 00 00 00 00 00
(001.370483)  vcan0  0000014A   [8]  00 00 00 84 C4 60 02 6E
(001.370696)  vcan0  00000309   [8]  09 82 00 00 00 00 00 00
(001.370906)  vcan0  00000170   [8]  A8 00 00 00 00 00 00 00
(001.371127)  vcan0  0000017C   [8]  4B 00 00 00 00 00 00 00
(001.376812)  vcan0  0000014A   [8]  00 00 00 0D 8E CC 1C 82
(001.377025)  vcan0  00000170   [8]  EA 00 00 00 00 00 00 00
(001.377245)  vcan0  0000017C   [8]  4B 00 00 00 00 00 00 00
(001.377454)  vcan0  00000309   [8]  09 93 00 00 00 00 00 00
(001.383351)  vcan0  00000309   [8]  09 9B 00 00 00 00 00 00
(001.383564)  vcan0  0000014A   [8]  01 FF FF D4 F6 6C 86 9C
(001.383773)  vcan0  00000170   [8]  17 00 00 00 00 00 00 00
(001.383992)  vcan0  0000017C   [8]  4B 00 00 00 00 00 00 00
(001.388680)  vcan0  00000309   [8]  09 AC 00 00 00 00 00 00
(001.388902)  vcan0  0000017C   [8]  4B 00 00 00 00 00 00 00
(001.389115)  vcan0  0000014A   [8]  01 FF FF D4 B0 2F 03 E4
(001.389323)  vcan0  00000170   [8]  F9 00 00 00 00 00 00 00
(001.394107)  vcan0  0000014A   [8]  01 FF FF D5 02 B3 BD 50
(001.394330)  vcan0  0000017C   [8]  4B 00 00 00 00 00 00 00
(001.394541)  vcan0  00000309   [8]  09 B4 00 00 00 00 00 00
(001.394749)  vcan0  00000170   [8]  E5 00 00 00 00 00 00 00
(001.400530)  vcan0  0000014A   [8]  01 FF FF D6 46 58 86 28
(001.400741)  vcan0  00000170   [8]  05 00 00 00 00 00 00 00
(001.400953)  vcan0  00000309   [8]  09 C3 00 00 00 00 00 00
(001.401171)  vcan0  0000017C   [8]  4B 00 00 00 00 00 00 00
(001.406126)  vcan0  0000017C   [8]  4B 00 00 00 00 00 00 00
(001.406340)  vcan0  00000309   [8]  09 CC 00 00 00 00 00 00
(001.406549)  vcan0  00000170   [8]  F4 00 00 00 00 00 00 00
(001.406759)  vcan0  0000014A   [8]  01 FF FF D8 15 37 06 06
(001.412225)  vcan0  00000170   [8]  6B 00 00 00 00 00 00 00
(001.412455)  vcan0  0000017C   [8]  4B 00 00 00 00 00 00 00
(001.412694)  vcan0  00000309   [8]  09 DA 00 00 00 00 00 00
(001.412903)  vcan0  0000014A   [8]  01 FF FF DB 0C 46 50 88
(001.418444)  vcan0  0000017C   [8]  4B 00 00 00 00 00 00 00
(001.418658)  vcan0  0000014A   [8]  01 FF FF DE 25 ED 51 B4
(001.418867)  vcan0  00000170   [8]  7A 00 00 00 00 00 00 00
(001.419076)  vcan0  00000309   [8]  09 E3 00 00 00 00 00 00
(001.425036)  vcan0  0000014A   [8]  01 FF FF E1 F3 60 9D 18
(001.425247)  vcan0  00000170   [8]  5D 00 00 00 00 00 00 00
(001.425457)  vcan0  00000309   [8]  09 F2 00 00 00 00 00 00
(001.425675)  vcan0  0000017C   [8]  4B 00 00 00 00 00 00 00
(001.430487)  vcan0  00000309   [8]  09 FA 00 00 00 00 00 00
(001.430710)  vcan0  0000017C   [8]  4B 00 00 00 00 00 00 00
(001.430921)  vcan0  0000014A   [8]  01 FF FF E5 99 38 22 36
(001.431129)  vcan0  00000170   [8]  65 00 00 00 00 00 00 00
(001.436380)  vcan0  0000014A   [8]  01 FF FF EA 18 12 CA 9C
(001.436596)  vcan0  00000309   [8]  0A 0A 00 00 00 00 00 00
(001.436805)  vcan0  00000170   [8]  37 00 00 00 00 00 00 00
(001.437023)  vcan0  0000017C   [8]  4B 00 00 00 00 00 00 00
(001.442406)  vcan0  0000014A   [8]  01 FF FF EE 47 E7 F5 70
(001.442619)  vcan0  00000170   [8]  6C 00 00 00 00 00 00 00
(001.442831)  vcan0  00000309   [8]  0A 12 00 00 00 00 00 00
(001.443049)  vcan0  0000017C   [8]  4B 00 00 00 00 00 00 00
(001.448629)  vcan0  0000014A   [8]  01 FF FF F2 FB 10 B4 F4
(001.448842)  vcan0  00000170   [8]  20 00 00 00 00 00 00 00
(001.449063)  vcan0  0000017C   [8]  4B 00 00 00 00 00 00 00
(001.449273)  vcan0  00000309   [8]  0A 22 00 00 00 00 00 00
(001.454568)  vcan0  0000017C   [8]  4B 00 00 00 00 00 00 00
(001.454782)  vcan0  0000014A   [8]  01 FF FF F7 51 31 35 5A
(001.454992)  vcan0  00000309   [8]  0A 2A 00 00 00 00 00 00
(001.455201)  vcan0  00000170   [8]  D0 00 00 00 00 00 00 00
(001.460201)  vcan0  0000014A   [8]  01 FF FF FC 20 74 6C 64
(001.460426)  vcan0  0000017C   [8]  4B 00 00 00 00 00 00 00
(001.460635)  vcan0  00000170   [8]  94 00 00 00 00 00 00 00
(001.460846)  vcan0  00000309   [8]  0A 3B 00 00 00 00 00 00
(001.466755)  vcan0  0000014A   [8]  00 00 00 00 79 5A 79 F4
(001.466967)  vcan0  00000170   [8]  00 00 00 00 00 00 00 00
(001.467188)  vcan0  0000017C   [8]  4B 00 00 00 00 00 00 00
(001.467398)  vcan0  00000309   [8]  0A 43 00 00 00 00 00 00
(001.472383)  vcan0  00000170   [8]  87 00 00 00 00 00 00 00
(001.472605)  vcan0  0000014A   [8]  00 00 00 05 3A D5 B9 9C
(001.472826)  vcan0  0000017C   [8]  3B 1A 00 00 00 00 00 00
(001.473037)  vcan0  00000309   [8]  0A 54 00 00 00 00 00 00
(001.478302)  vcan0  0000017C   [8]  33 08 00 00 00 00 00 00
(001.478517)  vcan0  0000014A   [8]  00 00 00 09 8B 8E A1 68
(001.478726)  vcan0  00000309   [8]  0A 5C 00 00 00 00 00 00
(001.478934)  vcan0  00000170   [8]  D3 00 00 00 00 00 00 00
(001.484799)  vcan0  0000017C   [8]  21 B8 00 00 00 00 00 00
(001.485013)  vcan0  00000309   [8]  0A 6D 00 00 00 00 00 00
(001.485222)  vcan0  00000170   [8]  6C 00 00 00 00 00 00 00
(001.485432)  vcan0  0000014A   [8]  00 00 00 0E 24 F6 32 66
(001.490179)  vcan0  0000014A   [8]  00 00 00 12 54 60 D8 1A
(001.490393)  vcan0  00000309   [8]  0A 74 00 00 00 00 00 00
(001.490603)  vcan0  00000170   [8]  78 00 00 00 00 00 00 00
(001.490821)  vcan0  0000017C   [8]  1A 0F 00 00 00 00 00 00
(001.496602)  vcan0  0000017C   [8]  09 BD 00 00 00 00 00 00
(001.496815)  vcan0  00000170   [8]  4B 00 00 00 00 00 00 00
(001.497027)  vcan0  0000014A   [8]  00 00 00 16 C6 1B 2C 76
(001.497236)  vcan0  00000309   [8]  0A 84 00 00 00 00 00 00
(001.503072)  vcan0  00000309   [8]  0A 8A 00 00 00 00 00 00
(001.503287)  vcan0  0000014A   [8]  00 00 00 1A C5 67 55 6E
(001.503506)  vcan0  0000017C   [8]  03 2A 00 00 00 00 00 00
(001.503714)  vcan0  00000170   [8]  7F 00 00 00 00 00 00 00
(001.508751)  vcan0  0000014A   [8]  00 00 00 1E FB 53 E2 5E
(001.508973)  vcan0  0000017C   [8]  00 00 00 00 00 00 07 60
(001.509266)  vcan0  00000170   [8]  35 00 00 00 00 00 00 00
(001.509488)  vcan0  00000309   [8]  0A 99 00 00 00 00 00 00
(001.514586)  vcan0  00000170   [8]  10 00 00 00 00 00 00 00
(001.514808)  vcan0  0000014A   [8]  00 00 00 22 C5 A3 54 BA
(001.515020)  vcan0  00000309   [8]  0A 9D 00 00 00 00 00 00
(001.515239)  vcan0  0000017C   [8]  00 00 00 00 00 00 0A 90
(001.521183)  vcan0  0000014A   [8]  00 00 00 26 C5 27 5E CE
(001.521403)  vcan0  0000017C   [8]  00 00 00 00 00 00 12 50
(001.521611)  vcan0  00000170   [8]  D5 00 00 00 00 00 00 00
(001.521820)  vcan0  00000309   [8]  0A A9 00 00 00 00 00 00
(001.527232)  vcan0  0000014A   [8]  00 00 00 2A 48 C2 90 16
(001.527446)  vcan0  00000309   [8]  0A AB 00 00 00 00 00 00
(001.527654)  vcan0  00000170   [8]  FD 00 00 00 00 00 00 00
(001.527873)  vcan0  0000017C   [8]  00 00 00 00 00 00 13 30
(001.533045)  vcan0  00000309   [8]  0A B4 00 00 00 00 00 00
(001.533256)  vcan0  00000170   [8]  ED 00 00 00 00 00 00 00
(001.533467)  vcan0  0000014A   [8]  01 FF FF B3 13 2E 72 48
(001.533686)  vcan0  0000017C   [8]  00 00 00 00 00 00 13 30
(001.538911)  vcan0  00000309   [8]  0A B2 00 00 00 00 00 00
(001.539126)  vcan0  0000014A   [8]  01 FF FF B5 57 D8 01 B6
(001.539335)  vcan0  00000170   [8]  AF 00 00 00 00 00 00 00
(001.539553)  vcan0  0000017C   [8]  00 00 00 00 00 00 13 30
(001.544786)  vcan0  00000309   [8]  0A B8 00 00 00 00 00 00
(001.544998)  vcan0  00000170   [8]  9D 00 00 00 00 00 00 00
(001.545210)  vcan0  0000014A   [8]  01 FF FF B9 25 F6 6E 86
(001.545429)  vcan0  0000017C   [8]  00 00 00 00 00 00 13 30
(001.550661)  vcan0  00000309   [8]  0A B4 00 00 00 00 00 00
(001.550874)  vcan0  00000170   [8]  FE 00 00 00 00 00 00 00
(001.551080)  vcan0  00000202   [8]  00 A8 00 00 00 00 00 00
(001.551300)  vcan0  0000017C   [8]  00 00 00 00 00 00 13 30
(001.551510)  vcan0  0000014A   [8]  01 FF FF BC E1 CE 20 00
(001.556638)  vcan0  00000170   [8]  9B 00 00 00 00 00 00 00
(001.556887)  vcan0  0000017C   [8]  00 00 00 00 00 00 13 30
(001.557111)  vcan0  00000309   [8]  0A B6 00 00 00 00 00 00
(001.557336)  vcan0  0000014A   [8]  01 FF FF C2 0A 12 BA 96
(001.562379)  vcan0  00000170   [8]  80 00 00 00 00 00 00 00
(001.562615)  vcan0  0000014A   [8]  01 FF FF C6 BD D2 3C 1C
(001.562840)  vcan0  0000017C   [8]  00 00 00 00 00 00 13 30
(001.563051)  vcan0  00000309   [8]  0A B1 00 00 00 00 00 00
(001.568898)  vcan0  000001A3   [8]  00 00 00 00 00 00 00 00
(001.569115)  vcan0  00000170   [8]  4E 00 00 00 00 00 00 00
(001.569330)  vcan0  0000014A   [8]  01 FF FF CC 80 45 74 1A
(001.569538)  vcan0  0000018F   [8]  00 00 4F 00 00 00 00 00
(001.569755)  vcan0  0000017C   [8]  00 00 00 00 00 00 13 30
(001.569967)  vcan0  00000309   [8]  0A B1 00 00 00 00 00 00
(001.574778)  vcan0  00000170   [8]  58 00 00 00 00 00 00 00
(001.575027)  vcan0  0000017C   [8]  00 00 00 00 00 00 13 30
(001.575260)  vcan0  0000014A   [8]  01 FF FF D1 7F 1E F3 2A
(001.575473)  vcan0  00000309   [8]  0A AB 00 00 00 00 00 00
(001.580279)  vcan0  0000017C   [8]  00 00 00 00 00 00 13 30
(001.580494)  vcan0  0000014A   [8]  01 FF FF D7 70 5A FA 16
(001.580704)  vcan0  00000309   [8]  0A AB 00 00 00 00 00 00
(001.580912)  vcan0  00000170   [8]  B1 00 00 00 00 00 00 00
(001.586616)  vcan0  0000017C   [8]  00 00 00 00 00 00 0F 50
(001.586828)  vcan0  00000170   [8]  5C 00 00 00 00 00 00 00
(001.587041)  vcan0  00000309   [8]  0A A3 00 00 00 00 00 00
(001.587252)  vcan0  0000014A   [8]  01 FF FF DC 84 91 AA 42
(001.592921)  vcan0  00000170   [8]  7D 00 00 00 00 00 00 00
(001.593141)  vcan0  0000014A   [8]  01 FF FF E2 9C 9A D4 56
(001.593361)  vcan0  0000017C   [8]  00 00 00 00 00 00 0F 28
(001.593570)  vcan0  00000309   [8]  0A A3 00 00 00 00 00 00
(001.598886)  vcan0  0000017C   [8]  00 00 00 00 00 00 09 C8
(001.599097)  vcan0  00000170   [8]  42 00 00 00 00 00 00 00
(001.599309)  vcan0  0000014A   [8]  01 FF FF E7 D6 51 B5 06
(001.599518)  vcan0  00000309   [8]  0A 9B 00 00 00 00 00 00
(001.604541)  vcan0  0000014A   [8]  01 FF FF ED CE 7B E7 56
(001.604755)  vcan0  00000309   [8]  0A 9A 00 00 00 00 00 00
(001.604974)  vcan0  0000017C   [8]  00 00 00 00 00 00 09 88
(001.605182)  vcan0  00000170   [8]  D7 00 00 00 00 00 00 00
(001.610350)  vcan0  00000309   [8]  0A 92 00 00 00 00 00 00
(001.610574)  vcan0  0000017C   [8]  00 00 00 00 00 00 04 00
(001.610785)  vcan0  0000014A   [8]  01 FF FF F2 E7 AB 97 E8
(001.610993)  vcan0  00000170   [8]  64 00 00 00 00 00 00 00
(001.616604)  vcan0  0000014A   [8]  01 FF FF F8 A6 70 6E 1A
(001.616818)  vcan0  00000309   [8]  0A 91 00 00 00 00 00 00
(001.617036)  vcan0  0000017C   [8]  00 00 00 00 00 00 03 B8
(001.617245)  vcan0  00000170   [8]  B1 00 00 00 00 00 00 00
(001.622233)  vcan0  00000309   [8]  0A 89 00 00 00 00 00 00
(001.622447)  vcan0  00000170   [8]  57 00 00 00 00 00 00 00
(001.622660)  vcan0  0000014A   [8]  01 FF FF FD 8C 99 28 12
(001.622880)  vcan0  0000017C   [8]  02 E7 00 00 00 00 00 00
(001.628274)  vcan0  0000014A   [8]  00 00 00 03 09 68 88 6A
(001.628500)  vcan0  0000017C   [8]  03 4B 00 00 00 00 00 00
(001.628710)  vcan0  00000309   [8]  0A 88 00 00 00 00 00 00
(001.628918)  vcan0  00000170   [8]  32 00 00 00 00 00 00 00
(001.634168)  vcan0  00000170   [8]  4D 00 00 00 00 00 00 00
(001.634398)  vcan0  0000017C   [8]  0C 1E 00 00 00 00 00 00
(001.634610)  vcan0  0000014A   [8]  00 00 00 07 B4 EE AA F0
(001.634818)  vcan0  00000309   [8]  0A 80 00 00 00 00 00 00
(001.640262)  vcan0  0000017C   [8]  0C 8E 00 00 00 00 00 00
(001.640477)  vcan0  00000170   [8]  39 00 00 00 00 00 00 00
(001.640689)  vcan0  0000014A   [8]  00 00 00 0C DB 10 1E 9C
(001.640898)  vcan0  00000309   [8]  0A 7F 00 00 00 00 00 00
(001.646344)  vcan0  00000170   [8]  BD 00 00 00 00 00 00 00
(001.646564)  vcan0  0000014A   [8]  00 00 00 11 3F 0C 60 C8
(001.646775)  vcan0  00000309   [8]  0A 76 00 00 00 00 00 00
(001.646994)  vcan0  0000017C   [8]  15 DA 00 00 00 00 00 00
(001.652263)  vcan0  00000309   [8]  0A 76 00 00 00 00 00 00
(001.652479)  vcan0  0000014A   [8]  00 00 00 16 11 40 CC DA
(001.652699)  vcan0  0000017C   [8]  16 64 00 00 00 00 00 00
(001.652907)  vcan0  00000170   [8]  3C 00 00 00 00 00 00 00
(001.658351)  vcan0  00000309   [8]  0A 6C 00 00 00 00 00 00
(001.658594)  vcan0  0000017C   [8]  1F C1 00 00 00 00 00 00
(001.658811)  vcan0  00000170   [8]  5E 00 00 00 00 00 00 00
(001.659035)  vcan0  0000014A   [8]  00 00 00 1A 30 8A C7 32
(001.664866)  vcan0  0000017C   [8]  20 23 00 00 00 00 00 00
(001.665082)  vcan0  0000014A   [8]  00 00 00 1E A7 AB 8A 22
(001.665290)  vcan0  00000170   [8]  60 00 00 00 00 00 00 00
(001.665500)  vcan0  00000309   [8]  0A 6C 00 00 00 00 00 00
(001.671002)  vcan0  0000014A   [8]  00 00 00 22 7C 7D ED 2C
(001.671224)  vcan0  0000017C   [8]  29 43 00 00 00 00 00 00
(001.671434)  vcan0  00000309   [8]  0A 63 00 00 00 00 00 00
(001.671642)  vcan0  00000170   [8]  1C 00 00 00 00 00 00 00
(001.676871)  vcan0  0000017C   [8]  29 3F 00 00 00 00 00 00
(001.677093)  vcan0  00000170   [8]  86 00 00 00 00 00 00 00
(001.677329)  vcan0  00000309   [8]  0A 63 00 00 00 00 00 00
(001.677544)  vcan0  0000014A   [8]  00 00 00 26 9D 9C 79 DE
(001.682591)  vcan0  00000170   [8]  59 00 00 00 00 00 00 00
(001.682812)  vcan0  0000014A   [8]  00 00 00 2A 24 FD 55 68
(001.683024)  vcan0  00000309   [8]  0A 5B 00 00 00 00 00 00
(001.683242)  vcan0  0000017C   [8]  31 DB 00 00 00 00 00 00
(001.688411)  vcan0  00000170   [8]  58 00 00 00 00 00 00 00
(001.688631)  vcan0  00000309   [8]  0A 5C 00 00 00 00 00 00
(001.688842)  vcan0  0000014A   [8]  00 00 00 2D F9 7B 9C 44
(001.689059)  vcan0  0000017C   [8]  31 3A 00 00 00 00 00 00
(001.694400)  vcan0  0000014A   [8]  00 00 00 31 38 80 2B C4
(001.694614)  vcan0  00000309   [8]  0A 54 00 00 00 00 00 00
(001.694823)  vcan0  00000170   [8]  7C 00 00 00 00 00 00 00
(001.695041)  vcan0  0000017C   [8]  39 15 00 00 00 00 00 00
(001.700620)  vcan0  0000017C   [8]  37 A9 00 00 00 00 00 00
(001.700834)  vcan0  00000309   [8]  0A 55 00 00 00 00 00 00
(001.701043)  vcan0  00000170   [8]  CE 00 00 00 00 00 00 00
(001.701253)  vcan0  0000014A   [8]  00 00 00 34 BE 13 BB 9A
(001.706500)  vcan0  00000309   [8]  0A 4F 00 00 00 00 00 00
(001.706712)  vcan0  00000170   [8]  64 00 00 00 00 00 00 00
(001.706931)  vcan0  0000017C   [8]  3E 97 00 00 00 00 00 00
(001.707261)  vcan0  0000014A   [8]  00 00 00 37 C1 07 48 D6
(001.713447)  vcan0  00000170   [8]  92 00 00 00 00 00 00 00
(001.713668)  vcan0  00000309   [8]  0A 51 00 00 00 00 00 00
(001.713888)  vcan0  0000017C   [8]  3C 40 00 00 00 00 00 00
(001.714098)  vcan0  0000014A   [8]  00 00 00 3A F4 37 E1 EC
(001.718450)  vcan0  0000014A   [8]  00 00 00 3D B2 F3 AE 46
(001.718662)  vcan0  00000170   [8]  B1 00 00 00 00 00 00 00
(001.718882)  vcan0  0000017C   [8]  42 27 00 00 00 00 00 00
(001.719093)  vcan0  00000309   [8]  0A 4B 00 00 00 00 00 00
(001.724241)  vcan0  00000309   [8]  0A 4F 00 00 00 00 00 00
(001.724456)  vcan0  0000014A   [8]  00 00 00 40 A9 F6 BF 8A
(001.724665)  vcan0  00000170   [8]  B5 00 00 00 00 00 00 00
(001.724885)  vcan0  0000017C   [8]  3E D1 00 00 00 00 00 00
(001.730366)  vcan0  0000017C   [8]  43 A7 00 00 00 00 00 00
(001.730579)  vcan0  00000170   [8]  4B 00 00 00 00 00 00 00
(001.730790)  vcan0  00000309   [8]  0A 4A 00 00 00 00 00 00
(001.730999)  vcan0  0000014A   [8]  00 00 00 43 27 BA DF 1A
(001.736297)  vcan0  0000017C   [8]  3F 4B 00 00 00 00 00 00
(001.736520)  vcan0  00000170   [8]  D3 00 00 00 00 00 00 00
(001.736754)  vcan0  0000014A   [8]  00 00 00 45 DB D3 6C A0
(001.736969)  vcan0  00000309   [8]  0A 4E 00 00 00 00 00 00
(001.742690)  vcan0  00000170   [8]  30 00 00 00 00 00 00 00
(001.742931)  vcan0  00000309   [8]  0A 4A 00 00 00 00 00 00
(001.743156)  vcan0  0000014A   [8]  01 FF FF CE A6 3F 4E D2
(001.743393)  vcan0  0000017C   [8]  43 16 00 00 00 00 00 00
(001.748345)  vcan0  00000309   [8]  0A 50 00 00 00 00 00 00
(001.748569)  vcan0  0000017C   [8]  3D ED 00 00 00 00 00 00
(001.748779)  vcan0  0000014A   [8]  01 FF FF EC BC 52 45 32
(001.748987)  vcan0  00000170   [8]  5F 00 00 00 00 00 00 00
(001.754412)  vcan0  00000309   [8]  0A 4D 00 00 00 00 00 00
(001.754626)  vcan0  0000014A   [8]  01 FF FF EF 20 73 C5 56
(001.754835)  vcan0  00000170   [8]  C9 00 00 00 00 00 00 00
(001.755053)  vcan0  0000017C   [8]  40 EB 00 00 00 00 00 00
(001.760692)  vcan0  00000309   [8]  0A 52 00 00 00 00 00 00
(001.760903)  vcan0  00000170   [8]  4E 00 00 00 00 00 00 00
(001.761125)  vcan0  0000017C   [8]  3B DE 00 00 00 00 00 00
(001.761334)  vcan0  0000014A   [8]  01 FF FF F2 9D D9 4F E6
(001.766413)  vcan0  0000017C   [8]  3D D3 00 00 00 00 00 00
(001.766624)  vcan0  00000170   [8]  6D 00 00 00 00 00 00 00
(001.766835)  vcan0  0000014A   [8]  01 FF FF F5 F4 D1 2D 36
(001.767043)  vcan0  00000309   [8]  0A 50 00 00 00 00 00 00
(001.772256)  vcan0  0000017C   [8]  38 19 00 00 00 00 00 00
(001.772467)  vcan0  00000170   [8]  E4 00 00 00 00 00 00 00
(001.772680)  vcan0  00000309   [8]  0A 55 00 00 00 00 00 00
(001.772889)  vcan0  0000014A   [8]  01 FF FF FA 05 F8 62 5C
(001.779488)  vcan0  00000170   [8]  93 00 00 00 00 00 00 00
(001.779730)  vcan0  0000014A   [8]  01 FF FF FD 9D 98 2D DE
(001.779969)  vcan0  0000017C   [8]  39 82 00 00 00 00 00 00
(001.780192)  vcan0  00000309   [8]  0A 54 00 00 00 00 00 00
(001.784801)  vcan0  0000014A   [8]  00 00 00 01 D6 25 9C 3C
(001.785016)  vcan0  00000309   [8]  0A 5B 00 00 00 00 00 00
(001.785235)  vcan0  0000017C   [8]  32 CA 00 00 00 00 00 00
(001.785443)  vcan0  00000170   [8]  0D 00 00 00 00 00 00 00
(001.790456)  vcan0  00000170   [8]  AE 00 00 00 00 00 00 00
(001.790674)  vcan0  00000309   [8]  0A 5A 00 00 00 00 00 00
(001.790894)  vcan0  0000017C   [8]  33 D4 00 00 00 00 00 00
(001.791105)  vcan0  0000014A   [8]  00 00 00 05 94 EC C3 B2
(001.796399)  vcan0  00000202   [8]  00 43 00 00 00 00 00 00
(001.796633)  vcan0  0000017C   [8]  2C 84 00 00 00 00 00 00
(001.796840)  vcan0  00000170   [8]  B0 00 00 00 00 00 00 00
(001.797052)  vcan0  0000014A   [8]  00 00 00 09 D2 B4 F8 C4
(001.797262)  vcan0  00000309   [8]  0A 61 00 00 00 00 00 00
(001.802377)  vcan0  0000017C   [8]  2D 5D 00 00 00 00 00 00
(001.802592)  vcan0  00000170   [8]  89 00 00 00 00 00 00 00
(001.802806)  vcan0  00000309   [8]  0A 60 00 00 00 00 00 00
(001.803017)  vcan0  0000014A   [8]  00 00 00 0D AE 97 49 E0
(001.808752)  vcan0  0000014A   [8]  00 00 00 11 FC 96 48 C2
(001.808980)  vcan0  0000017C   [8]  25 D6 00 00 00 00 00 00
(001.809193)  vcan0  00000309   [8]  0A 67 00 00 00 00 00 00
(001.809404)  vcan0  00000170   [8]  C9 00 00 00 00 00 00 00
(001.814695)  vcan0  0000017C   [8]  26 B6 00 00 00 00 00 00
(001.814915)  vcan0  0000014A   [8]  00 00 00 15 C5 22 9F 1E
(001.815126)  vcan0  00000170   [8]  10 00 00 00 00 00 00 00
(001.815336)  vcan0  00000309   [8]  0A 67 00 00 00 00 00 00
(001.820642)  vcan0  0000014A   [8]  00 00 00 19 F4 AA 5F 68
(001.820866)  vcan0  00000170   [8]  26 00 00 00 00 00 00 00
(001.821092)  vcan0  00000309   [8]  0A 6E 00 00 00 00 00 00
(001.821330)  vcan0  0000017C   [8]  1F 4C 00 00 00 00 00 00
(001.826576)  vcan0  0000014A   [8]  00 00 00 1D 9C B8 40 D2
(001.826795)  vcan0  00000170   [8]  16 00 00 00 00 00 00 00
(001.827031)  vcan0  0000017C   [8]  20 6C 00 00 00 00 00 00
(001.827267)  vcan0  00000309   [8]  0A 6D 00 00 00 00 00 00
(001.832363)  vcan0  00000309   [8]  0A 74 00 00 00 00 00 00
(001.832589)  vcan0  0000017C   [8]  19 60 00 00 00 00 00 00
(001.832800)  vcan0  0000014A   [8]  00 00 00 21 9D 38 54 EE
(001.833009)  vcan0  00000170   [8]  BB 00 00 00 00 00 00 00
(001.838360)  vcan0  0000014A   [8]  00 00 00 25 12 C8 09 7A
(001.838578)  vcan0  00000309   [8]  0A 72 00 00 00 00 00 00
(001.838799)  vcan0  0000017C   [8]  1A F1 00 00 00 00 00 00
(001.839007)  vcan0  00000170   [8]  16 00 00 00 00 00 00 00
(001.844206)  vcan0  0000014A   [8]  00 00 00 28 DE 92 FF 68
(001.844422)  vcan0  00000309   [8]  0A 78 00 00 00 00 00 00
(001.844631)  vcan0  00000170   [8]  A9 00 00 00 00 00 00 00
(001.844851)  vcan0  0000017C   [8]  14 74 00 00 00 00 00 00
(001.850321)  vcan0  0000017C   [8]  16 9D 00 00 00 00 00 00
(001.850536)  vcan0  0000014A   [8]  00 00 00 2C 2E 1A E3 BC
(001.850746)  vcan0  00000309   [8]  0A 76 00 00 00 00 00 00
(001.850955)  vcan0  00000170   [8]  75 00 00 00 00 00 00 00
(001.856227)  vcan0  0000017C   [8]  10 CE 00 00 00 00 00 00
(001.856439)  vcan0  00000170   [8]  71 00 00 00 00 00 00 00
(001.856651)  vcan0  00000309   [8]  0A 7C 00 00 00 00 00 00
(001.856862)  vcan0  0000014A   [8]  00 00 00 2F B8 A7 29 76
(001.862300)  vcan0  00000170   [8]  E1 00 00 00 00 00 00 00
(001.862533)  vcan0  0000017C   [8]  13 A4 00 00 00 00 00 00
(001.862746)  vcan0  00000309   [8]  0A 79 00 00 00 00 00 00
(001.862956)  vcan0  0000014A   [8]  00 00 00 32 D2 EB E8 C6
(001.868374)  vcan0  00000170   [8]  29 00 00 00 00 00 00 00
(001.868596)  vcan0  00000309   [8]  0A 7E 00 00 00 00 00 00
(001.868808)  vcan0  0000014A   [8]  00 00 00 36 1C 26 DD EC
(001.869027)  vcan0  0000017C   [8]  0E 8F 00 00 00 00 00 00
(001.874307)  vcan0  00000309   [8]  0A 7A 00 00 00 00 00 00
(001.874532)  vcan0  0000017C   [8]  12 1D 00 00 00 00 00 00
(001.874741)  vcan0  00000170   [8]  C0 00 00 00 00 00 00 00
(001.874952)  vcan0  0000014A   [8]  00 00 00 38 FD 72 CF CA
(001.880453)  vcan0  00000309   [8]  0A 7F 00 00 00 00 00 00
(001.880668)  vcan0  0000014A   [8]  00 00 00 3C 10 7D B8 34
(001.880887)  vcan0  0000017C   [8]  0D BE 00 00 00 00 00 00
(001.881095)  vcan0  00000170   [8]  04 00 00 00 00 00 00 00
(001.886347)  vcan0  00000309   [8]  0A 7A 00 00 00 00 00 00
(001.886566)  vcan0  0000014A   [8]  00 00 00 3E BA F9 8B 22
(001.886786)  vcan0  0000017C   [8]  12 00 00 00 00 00 00 00
(001.886995)  vcan0  00000170   [8]  63 00 00 00 00 00 00 00
(001.892420)  vcan0  0000014A   [8]  00 00 00 41 95 C8 3D DC
(001.892632)  vcan0  00000170   [8]  3F 00 00 00 00 00 00 00
(001.892851)  vcan0  0000017C   [8]  0E 48 00 00 00 00 00 00
(001.893060)  vcan0  00000309   [8]  0A 7E 00 00 00 00 00 00
(001.898220)  vcan0  0000017C   [8]  13 2D 00 00 00 00 00 00
(001.898435)  vcan0  00000170   [8]  61 00 00 00 00 00 00 00
(001.898648)  vcan0  00000309   [8]  0A 79 00 00 00 00 00 00
(001.898858)  vcan0  0000014A   [8]  00 00 00 44 00 C2 F4 FA
(001.904093)  vcan0  0000017C   [8]  10 04 00 00 00 00 00 00
(001.904308)  vcan0  00000309   [8]  0A 7C 00 00 00 00 00 00
(001.904517)  vcan0  00000170   [8]  AB 00 00 00 00 00 00 00
(001.904728)  vcan0  0000014A   [8]  00 00 00 46 A4 FC 9D 72
(001.910489)  vcan0  00000170   [8]  A7 00 00 00 00 00 00 00
(001.910730)  vcan0  0000014A   [8]  00 00 00 48 DF C0 1A D4
(001.910945)  vcan0  00000309   [8]  0A 77 00 00 00 00 00 00
(001.911164)  vcan0  0000017C   [8]  15 72 00 00 00 00 00 00
(001.916315)  vcan0  0000014A   [8]  00 00 00 4B 46 AB D0 38
(001.916540)  vcan0  0000017C   [8]  12 B9 00 00 00 00 00 00
(001.916751)  vcan0  00000309   [8]  0A 7A 00 00 00 00 00 00
(001.916959)  vcan0  00000170   [8]  65 00 00 00 00 00 00 00
(001.922182)  vcan0  00000170   [8]  A9 00 00 00 00 00 00 00
(001.922404)  vcan0  00000309   [8]  0A 74 00 00 00 00 00 00
(001.922625)  vcan0  0000017C   [8]  18 94 00 00 00 00 00 00
(001.922835)  vcan0  0000014A   [8]  00 00 00 4D 53 7F 9C 02
(001.928467)  vcan0  00000170   [8]  0B 00 00 00 00 00 00 00
(001.928691)  vcan0  0000014A   [8]  00 00 00 4F 82 E4 B7 54
(001.928902)  vcan0  00000309   [8]  0A 76 00 00 00 00 00 00
(001.929122)  vcan0  0000017C   [8]  16 28 00 00 00 00 00 00
(001.934642)  vcan0  00000309   [8]  0A 70 00 00 00 00 00 00
(001.934864)  vcan0  0000017C   [8]  1C 4E 00 00 00 00 00 00
(001.935072)  vcan0  00000170   [8]  4B 00 00 00 00 00 00 00
(001.935282)  vcan0  0000014A   [8]  00 00 00 51 61 06 FC A6
(001.940826)  vcan0  00000309   [8]  0A 72 00 00 00 00 00 00
(001.941040)  vcan0  0000014A   [8]  01 FF FF DA 2B 72 94 58
(001.941249)  vcan0  00000170   [8]  FA 00 00 00 00 00 00 00
(001.941467)  vcan0  0000017C   [8]  1A 0E 00 00 00 00 00 00
(001.946865)  vcan0  0000017C   [8]  20 6A 00 00 00 00 00 00
(001.947077)  vcan0  00000170   [8]  4D 00 00 00 00 00 00 00
(001.947289)  vcan0  0000014A   [8]  00 00 00 0F 2B E7 48 3C
(001.947499)  vcan0  00000309   [8]  0A 6C 00 00 00 00 00 00
(001.952363)  vcan0  0000014A   [8]  00 00 00 11 AC D2 74 66
(001.952578)  vcan0  00000170   [8]  28 00 00 00 00 00 00 00
(001.952801)  vcan0  0000017C   [8]  1E C5 00 00 00 00 00 00
(001.953012)  vcan0  00000309   [8]  0A 6E 00 00 00 00 00 00
(001.958521)  vcan0  00000170   [8]  9D 00 00 00 00 00 00 00
(001.958743)  vcan0  0000014A   [8]  00 00 00 14 24 46 71 38
(001.958963)  vcan0  0000017C   [8]  25 0C 00 00 00 00 00 00
(001.959256)  vcan0  00000309   [8]  0A 68 00 00 00 00 00 00
(001.964426)  vcan0  0000014A   [8]  00 00 00 17 43 6F D1 86
(001.964643)  vcan0  00000309   [8]  0A 69 00 00 00 00 00 00
(001.964862)  vcan0  0000017C   [8]  23 8C 00 00 00 00 00 00
(001.965070)  vcan0  00000170   [8]  4A 00 00 00 00 00 00 00
(001.970604)  vcan0  0000017C   [8]  29 A1 00 00 00 00 00 00
(001.970819)  vcan0  00000309   [8]  0A 63 00 00 00 00 00 00
(001.971029)  vcan0  0000014A   [8]  00 00 00 19 EC EF 4F EC
(001.971237)  vcan0  00000170   [8]  DA 00 00 00 00 00 00 00
(001.976407)  vcan0  00000309   [8]  0A 65 00 00 00 00 00 00
(001.976619)  vcan0  00000170   [8]  CF 00 00 00 00 00 00 00
(001.976832)  vcan0  0000014A   [8]  00 00 00 1D 2E A9 FF C4
(001.977051)  vcan0  0000017C   [8]  27 8F 00 00 00 00 00 00
(001.982340)  vcan0  00000170   [8]  3E 00 00 00 00 00 00 00
(001.982576)  vcan0  0000014A   [8]  00 00 00 1F F7 9D 5B CC
(001.982789)  vcan0  00000309   [8]  0A 5F 00 00 00 00 00 00
(001.983008)  vcan0  0000017C   [8]  2D 67 00 00 00 00 00 00
(001.988593)  vcan0  0000014A   [8]  00 00 00 23 3C B0 47 B8
(001.988807)  vcan0  00000170   [8]  11 00 00 00 00 00 00 00
(001.989028)  vcan0  0000017C   [8]  2A C2 00 00 00 00 00 00
(001.989238)  vcan0  00000309   [8]  0A 62 00 00 00 00 00 00
(001.994267)  vcan0  00000170   [8]  9D 00 00 00 00 00 00 00
(001.994491)  vcan0  00000309   [8]  0A 5D 00 00 00 00 00 00
(001.994713)  vcan0  0000017C   [8]  30 39 00 00 00 00 00 00
(001.994925)  vcan0  0000014A   [8]  00 00 00 26 0B E3 C4 AA
(002.000355)  vcan0  00000170   [8]  4C 00 00 00 00 00 00 00
(002.000584)  vcan0  00000309   [8]  0A 60 00 00 00 00 00 00
(002.000807)  vcan0  0000017C   [8]  2D 07 00 00 00 00 00 00
(002.001018)  vcan0  0000014A   [8]  00 00 00 29 5D 0A 19 42
(002.006661)  vcan0  00000170   [8]  F3 00 00 00 00 00 00 00
(002.006897)  vcan0  0000017C   [8]  32 07 00 00 00 00 00 00
(002.007109)  vcan0  0000014A   [8]  00 00 00 2C 32 18 6F 1C
(002.007318)  vcan0  00000309   [8]  0A 5B 00 00 00 00 00 00
(002.012621)  vcan0  0000014A   [8]  00 00 00 2F 66 25 A3 9A
(002.012834)  vcan0  00000309   [8]  0A 5F 00 00 00 00 00 00
(002.013043)  vcan0  00000170   [8]  4F 00 00 00 00 00 00 00
(002.013263)  vcan0  0000017C   [8]  2E 4C 00 00 00 00 00 00
(002.018882)  vcan0  0000017C   [8]  32 CF 00 00 00 00 00 00
(002.019097)  vcan0  00000309   [8]  0A 5A 00 00 00 00 00 00
(002.019307)  vcan0  0000014A   [8]  00 00 00 32 31 B9 4C 0A
(002.019516)  vcan0  00000170   [8]  8E 00 00 00 00 00 00 00
(002.024301)  vcan0  00000170   [8]  F5 00 00 00 00 00 00 00
(002.024532)  vcan0  00000309   [8]  0A 5F 00 00 00 00 00 00
(002.024756)  vcan0  0000017C   [8]  2E 90 00 00 00 00 00 00
(002.024968)  vcan0  0000014A   [8]  00 00 00 35 3E 52 E4 0E
(002.030824)  vcan0  0000017C   [8]  32 99 00 00 00 00 00 00
(002.031042)  vcan0  0000014A   [8]  00 00 00 37 E3 B0 75 DA
(002.031253)  vcan0  00000170   [8]  57 00 00 00 00 00 00 00
(002.031464)  vcan0  00000309   [8]  0A 5B 00 00 00 00 00 00
(002.037018)  vcan0  0000014A   [8]  00 00 00 3A C8 F5 00 7E
(002.037246)  vcan0  0000017C   [8]  2D E4 00 00 00 00 00 00
(002.037456)  vcan0  00000170   [8]  61 00 00 00 00 00 00 00
(002.037666)  vcan0  00000309   [8]  0A 5F 00 00 00 00 00 00
(002.043012)  vcan0  0000017C   [8]  31 80 00 00 00 00 00 00
(002.043226)  vcan0  00000202   [8]  00 F3 00 00 00 00 00 00
(002.043433)  vcan0  00000170   [8]  FB 00 00 00 00 00 00 00
(002.043645)  vcan0  0000014A   [8]  00 00 00 3D 4C BA 19 36
(002.043855)  vcan0  00000309   [8]  0A 5C 00 00 00 00 00 00
(002.049130)  vcan0  00000170   [8]  72 00 00 00 00 00 00 00
(002.049354)  vcan0  00000309   [8]  0A 61 00 00 00 00 00 00
(002.049575)  vcan0  0000017C   [8]  2C 69 00 00 00 00 00 00
(002.049786)  vcan0  0000014A   [8]  00 00 00 40 06 56 2F E6
(002.054567)  vcan0  00000309   [8]  0A 5D 00 00 00 00 00 00
(002.054781)  vcan0  0000014A   [8]  00 00 00 42 66 32 D6 BC
(002.055000)  vcan0  0000017C   [8]  2F AB 00 00 00 00 00 00
(002.055208)  vcan0  00000170   [8]  F7 00 00 00 00 00 00 00
(002.060982)  vcan0  0000014A   [8]  00 00 00 44 F3 28 1B 62
(002.061205)  vcan0  00000170   [8]  97 00 00 00 00 00 00 00
(002.061444)  vcan0  0000017C   [8]  2A 4A 00 00 00 00 00 00
(002.061667)  vcan0  00000309   [8]  0A 63 00 00 00 00 00 00
(002.066458)  vcan0  00000374   [8]  00 00 00 00 00 00 00 00
(002.066676)  vcan0  000001A3   [8]  00 00 00 00 00 00 00 00
(002.066893)  vcan0  000001A4   [8]  00 67 00 00 00 00 00 00
(002.067103)  vcan0  00000309   [8]  0A 60 00 00 00 00 00 00
(002.067318)  vcan0  00000326   [8]  00 00 00 00 00 00 00 00
(002.067527)  vcan0  0000018F   [8]  00 00 25 00 00 00 00 00
(002.067740)  vcan0  0000037B   [8]  00 00 00 00 00 00 00 00
(002.067956)  vcan0  0000017C   [8]  2D 4A 00 00 00 00 00 00
(002.068165)  vcan0  0000014A   [8]  00 00 00 47 21 6A 77 68
(002.068372)  vcan0  00000170   [8]  72 00 00 00 00 00 00 00
(002.072561)  vcan0  00000309   [8]  0A 65 00 00 00 00 00 00
(002.072785)  vcan0  0000017C   [8]  27 B8 00 00 00 00 00 00
(002.072994)  vcan0  00000170   [8]  53 00 00 00 00 00 00 00
(002.073206)  vcan0  0000014A   [8]  00 00 00 49 81 02 B9 62
(002.079117)  vcan0  0000014A   [8]  00 00 00 4B 89 72 3D 3E
(002.079363)  vcan0  0000017C   [8]  2A 92 00 00 00 00 00 00
(002.079582)  vcan0  00000170   [8]  72 00 00 00 00 00 00 00
(002.079804)  vcan0  00000309   [8]  0A 63 00 00 00 00 00 00
(002.084861)  vcan0  00000170   [8]  32 00 00 00 00 00 00 00
(002.085097)  vcan0  00000309   [8]  0A 68 00 00 00 00 00 00
(002.085325)  vcan0  0000014A   [8]  00 00 00 4D BF 16 4F 76
(002.085575)  vcan0  0000017C   [8]  24 EC 00 00 00 00 00 00
(002.091006)  vcan0  00000309   [8]  0A 65 00 00 00 00 00 00
(002.091235)  vcan0  0000017C   [8]  27 BB 00 00 00 00 00 00
(002.091445)  vcan0  00000170   [8]  30 00 00 00 00 00 00 00
(002.091655)  vcan0  0000014A   [8]  00 00 00 4F 9B 36 9B 88
(002.096651)  vcan0  0000014A   [8]  00 00 00 51 A2 D4 93 34
(002.096865)  vcan0  00000170   [8]  F5 00 00 00 00 00 00 00
(002.097079)  vcan0  00000309   [8]  0A 6B 00 00 00 00 00 00
(002.097299)  vcan0  0000017C   [8]  22 1C 00 00 00 00 00 00
(002.103013)  vcan0  0000017C   [8]  24 F9 00 00 00 00 00 00
(002.103227)  vcan0  00000170   [8]  F2 00 00 00 00 00 00 00
(002.103439)  vcan0  00000309   [8]  0A 68 00 00 00 00 00 00
(002.103649)  vcan0  0000014A   [8]  00 00 00 53 59 9F C1 9E
(002.108471)  vcan0  00000309   [8]  0A 6D 00 00 00 00 00 00
(002.108693)  vcan0  0000017C   [8]  1F 79 00 00 00 00 00 00
(002.108903)  vcan0  0000014A   [8]  00 00 00 55 31 AB F4 1C
(002.109115)  vcan0  00000170   [8]  7D 00 00 00 00 00 00 00
(002.114412)  vcan0  0000014A   [8]  00 00 00 56 CA 9D A2 14
(002.114624)  vcan0  00000170   [8]  62 00 00 00 00 00 00 00
(002.114843)  vcan0  0000017C   [8]  22 7A 00 00 00 00 00 00
(002.115053)  vcan0  00000309   [8]  0A 6A 00 00 00 00 00 00
(002.120626)  vcan0  00000170   [8]  13 00 00 00 00 00 00 00
(002.120847)  vcan0  0000014A   [8]  00 00 00 58 79 C4 04 B4
(002.121066)  vcan0  0000017C   [8]  1D 2D 00 00 00 00 00 00
(002.121275)  vcan0  00000309   [8]  0A 70 00 00 00 00 00 00
(002.126440)  vcan0  00000170   [8]  D6 00 00 00 00 00 00 00
(002.126660)  vcan0  00000309   [8]  0A 6C 00 00 00 00 00 00
(002.126871)  vcan0  0000014A   [8]  00 00 00 59 E9 A4 3A F0
(002.127087)  vcan0  0000017C   [8]  20 65 00 00 00 00 00 00
(002.133090)  vcan0  00000309   [8]  0A 71 00 00 00 00 00 00
(002.133337)  vcan0  0000017C   [8]  1B 59 00 00 00 00 00 00
(002.133562)  vcan0  0000014A   [8]  00 00 00 5B 73 F9 7C 4A
(002.133780)  vcan0  00000170   [8]  69 00 00 00 00 00 00 00
(002.138868)  vcan0  00000309   [8]  0A 6E 00 00 00 00 00 00
(002.139096)  vcan0  0000014A   [8]  01 FF FF E4 3E 65 A8 FE
(002.139330)  vcan0  00000170   [8]  08 00 00 00 00 00 00 00
(002.139563)  vcan0  0000017C   [8]  1E D5 00 00 00 00 00 00
(002.144793)  vcan0  00000309   [8]  0A 73 00 00 00 00 00 00
(002.145009)  vcan0  00000170   [8]  B9 00 00 00 00 00 00 00
(002.145222)  vcan0  0000014A   [8]  00 00 00 2A 65 D6 BD 96
(002.145443)  vcan0  0000017C   [8]  1A 3A 00 00 00 00 00 00
(002.150722)  vcan0  0000014A   [8]  00 00 00 2C 2D 64 1E 16
(002.150949)  vcan0  0000017C   [8]  1E 0F 00 00 00 00 00 00
(002.151159)  vcan0  00000170   [8]  5C 00 00 00 00 00 00 00
(002.151371)  vcan0  00000309   [8]  0A 6F 00 00 00 00 00 00
(002.156630)  vcan0  0000014A   [8]  00 00 00 2E 7F F8 91 98
(002.156854)  vcan0  0000017C   [8]  1A 19 00 00 00 00 00 00
(002.157066)  vcan0  00000309   [8]  0A 73 00 00 00 00 00 00
(002.157276)  vcan0  00000170   [8]  31 00 00 00 00 00 00 00
(002.162495)  vcan0  00000309   [8]  0A 6F 00 00 00 00 00 00
(002.162722)  vcan0  0000017C   [8]  1E 1C 00 00 00 00 00 00
(002.162934)  vcan0  0000014A   [8]  00 00 00 30 7A 19 F2 E6
(002.163144)  vcan0  00000170   [8]  E6 00 00 00 00 00 00 00
(002.168469)  vcan0  00000170   [8]  45 00 00 00 00 00 00 00
(002.168707)  vcan0  0000017C   [8]  1A 3B 00 00 00 00 00 00
(002.168921)  vcan0  0000014A   [8]  00 00 00 32 EB 88 98 F8
(002.169136)  vcan0  00000309   [8]  0A 72 00 00 00 00 00 00
(002.174450)  vcan0  0000014A   [8]  00 00 00 35 06 D7 0E B2
(002.174674)  vcan0  0000017C   [8]  1E 8E 00 00 00 00 00 00
(002.174884)  vcan0  00000170   [8]  10 00 00 00 00 00 00 00
(002.175095)  vcan0  00000309   [8]  0A 6E 00 00 00 00 00 00
(002.180280)  vcan0  0000014A   [8]  00 00 00 37 76 21 F8 D8
(002.180498)  vcan0  00000309   [8]  0A 72 00 00 00 00 00 00
(002.180717)  vcan0  0000017C   [8]  1A C3 00 00 00 00 00 00
(002.180927)  vcan0  00000170   [8]  E5 00 00 00 00 00 00 00
(002.186391)  vcan0  00000309   [8]  0A 6D 00 00 00 00 00 00
(002.186604)  vcan0  00000170   [8]  7B 00 00 00 00 00 00 00
(002.186816)  vcan0  0000014A   [8]  00 00 00 39 9C 48 10 72
(002.187035)  vcan0  0000017C   [8]  1F 4F 00 00 00 00 00 00
(002.192536)  vcan0  00000309   [8]  0A 71 00 00 00 00 00 00
(002.192749)  vcan0  00000170   [8]  5C 00 00 00 00 00 00 00
(002.192961)  vcan0  0000014A   [8]  00 00 00 3C 0B 96 2E 28
(002.193181)  vcan0  0000017C   [8]  1B 9E 00 00 00 00 00 00
(002.198473)  vcan0  00000309   [8]  0A 6C 00 00 00 00 00 00
(002.198691)  vcan0  0000014A   [8]  00 00 00 3E 35 14 37 56
(002.198911)  vcan0  0000017C   [8]  20 56 00 00 00 00 00 00
(002.199125)  vcan0  00000170   [8]  73 00 00 00 00 00 00 00
(002.204433)  vcan0  0000017C   [8]  1C BB 00 00 00 00 00 00
(002.204648)  vcan0  0000014A   [8]  00 00 00 40 A3 20 27 1E
(002.204860)  vcan0  00000309   [8]  0A 70 00 00 00 00 00 00
(002.205069)  vcan0  00000170   [8]  13 00 00 00 00 00 00 00
(002.210530)  vcan0  00000170   [8]  DD 00 00 00 00 00 00 00
(002.210751)  vcan0  0000014A   [8]  00 00 00 42 BF E8 AB E2
(002.210971)  vcan0  0000017C   [8]  21 91 00 00 00 00 00 00
(002.211181)  vcan0  00000309   [8]  0A 6B 00 00 00 00 00 00
(002.216403)  vcan0  0000014A   [8]  00 00 00 45 1A 30 9D BA
(002.216617)  vcan0  00000170   [8]  86 00 00 00 00 00 00 00
(002.216829)  vcan0  00000309   [8]  0A 6F 00 00 00 00 00 00
(002.217048)  vcan0  0000017C   [8]  1E 04 00 00 00 00 00 00
(002.222625)  vcan0  00000170   [8]  43 00 00 00 00 00 00 00
(002.222850)  vcan0  0000014A   [8]  00 00 00 47 15 69 F9 9C
(002.223073)  vcan0  0000017C   [8]  22 EA 00 00 00 00 00 00
(002.223284)  vcan0  00000309   [8]  0A 6A 00 00 00 00 00 00
(002.228503)  vcan0  00000170   [8]  DD 00 00 00 00 00 00 00
(002.228729)  vcan0  0000014A   [8]  00 00 00 49 51 28 EC 02
(002.228949)  vcan0  0000017C   [8]  1F 62 00 00 00 00 00 00
(002.229161)  vcan0  00000309   [8]  0A 6D 00 00 00 00 00 00
(002.234447)  vcan0  0000017C   [8]  24 4D 00 00 00 00 00 00
(002.234665)  vcan0  0000014A   [8]  00 00 00 4B 3B 8E 9F 76
(002.234876)  vcan0  00000309   [8]  0A 68 00 00 00 00 00 00
(002.235087)  vcan0  00000170   [8]  47 00 00 00 00 00 00 00
(002.240936)  vcan0  00000309   [8]  0A 6C 00 00 00 00 00 00
(002.241161)  vcan0  0000017C   [8]  20 BF 00 00 00 00 00 00
(002.241373)  vcan0  00000170   [8]  87 00 00 00 00 00 00 00
(002.241584)  vcan0  0000014A   [8]  00 00 00 4D 4E AD E5 E4
(002.246838)  vcan0  00000170   [8]  CD 00 00 00 00 00 00 00
(002.247072)  vcan0  0000017C   [8]  25 A3 00 00 00 00 00 00
(002.247284)  vcan0  00000309   [8]  0A 67 00 00 00 00 00 00
(002.247494)  vcan0  0000014A   [8]  00 00 00 4F 17 DC 55 36
(002.253424)  vcan0  00000170   [8]  1C 00 00 00 00 00 00 00
(002.253654)  vcan0  0000014A   [8]  00 00 00 51 0F B8 82 6A
(002.253866)  vcan0  00000309   [8]  0A 6B 00 00 00 00 00 00
(002.254086)  vcan0  0000017C   [8]  22 06 00 00 00 00 00 00
(002.259142)  vcan0  0000017C   [8]  26 D8 00 00 00 00 00 00
(002.259358)  vcan0  0000014A   [8]  00 00 00 52 B3 B5 0B 48
(002.259569)  vcan0  00000309   [8]  0A 66 00 00 00 00 00 00
(002.259779)  vcan0  00000170   [8]  1C 00 00 00 00 00 00 00
(002.264910)  vcan0  00000309   [8]  0A 6A 00 00 00 00 00 00
(002.265132)  vcan0  0000017C   [8]  23 24 00 00 00 00 00 00
(002.265341)  vcan0  00000170   [8]  0F 00 00 00 00 00 00 00
(002.265551)  vcan0  0000014A   [8]  00 00 00 54 84 FB 86 B0
(002.270332)  vcan0  0000017C   [8]  27 DC 00 00 00 00 00 00
(002.270548)  vcan0  00000309   [8]  0A 65 00 00 00 00 00 00
(002.270761)  vcan0  0000014A   [8]  00 00 00 56 0E 66 34 5C
(002.270970)  vcan0  00000170   [8]  BF 00 00 00 00 00 00 00
(002.276321)  vcan0  0000014A   [8]  00 00 00 57 B3 DA 78 38
(002.276532)  vcan0  00000170   [8]  A3 00 00 00 00 00 00 00
(002.276743)  vcan0  00000309   [8]  0A 69 00 00 00 00 00 00
(002.276959)  vcan0  0000017C   [8]  24 0A 00 00 00 00 00 00
(002.282332)  vcan0  00000309   [8]  0A 64 00 00 00 00 00 00
(002.282542)  vcan0  00000170   [8]  9F 00 00 00 00 00 00 00
(002.282754)  vcan0  0000014A   [8]  00 00 00 59 31 33 7C 42
(002.282972)  vcan0  0000017C   [8]  28 A2 00 00 00 00 00 00
(002.288447)  vcan0  00000309   [8]  0A 68 00 00 00 00 00 00
(002.288664)  vcan0  00000202   [8]  00 B2 00 00 00 00 00 00
(002.288890)  vcan0  0000017C   [8]  24 AD 00 00 00 00 00 00
(002.289098)  vcan0  00000170   [8]  D2 00 00 00 00 00 00 00
(002.289310)  vcan0  0000014A   [8]  00 00 00 5A AA 96 D0 92
(002.294465)  vcan0  0000014A   [8]  00 00 00 5C 01 9B 54 1C
(002.294689)  vcan0  00000309   [8]  0A 64 00 00 00 00 00 00
(002.294910)  vcan0  0000017C   [8]  29 22 00 00 00 00 00 00
(002.295124)  vcan0  00000170   [8]  F0 00 00 00 00 00 00 00
(002.300501)  vcan0  0000017C   [8]  25 09 00 00 00 00 00 00
(002.300715)  vcan0  00000170   [8]  41 00 00 00 00 00 00 00
(002.300929)  vcan0  0000014A   [8]  00 00 00 5D 68 92 D1 98
(002.301140)  vcan0  00000309   [8]  0A 68 00 00 00 00 00 00
(002.306399)  vcan0  00000309   [8]  0A 64 00 00 00 00 00 00
(002.306625)  vcan0  0000017C   [8]  29 5A 00 00 00 00 00 00
(002.306838)  vcan0  0000014A   [8]  00 00 00 5E 9F 05 85 8C
(002.307049)  vcan0  00000170   [8]  D5 00 00 00 00 00 00 00
(002.312527)  vcan0  00000170   [8]  F6 00 00 00 00 00 00 00
(002.312750)  vcan0  00000309   [8]  0A 68 00 00 00 00 00 00
(002.312970)  vcan0  0000017C   [8]  25 1D 00 00 00 00 00 00
(002.313180)  vcan0  0000014A   [8]  00 00 00 5F E6 A7 D9 C4
(002.318442)  vcan0  0000014A   [8]  00 00 00 60 FE F5 D1 88
(002.318656)  vcan0  00000170   [8]  94 00 00 00 00 00 00 00
(002.318877)  vcan0  0000017C   [8]  29 4C 00 00 00 00 00 00
(002.319088)  vcan0  00000309   [8]  0A 64 00 00 00 00 00 00
(002.324572)  vcan0  0000017C   [8]  24 EF 00 00 00 00 00 00
(002.324786)  vcan0  00000170   [8]  8B 00 00 00 00 00 00 00
(002.324998)  vcan0  00000309   [8]  0A 68 00 00 00 00 00 00
(002.325209)  vcan0  0000014A   [8]  00 00 00 62 27 50 15 40
(002.330479)  vcan0  0000014A   [8]  00 00 00 63 29 4C 3D C6
(002.330693)  vcan0  00000170   [8]  C6 00 00 00 00 00 00 00
(002.330915)  vcan0  0000017C   [8]  28 FE 00 00 00 00 00 00
(002.331125)  vcan0  00000309   [8]  0A 64 00 00 00 00 00 00
(002.336516)  vcan0  00000309   [8]  0A 68 00 00 00 00 00 00
(002.336738)  vcan0  0000017C   [8]  24 85 00 00 00 00 00 00
(002.336949)  vcan0  0000014A   [8]  00 00 00 64 3C 63 F1 AA
(002.337157)  vcan0  00000170   [8]  C3 00 00 00 00 00 00 00
(002.342500)  vcan0  0000017C   [8]  28 7B 00 00 00 00 00 00
(002.342713)  vcan0  00000309   [8]  0A 64 00 00 00 00 00 00
(002.342923)  vcan0  0000014A   [8]  01 FF FF EF C3 42 33 CA
(002.343131)  vcan0  00000170   [8]  01 00 00 00 00 00 00 00
(002.348376)  vcan0  0000017C   [8]  24 13 00 00 00 00 00 00
(002.348588)  vcan0  00000170   [8]  55 00 00 00 00 00 00 00
(002.348799)  vcan0  0000014A   [8]  00 00 00 3F 5F 0F F9 A2
(002.349009)  vcan0  00000309   [8]  0A 69 00 00 00 00 00 00
(002.354456)  vcan0  0000014A   [8]  00 00 00 40 B0 74 93 B0
(002.354681)  vcan0  0000017C   [8]  27 F6 00 00 00 00 00 00
(002.354893)  vcan0  00000309   [8]  0A 65 00 00 00 00 00 00
(002.355102)  vcan0  00000170   [8]  20 00 00 00 00 00 00 00
(002.360482)  vcan0  0000017C   [8]  23 A1 00 00 00 00 00 00
(002.360700)  vcan0  0000014A   [8]  00 00 00 42 57 25 33 5C
(002.360910)  vcan0  00000170   [8]  93 00 00 00 00 00 00 00
(002.361124)  vcan0  00000309   [8]  0A 69 00 00 00 00 00 00
(002.366503)  vcan0  0000014A   [8]  00 00 00 43 D0 AE A7 F0
(002.366717)  vcan0  00000170   [8]  15 00 00 00 00 00 00 00
(002.366939)  vcan0  0000017C   [8]  27 70 00 00 00 00 00 00
(002.367150)  vcan0  00000309   [8]  0A 66 00 00 00 00 00 00
(002.372543)  vcan0  00000309   [8]  0A 6A 00 00 00 00 00 00
(002.372768)  vcan0  0000017C   [8]  22 F6 00 00 00 00 00 00
(002.372979)  vcan0  00000170   [8]  D7 00 00 00 00 00 00 00
(002.373189)  vcan0  0000014A   [8]  00 00 00 45 8E 71 E6 F0
(002.378587)  vcan0  00000170   [8]  CB 00 00 00 00 00 00 00
(002.378830)  vcan0  00000309   [8]  0A 66 00 00 00 00 00 00
(002.379046)  vcan0  0000014A   [8]  00 00 00 47 1C 30 90 38
(002.379266)  vcan0  0000017C   [8]  26 C4 00 00 00 00 00 00
(002.384569)  vcan0  00000170   [8]  2B 00 00 00 00 00 00 00
(002.384793)  vcan0  00000309   [8]  0A 6B 00 00 00 00 00 00
(002.385006)  vcan0  0000014A   [8]  00 00 00 48 E1 71 C0 7A
(002.385226)  vcan0  0000017C   [8]  22 34 00 00 00 00 00 00
(002.390378)  vcan0  00000170   [8]  C1 00 00 00 00 00 00 00
(002.390600)  vcan0  0000014A   [8]  00 00 00 4A 6E B5 98 4E
(002.390812)  vcan0  00000309   [8]  0A 67 00 00 00 00 00 00
(002.391032)  vcan0  0000017C   [8]  26 02 00 00 00 00 00 00
(002.396675)  vcan0  00000170   [8]  81 00 00 00 00 00 00 00
(002.396899)  vcan0  00000309   [8]  0A 6B 00 00 00 00 00 00
(002.397115)  vcan0  0000014A   [8]  00 00 00 4C 39 11 8B A4
(002.397335)  vcan0  0000017C   [8]  21 6A 00 00 00 00 00 00
(002.402589)  vcan0  0000014A   [8]  00 00 00 4D CF 8E DF 94
(002.402802)  vcan0  00000170   [8]  6B 00 00 00 00 00 00 00
(002.403016)  vcan0  00000309   [8]  0A 68 00 00 00 00 00 00
(002.403236)  vcan0  0000017C   [8]  25 3E 00 00 00 00 00 00
(002.408829)  vcan0  0000014A   [8]  00 00 00 4F 95 DF 4F 40
(002.409046)  vcan0  00000309   [8]  0A 6C 00 00 00 00 00 00
(002.409276)  vcan0  0000017C   [8]  20 A9 00 00 00 00 00 00
(002.409487)  vcan0  00000170   [8]  3B 00 00 00 00 00 00 00
(002.414455)  vcan0  0000017C   [8]  24 87 00 00 00 00 00 00
(002.414671)  vcan0  00000309   [8]  0A 68 00 00 00 00 00 00
(002.414917)  vcan0  0000014A   [8]  00 00 00 51 1D A8 A3 9A
(002.415128)  vcan0  00000170   [8]  66 00 00 00 00 00 00 00
(002.420793)  vcan0  0000017C   [8]  1F FD 00 00 00 00 00 00
(002.421037)  vcan0  0000014A   [8]  00 00 00 52 D2 AC 33 2C
(002.421254)  vcan0  00000309   [8]  0A 6D 00 00 00 00 00 00
(002.421464)  vcan0  00000170   [8]  14 00 00 00 00 00 00 00
(002.426833)  vcan0  00000170   [8]  82 00 00 00 00 00 00 00
(002.427071)  vcan0  00000309   [8]  0A 69 00 00 00 00 00 00
(002.427296)  vcan0  0000017C   [8]  23 EB 00 00 00 00 00 00
(002.427509)  vcan0  0000014A   [8]  00 00 00 54 4E 44 6F 42
(002.432809)  vcan0  0000014A   [8]  00 00 00 55 E5 D2 77 22
(002.433023)  vcan0  00000170   [8]  83 00 00 00 00 00 00 00
(002.433235)  vcan0  00000309   [8]  0A 6D 00 00 00 00 00 00
(002.433454)  vcan0  0000017C   [8]  1F 72 00 00 00 00 00 00
(002.439637)  vcan0  00000170   [8]  50 00 00 00 00 00 00 00
(002.439869)  vcan0  0000017C   [8]  23 73 00 00 00 00 00 00
(002.440080)  vcan0  00000309   [8]  0A 69 00 00 00 00 00 00
(002.440289)  vcan0  0000014A   [8]  00 00 00 57 4C 12 BF 36
(002.444880)  vcan0  00000309   [8]  0A 6E 00 00 00 00 00 00
(002.445093)  vcan0  00000170   [8]  07 00 00 00 00 00 00 00
(002.445313)  vcan0  0000017C   [8]  1F 0F 00 00 00 00 00 00
(002.445526)  vcan0  0000014A   [8]  00 00 00 58 D3 67 14 3A
(002.450862)  vcan0  0000017C   [8]  23 26 00 00 00 00 00 00
(002.451076)  vcan0  0000014A   [8]  00 00 00 5A 20 C3 CD F4
(002.451286)  vcan0  00000170   [8]  B3 00 00 00 00 00 00 00
(002.451496)  vcan0  00000309   [8]  0A 6A 00 00 00 00 00 00
(002.456752)  vcan0  0000017C   [8]  1E D8 00 00 00 00 00 00
(002.456964)  vcan0  00000170   [8]  18 00 00 00 00 00 00 00
(002.457175)  vcan0  00000309   [8]  0A 6E 00 00 00 00 00 00
(002.457386)  vcan0  0000014A   [8]  00 00 00 5B 8C 73 1A 8A
(002.462444)  vcan0  0000017C   [8]  23 05 00 00 00 00 00 00
(002.462656)  vcan0  00000170   [8]  01 00 00 00 00 00 00 00
(002.462867)  vcan0  00000309   [8]  0A 6A 00 00 00 00 00 00
(002.463077)  vcan0  0000014A   [8]  00 00 00 5C C1 0E 2D D4
(002.468360)  vcan0  00000170   [8]  01 00 00 00 00 00 00 00
(002.468578)  vcan0  0000014A   [8]  00 00 00 5E 13 E0 C2 F2
(002.468789)  vcan0  00000309   [8]  0A 6E 00 00 00 00 00 00
(002.469007)  vcan0  0000017C   [8]  1E CD 00 00 00 00 00 00
(002.475263)  vcan0  0000014A   [8]  00 00 00 5F 32 A6 E1 FE
(002.475476)  vcan0  00000170   [8]  24 00 00 00 00 00 00 00
(002.475697)  vcan0  0000017C   [8]  23 10 00 00 00 00 00 00
(002.475906)  vcan0  00000309   [8]  0A 6A 00 00 00 00 00 00
(002.480444)  vcan0  0000014A   [8]  00 00 00 60 6A E0 9F C6
(002.480674)  vcan0  0000017C   [8]  1E ED 00 00 00 00 00 00
