(000.000000)  vcan0  1FFFFFFF   [8]  00 00 00 00 00 00 00 00
(000.003644)  vcan0  00000309   [8]  00 6C 00 00 00 00 00 00
(000.003860)  vcan0  00000202   [8]  00 A5 00 00 00 00 00 00
(000.004080)  vcan0  000001A4   [8]  00 67 00 00 00 00 00 00
(000.004294)  vcan0  0000037B   [8]  00 00 00 00 00 00 00 00
(000.004513)  vcan0  0000017C   [8]  4B 00 00 00 00 00 00 00
(000.004724)  vcan0  0000014A   [8]  00 00 00 EE 6B 28 1D CE
(000.004938)  vcan0  00000326   [8]  00 00 00 00 00 00 00 00
(000.005146)  vcan0  0000018F   [8]  00 00 95 00 00 00 00 00
(000.005356)  vcan0  000001A3   [8]  00 00 00 00 00 00 00 00
(000.005564)  vcan0  00000170   [8]  91 00 00 00 00 00 00 00
(000.005776)  vcan0  00000374   [8]  00 00 00 00 00 00 00 00
(000.008923)  vcan0  0000014A   [8]  00 00 01 65 A0 BC 3B 9A
(000.009151)  vcan0  0000017C   [8]  4B 00 00 00 00 00 00 00
(000.009360)  vcan0  00000170   [8]  16 00 00 00 00 00 00 00
(000.009571)  vcan0  00000309   [8]  00 88 00 00 00 00 00 00
(000.014126)  vcan0  0000017C   [8]  4B 00 00 00 00 00 00 00
(000.014339)  vcan0  00000170   [8]  EE 00 00 00 00 00 00 00
(000.014553)  vcan0  0000014A   [8]  00 00 01 DC D6 50 EE 6C
(000.014763)  vcan0  00000309   [8]  00 A4 00 00 00 00 00 00
(000.020922)  vcan0  0000017C   [8]  4B 00 00 00 00 00 00 00
(000.021139)  vcan0  0000014A   [8]  00 00 02 54 0B E4 77 36
(000.021349)  vcan0  00000170   [8]  6B 00 00 00 00 00 00 00
(000.021559)  vcan0  00000309   [8]  00 C1 00 00 00 00 00 00
(000.026258)  vcan0  0000017C   [8]  4B 00 00 00 00 00 00 00
(000.026474)  vcan0  00000309   [8]  00 DD 00 00 00 00 00 00
(000.026683)  vcan0  0000014A   [8]  00 00 02 CB 41 78 00 00
(000.026891)  vcan0  00000170   [8]  17 00 00 00 00 00 00 00
(000.031804)  vcan0  00000309   [8]  00 F9 00 00 00 00 00 00
(000.032015)  vcan0  00000170   [8]  2E 00 00 00 00 00 00 00
(000.032234)  vcan0  0000017C   [8]  4B 00 00 00 00 00 00 00
(000.032445)  vcan0  0000014A   [8]  00 00 03 42 77 0D DC D6
(000.039095)  vcan0  00000170   [8]  F7 00 00 00 00 00 00 00
(000.039327)  vcan0  0000017C   [8]  4B 00 00 00 00 00 00 00
(000.039539)  vcan0  00000309   [8]  01 15 00 00 00 00 00 00
(000.039748)  vcan0  0000014A   [8]  00 00 03 48 BA 62 59 04
(000.044247)  vcan0  0000017C   [8]  4B 00 00 00 00 00 00 00
(000.044459)  vcan0  00000170   [8]  A3 00 00 00 00 00 00 00
(000.044669)  vcan0  00000309   [8]  01 32 00 00 00 00 00 00
(000.044878)  vcan0  0000014A   [8]  00 00 03 49 A5 16 9F A6
(000.050415)  vcan0  00000309   [8]  01 4E 00 00 00 00 00 00
(000.050638)  vcan0  0000017C   [8]  4B 00 00 00 00 00 00 00
(000.050849)  vcan0  0000014A   [8]  00 00 03 4A 8F CA E6 48
(000.051057)  vcan0  00000170   [8]  2F 00 00 00 00 00 00 00
(000.057428)  vcan0  0000014A   [8]  00 00 03 4B 7A 7F 2C EA
(000.057638)  vcan0  00000170   [8]  09 00 00 00 00 00 00 00
(000.057858)  vcan0  0000017C   [8]  4B 00 00 00 00 00 00 00
(000.058067)  vcan0  00000309   [8]  01 6A 00 00 00 00 00 00
(000.062718)  vcan0  0000017C   [8]  4B 00 00 00 00 00 00 00
(000.062932)  vcan0  00000309   [8]  01 86 00 00 00 00 00 00
(000.063141)  vcan0  0000014A   [8]  00 00 03 4B 7A 7F 2C EA
(000.063350)  vcan0  00000170   [8]  50 00 00 00 00 00 00 00
(000.068257)  vcan0  0000017C   [8]  4B 00 00 00 00 00 00 00
(000.068469)  vcan0  00000170   [8]  E0 00 00 00 00 00 00 00
(000.068681)  vcan0  00000309   [8]  01 A3 00 00 00 00 00 00
(000.068890)  vcan0  0000014A   [8]  00 00 03 4B 7A 7F 2C EA
(000.074315)  vcan0  00000170   [8]  AC 00 00 00 00 00 00 00
(000.074534)  vcan0  0000014A   [8]  00 00 03 4B 7A 7F 2C EA
(000.074744)  vcan0  00000309   [8]  01 BF 00 00 00 00 00 00
(000.074961)  vcan0  0000017C   [8]  4B 00 00 00 00 00 00 00
(000.080286)  vcan0  00000309   [8]  01 DB 00 00 00 00 00 00
(000.080500)  vcan0  0000014A   [8]  00 00 03 4B 7A 7F 2C EA
(000.080717)  vcan0  0000017C   [8]  4B 00 00 00 00 00 00 00
(000.080925)  vcan0  00000170   [8]  C8 00 00 00 00 00 00 00
(000.086409)  vcan0  00000170   [8]  DA 00 00 00 00 00 00 00
(000.086625)  vcan0  00000309   [8]  01 F7 00 00 00 00 00 00
(000.086836)  vcan0  0000014A   [8]  00 00 03 4B 7A 7F 2C EA
(000.087052)  vcan0  0000017C   [8]  4B 00 00 00 00 00 00 00
(000.093030)  vcan0  00000170   [8]  8B 00 00 00 00 00 00 00
(000.093250)  vcan0  0000014A   [8]  00 00 03 4B 7A 7F 2C EA
(000.093459)  vcan0  00000309   [8]  02 13 00 00 00 00 00 00
(000.093675)  vcan0  0000017C   [8]  4B 00 00 00 00 00 00 00
(000.098687)  vcan0  00000309   [8]  02 30 00 00 00 00 00 00
(000.098899)  vcan0  0000014A   [8]  00 00 03 4B 7A 7F 2C EA
(000.099114)  vcan0  0000017C   [8]  4B 00 00 00 00 00 00 00
(000.099322)  vcan0  00000170   [8]  AB 00 00 00 00 00 00 00
(000.105218)  vcan0  0000017C   [8]  4B 00 00 00 00 00 00 00
(000.105429)  vcan0  00000170   [8]  9B 00 00 00 00 00 00 00
(000.105639)  vcan0  0000014A   [8]  00 00 03 4B 7A 7F 2C EA
(000.105848)  vcan0  00000309   [8]  02 4C 00 00 00 00 00 00
(000.110184)  vcan0  0000014A   [8]  00 00 03 4B 7A 7F 2C EA
(000.110401)  vcan0  00000309   [8]  02 68 00 00 00 00 00 00
(000.110609)  vcan0  00000170   [8]  E3 00 00 00 00 00 00 00
(000.110826)  vcan0  0000017C   [8]  4B 00 00 00 00 00 00 00
(000.116128)  vcan0  0000017C   [8]  4B 00 00 00 00 00 00 00
(000.116341)  vcan0  0000014A   [8]  00 00 03 4B 7A 7F 2C EA
(000.116551)  vcan0  00000309   [8]  02 84 00 00 00 00 00 00
(000.116759)  vcan0  00000170   [8]  81 00 00 00 00 00 00 00
(000.122141)  vcan0  00000309   [8]  02 A1 00 00 00 00 00 00
(000.122367)  vcan0  0000017C   [8]  4B 00 00 00 00 00 00 00
(000.122575)  vcan0  00000170   [8]  B8 00 00 00 00 00 00 00
(000.122784)  vcan0  0000014A   [8]  00 00 03 4B 7A 7F 2C EA
(000.128065)  vcan0  00000170   [8]  3D 00 00 00 00 00 00 00
(000.128283)  vcan0  00000309   [8]  02 BD 00 00 00 00 00 00
(000.128501)  vcan0  0000017C   [8]  4B 00 00 00 00 00 00 00
(000.128710)  vcan0  0000014A   [8]  00 00 03 4B 7A 7F 2C EA
(000.134023)  vcan0  00000170   [8]  34 00 00 00 00 00 00 00
(000.134246)  vcan0  0000017C   [8]  4B 00 00 00 00 00 00 00
(000.134457)  vcan0  00000309   [8]  02 D9 00 00 00 00 00 00
(000.134666)  vcan0  0000014A   [8]  00 00 03 4B 7A 7F 2C EA
(000.139984)  vcan0  00000170   [8]  C3 00 00 00 00 00 00 00
(000.140206)  vcan0  0000017C   [8]  4B 00 00 00 00 00 00 00
(000.140417)  vcan0  00000309   [8]  02 F5 00 00 00 00 00 00
(000.140626)  vcan0  0000014A   [8]  00 00 03 4B 7A 7F 2C EA
(000.146072)  vcan0  0000017C   [8]  4B 00 00 00 00 00 00 00
(000.146286)  vcan0  0000014A   [8]  00 00 03 4B 7A 7F 2C EA
(000.146496)  vcan0  00000309   [8]  03 11 00 00 00 00 00 00
(000.146704)  vcan0  00000170   [8]  45 00 00 00 00 00 00 00
(000.152223)  vcan0  00000170   [8]  76 00 00 00 00 00 00 00
(000.152453)  vcan0  0000017C   [8]  4B 00 00 00 00 00 00 00
(000.152664)  vcan0  00000309   [8]  03 2E 00 00 00 00 00 00
(000.152873)  vcan0  0000014A   [8]  00 00 03 4B 7A 7F 2C EA
(000.158140)  vcan0  0000017C   [8]  4B 00 00 00 00 00 00 00
(000.158354)  vcan0  0000014A   [8]  00 00 03 4B 7A 7F 2C EA
(000.158562)  vcan0  00000170   [8]  B1 00 00 00 00 00 00 00
(000.158771)  vcan0  00000309   [8]  03 4A 00 00 00 00 00 00
(000.164160)  vcan0  00000170   [8]  2A 00 00 00 00 00 00 00
(000.164387)  vcan0  0000017C   [8]  4B 00 00 00 00 00 00 00
(000.164598)  vcan0  0000014A   [8]  00 00 03 4B 7A 7F 2C EA
(000.164807)  vcan0  00000309   [8]  03 66 00 00 00 00 00 00
(000.170481)  vcan0  00000170   [8]  1C 00 00 00 00 00 00 00
(000.170707)  vcan0  0000017C   [8]  4B 00 00 00 00 00 00 00
(000.170918)  vcan0  00000309   [8]  03 82 00 00 00 00 00 00
(000.171127)  vcan0  0000014A   [8]  00 00 03 4B 7A 7F 2C EA
(000.176504)  vcan0  00000309   [8]  03 9F 00 00 00 00 00 00
(000.176716)  vcan0  00000170   [8]  D2 00 00 00 00 00 00 00
(000.176936)  vcan0  0000017C   [8]  4B 00 00 00 00 00 00 00
(000.177150)  vcan0  0000014A   [8]  00 00 03 4B 7A 7F 2C EA
(000.182292)  vcan0  0000014A   [8]  00 00 03 4B 7A 7F 2C EA
(000.182522)  vcan0  0000017C   [8]  4B 00 00 00 00 00 00 00
(000.182733)  vcan0  00000309   [8]  03 BB 00 00 00 00 00 00
(000.182942)  vcan0  00000170   [8]  41 00 00 00 00 00 00 00
(000.188573)  vcan0  0000014A   [8]  00 00 03 4B 7A 7F 2C EA
(000.188790)  vcan0  00000170   [8]  C6 00 00 00 00 00 00 00
(000.189012)  vcan0  0000017C   [8]  4B 00 00 00 00 00 00 00
(000.189222)  vcan0  00000309   [8]  03 D7 00 00 00 00 00 00
(000.194294)  vcan0  0000017C   [8]  4B 00 00 00 00 00 00 00
(000.194509)  vcan0  0000014A   [8]  00 00 03 4B 7A 7F 2C EA
(000.194718)  vcan0  00000170   [8]  AD 00 00 00 00 00 00 00
(000.194928)  vcan0  00000309   [8]  03 F3 00 00 00 00 00 00
(000.200525)  vcan0  00000309   [8]  04 0F 00 00 00 00 00 00
(000.200738)  vcan0  0000014A   [8]  00 00 03 4B 7A 7F 2C EA
(000.200957)  vcan0  0000017C   [8]  4B 00 00 00 00 00 00 00
(000.201164)  vcan0  00000170   [8]  E7 00 00 00 00 00 00 00
(000.206683)  vcan0  0000017C   [8]  4B 00 00 00 00 00 00 00
(000.206898)  vcan0  0000014A   [8]  00 00 03 4B 7A 7F 2C EA
(000.207106)  vcan0  00000170   [8]  0E 00 00 00 00 00 00 00
(000.207316)  vcan0  00000309   [8]  04 2C 00 00 00 00 00 00
(000.213225)  vcan0  00000170   [8]  CB 00 00 00 00 00 00 00
(000.213444)  vcan0  0000014A   [8]  00 00 03 4B 7A 7F 2C EA
(000.213654)  vcan0  00000309   [8]  04 07 00 00 00 00 00 00
(000.213872)  vcan0  0000017C   [8]  4B 00 00 00 00 00 00 00
(000.218607)  vcan0  00000309   [8]  03 84 00 00 00 00 00 00
(000.218829)  vcan0  0000017C   [8]  4B 00 00 00 00 00 00 00
(000.219038)  vcan0  00000170   [8]  DF 00 00 00 00 00 00 00
(000.219247)  vcan0  0000014A   [8]  00 00 03 4B 7A 7F 2C EA
(000.224711)  vcan0  0000014A   [8]  00 00 03 4B 7A 7F 2C EA
(000.224925)  vcan0  00000309   [8]  03 10 00 00 00 00 00 00
(000.225133)  vcan0  00000170   [8]  23 00 00 00 00 00 00 00
(000.225351)  vcan0  0000017C   [8]  4B 00 00 00 00 00 00 00
(000.230586)  vcan0  00000309   [8]  02 A8 00 00 00 00 00 00
(000.230808)  vcan0  0000017C   [8]  4B 00 00 00 00 00 00 00
(000.231016)  vcan0  00000170   [8]  99 00 00 00 00 00 00 00
(000.231226)  vcan0  0000014A   [8]  00 00 03 4B 7A 7F 2C EA
(000.237220)  vcan0  0000014A   [8]  00 00 03 4B 7A 7F 2C EA
(000.237440)  vcan0  0000017C   [8]  4B 00 00 00 00 00 00 00
(000.237649)  vcan0  00000170   [8]  13 00 00 00 00 00 00 00
(000.237858)  vcan0  00000309   [8]  02 4B 00 00 00 00 00 00
(000.242876)  vcan0  00000170   [8]  A9 00 00 00 00 00 00 00
(000.243100)  vcan0  0000017C   [8]  4B 00 00 00 00 00 00 00
(000.243311)  vcan0  0000014A   [8]  00 00 03 4B 7A 7F 2C EA
(000.243519)  vcan0  00000309   [8]  01 F8 00 00 00 00 00 00
(000.248188)  vcan0  00000202   [8]  00 BF 00 00 00 00 00 00
(000.248407)  vcan0  00000309   [8]  01 AE 00 00 00 00 00 00
(000.248618)  vcan0  0000014A   [8]  00 00 03 4B 7A 7F 2C EA
(000.248825)  vcan0  00000170   [8]  C9 00 00 00 00 00 00 00
(000.249042)  vcan0  0000017C   [8]  4B 00 00 00 00 00 00 00
(000.254552)  vcan0  0000017C   [8]  4B 00 00 00 00 00 00 00
(000.254766)  vcan0  0000014A   [8]  00 00 03 4B 7A 7F 2C EA
(000.254975)  vcan0  00000309   [8]  01 6C 00 00 00 00 00 00
(000.255183)  vcan0  00000170   [8]  70 00 00 00 00 00 00 00
(000.260406)  vcan0  00000170   [8]  D1 00 00 00 00 00 00 00
(000.260632)  vcan0  0000017C   [8]  4B 00 00 00 00 00 00 00
(000.260843)  vcan0  00000309   [8]  01 31 00 00 00 00 00 00
(000.261053)  vcan0  0000014A   [8]  00 00 03 4B 7A 7F 2C EA
(000.266587)  vcan0  0000014A   [8]  00 00 03 4B 7A 7F 2C EA
(000.266808)  vcan0  0000017C   [8]  4B 00 00 00 00 00 00 00
(000.267017)  vcan0  00000170   [8]  AC 00 00 00 00 00 00 00
(000.267226)  vcan0  00000309   [8]  00 FD 00 00 00 00 00 00
(000.272459)  vcan0  0000017C   [8]  4B 00 00 00 00 00 00 00
(000.272674)  vcan0  0000014A   [8]  00 00 03 4B 7A 7F 2C EA
(000.272883)  vcan0  00000170   [8]  00 00 00 00 00 00 00 00
(000.273093)  vcan0  00000309   [8]  00 CF 00 00 00 00 00 00
(000.278242)  vcan0  0000014A   [8]  00 00 03 4B 7A 7F 2C EA
(000.278466)  vcan0  0000017C   [8]  4B 00 00 00 00 00 00 00
(000.278676)  vcan0  00000309   [8]  00 A6 00 00 00 00 00 00
(000.278885)  vcan0  00000170   [8]  1C 00 00 00 00 00 00 00
(000.284235)  vcan0  00000309   [8]  00 82 00 00 00 00 00 00
(000.284457)  vcan0  0000017C   [8]  4B 00 00 00 00 00 00 00
(000.284665)  vcan0  00000170   [8]  44 00 00 00 00 00 00 00
(000.284875)  vcan0  0000014A   [8]  00 00 03 4B 7A 7F 2C EA
(000.290818)  vcan0  0000017C   [8]  4B 00 00 00 00 00 00 00
(000.291029)  vcan0  00000170   [8]  13 00 00 00 00 00 00 00
(000.291240)  vcan0  0000014A   [8]  00 00 03 4B 7A 7F 2C EA
(000.291449)  vcan0  00000309   [8]  00 62 00 00 00 00 00 00
(000.297135)  vcan0  00000309   [8]  00 46 00 00 00 00 00 00
(000.297348)  vcan0  0000014A   [8]  00 00 03 4B 7A 7F 2C EA
(000.297555)  vcan0  00000170   [8]  F2 00 00 00 00 00 00 00
(000.297772)  vcan0  0000017C   [8]  4B 00 00 00 00 00 00 00
(000.303092)  vcan0  0000017C   [8]  4B 00 00 00 00 00 00 00
(000.303305)  vcan0  00000309   [8]  00 2E 00 00 00 00 00 00
(000.303515)  vcan0  0000014A   [8]  00 00 03 4B 7A 7F 2C EA
(000.303723)  vcan0  00000170   [8]  6D 00 00 00 00 00 00 00
(000.308812)  vcan0  0000014A   [8]  00 00 03 4B 7A 7F 2C EA
(000.309026)  vcan0  00000309   [8]  00 19 00 00 00 00 00 00
(000.309234)  vcan0  00000170   [8]  FD 00 00 00 00 00 00 00
(000.309451)  vcan0  0000017C   [8]  4B 00 00 00 00 00 00 00
(000.315547)  vcan0  0000014A   [8]  00 00 03 4B 7A 7F 2C EA
(000.315774)  vcan0  0000017C   [8]  4B 00 00 00 00 00 00 00
(000.315983)  vcan0  00000309   [8]  00 06 00 00 00 00 00 00
(000.316190)  vcan0  00000170   [8]  9C 00 00 00 00 00 00 00
(000.321623)  vcan0  0000014A   [8]  00 00 03 4B 7A 7F 2C EA
(000.321836)  vcan0  00000170   [8]  74 00 00 00 00 00 00 00
(000.322056)  vcan0  0000017C   [8]  4B 00 00 00 00 00 00 00
(000.322266)  vcan0  00000309   [8]  00 09 00 00 00 00 00 00
(000.327026)  vcan0  00000170   [8]  C0 00 00 00 00 00 00 00
(000.327250)  vcan0  0000017C   [8]  4B 00 00 00 00 00 00 00
(000.327460)  vcan0  00000309   [8]  00 17 00 00 00 00 00 00
(000.327669)  vcan0  0000014A   [8]  00 00 03 4B 7A 7F 2C EA
(000.333794)  vcan0  0000014A   [8]  00 00 03 4B 7A 7F 2C EA
(000.334004)  vcan0  00000170   [8]  8B 00 00 00 00 00 00 00
(000.334221)  vcan0  0000017C   [8]  4B 00 00 00 00 00 00 00
(000.334429)  vcan0  00000309   [8]  00 23 00 00 00 00 00 00
(000.338985)  vcan0  0000014A   [8]  00 00 03 4B 7A 7F 2C EA
(000.339199)  vcan0  00000170   [8]  3F 00 00 00 00 00 00 00
(000.339415)  vcan0  00000309   [8]  00 2D 00 00 00 00 00 00
(000.339634)  vcan0  0000017C   [8]  4B 00 00 00 00 00 00 00
(000.344804)  vcan0  0000014A   [8]  00 00 03 4B 7A 7F 2C EA
(000.345023)  vcan0  00000309   [8]  00 35 00 00 00 00 00 00
(000.345233)  vcan0  00000170   [8]  4D 00 00 00 00 00 00 00
(000.345453)  vcan0  0000017C   [8]  4B 00 00 00 00 00 00 00
(000.350932)  vcan0  00000170   [8]  E6 00 00 00 00 00 00 00
(000.351161)  vcan0  0000014A   [8]  00 00 03 4B 7A 7F 2C EA
(000.351374)  vcan0  00000309   [8]  00 3C 00 00 00 00 00 00
(000.351592)  vcan0  0000017C   [8]  4B 00 00 00 00 00 00 00
(000.356416)  vcan0  0000014A   [8]  00 00 03 4B 7A 7F 2C EA
(000.356639)  vcan0  0000017C   [8]  4B 00 00 00 00 00 00 00
(000.356849)  vcan0  00000309   [8]  00 41 00 00 00 00 00 00
(000.357058)  vcan0  00000170   [8]  2C 00 00 00 00 00 00 00
(000.362385)  vcan0  0000017C   [8]  4B 00 00 00 00 00 00 00
(000.362597)  vcan0  00000170   [8]  1B 00 00 00 00 00 00 00
(000.362810)  vcan0  0000014A   [8]  00 00 03 4B 7A 7F 2C EA
(000.363020)  vcan0  00000309   [8]  00 46 00 00 00 00 00 00
(000.368871)  vcan0  00000170   [8]  DA 00 00 00 00 00 00 00
(000.369090)  vcan0  00000309   [8]  00 49 00 00 00 00 00 00
(000.369309)  vcan0  0000017C   [8]  4B 00 00 00 00 00 00 00
(000.369519)  vcan0  0000014A   [8]  00 00 03 4B 7A 7F 2C EA
(000.374547)  vcan0  0000017C   [8]  4B 00 00 00 00 00 00 00
(000.374763)  vcan0  00000309   [8]  00 4C 00 00 00 00 00 00
(000.374972)  vcan0  00000170   [8]  E8 00 00 00 00 00 00 00
(000.375182)  vcan0  0000014A   [8]  00 00 03 4B 7A 7F 2C EA
(000.380298)  vcan0  0000014A   [8]  00 00 03 4B 7A 7F 2C EA
(000.380512)  vcan0  00000309   [8]  00 4D 00 00 00 00 00 00
(000.380730)  vcan0  0000017C   [8]  4B 00 00 00 00 00 00 00
(000.380938)  vcan0  00000170   [8]  91 00 00 00 00 00 00 00
(000.386311)  vcan0  00000170   [8]  67 00 00 00 00 00 00 00
(000.386542)  vcan0  0000017C   [8]  4B 00 00 00 00 00 00 00
(000.386755)  vcan0  0000014A   [8]  00 00 03 4B 7A 7F 2C EA
(000.386965)  vcan0  00000309   [8]  00 4F 00 00 00 00 00 00
(000.392317)  vcan0  0000014A   [8]  00 00 03 4B 74 4B 45 3C
(000.392539)  vcan0  0000017C   [8]  4B 00 00 00 00 00 00 00
(000.392748)  vcan0  00000170   [8]  3F 00 00 00 00 00 00 00
(000.392959)  vcan0  00000309   [8]  00 4F 00 00 00 00 00 00
(000.398287)  vcan0  0000014A   [8]  00 00 03 48 49 1D 9E 8E
(000.398498)  vcan0  00000170   [8]  1E 00 00 00 00 00 00 00
(000.398717)  vcan0  0000017C   [8]  4B 00 00 00 00 00 00 00
(000.398927)  vcan0  00000309   [8]  00 6D 00 00 00 00 00 00
(000.404165)  vcan0  00000309   [8]  00 8E 00 00 00 00 00 00
(000.404379)  vcan0  0000014A   [8]  00 00 03 46 CB DB 03 78
(000.404598)  vcan0  0000017C   [8]  4B 00 00 00 00 00 00 00
(000.404806)  vcan0  00000170   [8]  94 00 00 00 00 00 00 00
(000.410277)  vcan0  0000014A   [8]  00 00 03 42 9D 61 58 92
(000.410490)  vcan0  00000309   [8]  00 C9 00 00 00 00 00 00
(000.410699)  vcan0  00000170   [8]  6A 00 00 00 00 00 00 00
(000.410916)  vcan0  0000017C   [8]  4B 00 00 00 00 00 00 00
(000.416543)  vcan0  0000017C   [8]  4B 00 00 00 00 00 00 00
(000.416756)  vcan0  00000309   [8]  00 FD 00 00 00 00 00 00
(000.416966)  vcan0  0000014A   [8]  00 00 03 3E 65 D8 AF 68
(000.417174)  vcan0  00000170   [8]  17 00 00 00 00 00 00 00
(000.422655)  vcan0  00000170   [8]  C3 00 00 00 00 00 00 00
(000.422877)  vcan0  0000014A   [8]  00 00 03 3A 84 EA 28 84
(000.423097)  vcan0  0000017C   [8]  4B 00 00 00 00 00 00 00
(000.423325)  vcan0  00000309   [8]  01 15 00 00 00 00 00 00
(000.428334)  vcan0  00000309   [8]  01 46 00 00 00 00 00 00
(000.428558)  vcan0  0000017C   [8]  4B 00 00 00 00 00 00 00
(000.428768)  vcan0  00000170   [8]  23 00 00 00 00 00 00 00
(000.428978)  vcan0  0000014A   [8]  00 00 03 36 69 44 15 C4
(000.434511)  vcan0  00000309   [8]  01 70 00 00 00 00 00 00
(000.434725)  vcan0  0000014A   [8]  00 00 03 31 92 EA 89 88
(000.434944)  vcan0  0000017C   [8]  4B 00 00 00 00 00 00 00
(000.435155)  vcan0  00000170   [8]  24 00 00 00 00 00 00 00
(000.441059)  vcan0  00000309   [8]  01 97 00 00 00 00 00 00
(000.441272)  vcan0  0000014A   [8]  00 00 03 2C 62 A7 5A 1E
(000.441481)  vcan0  00000170   [8]  62 00 00 00 00 00 00 00
(000.441701)  vcan0  0000017C   [8]  4B 00 00 00 00 00 00 00
(000.447157)  vcan0  00000170   [8]  AD 00 00 00 00 00 00 00
(000.447381)  vcan0  0000014A   [8]  00 00 03 26 A5 58 CA 64
(000.447592)  vcan0  00000309   [8]  01 C2 00 00 00 00 00 00
(000.447811)  vcan0  0000017C   [8]  4B 00 00 00 00 00 00 00
(000.452635)  vcan0  0000014A   [8]  00 00 03 20 96 BB 2B 6A
(000.452848)  vcan0  00000309   [8]  01 E8 00 00 00 00 00 00
(000.453056)  vcan0  00000170   [8]  8A 00 00 00 00 00 00 00
(000.453273)  vcan0  0000017C   [8]  4B 00 00 00 00 00 00 00
(000.474114)  vcan0  0000017C   [8]  4B 00 00 00 00 00 00 00
(000.474332)  vcan0  0000014A   [8]  00 00 03 1A 9C 6E FC 36
(000.474542)  vcan0  00000170   [8]  C5 00 00 00 00 00 00 00
(000.474753)  vcan0  00000309   [8]  02 0B 00 00 00 00 00 00
(000.478304)  vcan0  00000170   [8]  7B 00 00 00 00 00 00 00
(000.478533)  vcan0  0000017C   [8]  4B 00 00 00 00 00 00 00
(000.478749)  vcan0  0000014A   [8]  00 00 03 14 0A D9 C0 64
(000.478959)  vcan0  00000309   [8]  02 2A 00 00 00 00 00 00
(000.482477)  vcan0  0000017C   [8]  4B 00 00 00 00 00 00 00
(000.482690)  vcan0  00000170   [8]  4B 00 00 00 00 00 00 00
(000.482903)  vcan0  00000309   [8]  02 46 00 00 00 00 00 00
(000.483113)  vcan0  0000014A   [8]  00 00 03 0E 09 EE 8F 60
(000.488471)  vcan0  00000170   [8]  4F 00 00 00 00 00 00 00
(000.488697)  vcan0  0000014A   [8]  00 00 03 06 DA 55 54 92
(000.488910)  vcan0  00000309   [8]  02 65 00 00 00 00 00 00
(000.489128)  vcan0  0000017C   [8]  4B 00 00 00 00 00 00 00
(000.494585)  vcan0  00000170   [8]  99 00 00 00 00 00 00 00
(000.494807)  vcan0  00000309   [8]  02 7E 00 00 00 00 00 00
(000.495028)  vcan0  0000017C   [8]  4B 00 00 00 00 00 00 00
(000.495239)  vcan0  0000014A   [8]  00 00 03 00 7E 85 0B 5A
(000.500669)  vcan0  0000017C   [8]  4B 00 00 00 00 00 00 00
(000.500900)  vcan0  0000014A   [8]  00 00 02 F8 F9 9C 4C E0
(000.501118)  vcan0  00000170   [8]  CA 00 00 00 00 00 00 00
(000.501342)  vcan0  00000309   [8]  02 9B 00 00 00 00 00 00
(000.506447)  vcan0  0000014A   [8]  00 00 02 F2 3F 23 00 3A
(000.506661)  vcan0  00000202   [8]  00 DA 00 00 00 00 00 00
(000.506882)  vcan0  0000017C   [8]  4B 00 00 00 00 00 00 00
(000.507092)  vcan0  00000309   [8]  02 B2 00 00 00 00 00 00
(000.507299)  vcan0  00000170   [8]  C0 00 00 00 00 00 00 00
(000.512685)  vcan0  00000309   [8]  02 CC 00 00 00 00 00 00
(000.512906)  vcan0  00000170   [8]  46 00 00 00 00 00 00 00
(000.513132)  vcan0  0000014A   [8]  00 00 02 EA 68 5F 7F B6
(000.513384)  vcan0  0000017C   [8]  4B 00 00 00 00 00 00 00
(000.513597)  vcan0  0000018F   [8]  00 00 89 00 00 00 00 00
(000.513812)  vcan0  000001A3   [8]  00 00 00 00 00 00 00 00
(000.518431)  vcan0  0000017C   [8]  4B 00 00 00 00 00 00 00
(000.518645)  vcan0  00000309   [8]  02 E2 00 00 00 00 00 00
(000.518856)  vcan0  0000014A   [8]  00 00 02 E3 71 20 74 B4
(000.519064)  vcan0  00000170   [8]  9A 00 00 00 00 00 00 00
(000.524317)  vcan0  00000170   [8]  74 00 00 00 00 00 00 00
(000.524541)  vcan0  00000309   [8]  02 FA 00 00 00 00 00 00
(000.524762)  vcan0  0000017C   [8]  4B 00 00 00 00 00 00 00
(000.524973)  vcan0  0000014A   [8]  00 00 02 DB 5C 06 BD D6
(000.530244)  vcan0  0000017C   [8]  4B 00 00 00 00 00 00 00
(000.530457)  vcan0  00000170   [8]  F9 00 00 00 00 00 00 00
(000.530669)  vcan0  0000014A   [8]  00 00 02 D4 1E E0 55 D4
(000.530879)  vcan0  00000309   [8]  03 0F 00 00 00 00 00 00
(000.536331)  vcan0  00000170   [8]  3B 00 00 00 00 00 00 00
(000.536555)  vcan0  00000309   [8]  03 25 00 00 00 00 00 00
(000.536775)  vcan0  0000017C   [8]  4B 00 00 00 00 00 00 00
(000.536986)  vcan0  0000014A   [8]  00 00 02 CB E5 9D 46 4A
(000.542183)  vcan0  00000309   [8]  03 3A 00 00 00 00 00 00
(000.542403)  vcan0  0000014A   [8]  00 00 02 C4 75 28 E4 44
(000.542623)  vcan0  0000017C   [8]  4B 00 00 00 00 00 00 00
(000.542832)  vcan0  00000170   [8]  99 00 00 00 00 00 00 00
(000.548409)  vcan0  00000309   [8]  03 4E 00 00 00 00 00 00
(000.548632)  vcan0  0000017C   [8]  4B 00 00 00 00 00 00 00
(000.548842)  vcan0  00000170   [8]  2A 00 00 00 00 00 00 00
(000.549053)  vcan0  0000014A   [8]  00 00 02 BC 1D 17 DB 68
(000.554249)  vcan0  0000014A   [8]  00 00 02 B4 7E 4C C0 BC
(000.554477)  vcan0  0000017C   [8]  4B 00 00 00 00 00 00 00
(000.554688)  vcan0  00000309   [8]  03 62 00 00 00 00 00 00
(000.554897)  vcan0  00000170   [8]  8A 00 00 00 00 00 00 00
(000.560189)  vcan0  0000014A   [8]  00 00 02 AC 14 63 94 C0
(000.560404)  vcan0  00000309   [8]  03 75 00 00 00 00 00 00
(000.560613)  vcan0  00000170   [8]  55 00 00 00 00 00 00 00
(000.560831)  vcan0  0000017C   [8]  4B 00 00 00 00 00 00 00
(000.566526)  vcan0  00000170   [8]  A5 00 00 00 00 00 00 00
(000.566756)  vcan0  0000014A   [8]  00 00 02 A4 4E 5E 7D C0
(000.566969)  vcan0  00000309   [8]  03 88 00 00 00 00 00 00
(000.567190)  vcan0  0000017C   [8]  4B 00 00 00 00 00 00 00
(000.572240)  vcan0  0000014A   [8]  00 00 02 9B D2 2D 6C 66
(000.572455)  vcan0  00000309   [8]  03 9A 00 00 00 00 00 00
(000.572675)  vcan0  0000017C   [8]  4B 00 00 00 00 00 00 00
(000.572885)  vcan0  00000170   [8]  22 00 00 00 00 00 00 00
(000.578104)  vcan0  00000170   [8]  F6 00 00 00 00 00 00 00
(000.578334)  vcan0  0000017C   [8]  4B 00 00 00 00 00 00 00
(000.578546)  vcan0  0000014A   [8]  00 00 02 93 ED CA 1E 50
(000.578756)  vcan0  00000309   [8]  03 AD 00 00 00 00 00 00
(000.584249)  vcan0  0000017C   [8]  4B 00 00 00 00 00 00 00
(000.584462)  vcan0  00000309   [8]  03 BE 00 00 00 00 00 00
(000.584672)  vcan0  00000170   [8]  CE 00 00 00 00 00 00 00
(000.584882)  vcan0  0000014A   [8]  00 00 02 8B 6E E0 E3 12
(000.590637)  vcan0  00000170   [8]  21 00 00 00 00 00 00 00
(000.590856)  vcan0  00000309   [8]  03 D1 00 00 00 00 00 00
(000.591075)  vcan0  0000017C   [8]  4B 00 00 00 00 00 00 00
(000.591285)  vcan0  0000014A   [8]  00 00 02 83 76 37 C9 74
(000.596086)  vcan0  00000309   [8]  03 E1 00 00 00 00 00 00
(000.596301)  vcan0  0000014A   [8]  00 00 02 7A FB 4C AE 9A
(000.596520)  vcan0  0000017C   [8]  4B 00 00 00 00 00 00 00
(000.596729)  vcan0  00000170   [8]  34 00 00 00 00 00 00 00
(000.602490)  vcan0  0000017C   [8]  4B 00 00 00 00 00 00 00
(000.602701)  vcan0  00000170   [8]  40 00 00 00 00 00 00 00
(000.602912)  vcan0  0000014A   [8]  00 00 02 72 EA BC CA EA
(000.603121)  vcan0  00000309   [8]  03 F4 00 00 00 00 00 00
(000.608485)  vcan0  00000170   [8]  AF 00 00 00 00 00 00 00
(000.608702)  vcan0  0000014A   [8]  00 00 02 6A 7A 91 BE F8
(000.608920)  vcan0  0000017C   [8]  4B 00 00 00 00 00 00 00
(000.609129)  vcan0  00000309   [8]  04 04 00 00 00 00 00 00
(000.615215)  vcan0  00000309   [8]  04 15 00 00 00 00 00 00
(000.615425)  vcan0  00000170   [8]  94 00 00 00 00 00 00 00
(000.615644)  vcan0  0000017C   [8]  4B 00 00 00 00 00 00 00
(000.615853)  vcan0  0000014A   [8]  00 00 02 62 5F 8E A1 EA
(000.621373)  vcan0  00000309   [8]  04 25 00 00 00 00 00 00
(000.621584)  vcan0  00000170   [8]  BB 00 00 00 00 00 00 00
(000.621802)  vcan0  0000017C   [8]  4B 00 00 00 00 00 00 00
(000.622012)  vcan0  0000014A   [8]  00 00 02 59 FC BB 36 1C
(000.627260)  vcan0  0000017C   [8]  4B 00 00 00 00 00 00 00
(000.627473)  vcan0  0000014A   [8]  00 00 02 51 D8 08 73 96
(000.627682)  vcan0  00000309   [8]  04 36 00 00 00 00 00 00
(000.627890)  vcan0  00000170   [8]  2A 00 00 00 00 00 00 00
(000.632615)  vcan0  0000014A   [8]  00 00 02 49 85 A4 47 B6
(000.632826)  vcan0  00000170   [8]  AE 00 00 00 00 00 00 00
(000.633037)  vcan0  00000309   [8]  04 45 00 00 00 00 00 00
(000.633254)  vcan0  0000017C   [8]  4B 00 00 00 00 00 00 00
(000.638677)  vcan0  00000309   [8]  04 56 00 00 00 00 00 00
(000.638892)  vcan0  0000014A   [8]  00 00 02 41 62 D5 CE DA
(000.639114)  vcan0  0000017C   [8]  4B 00 00 00 00 00 00 00
(000.639322)  vcan0  00000170   [8]  7F 00 00 00 00 00 00 00
(000.644185)  vcan0  00000309   [8]  04 65 00 00 00 00 00 00
(000.644398)  vcan0  00000170   [8]  68 00 00 00 00 00 00 00
(000.644609)  vcan0  0000014A   [8]  00 00 02 39 23 86 6C 6C
(000.644828)  vcan0  0000017C   [8]  4B 00 00 00 00 00 00 00
(000.650296)  vcan0  0000017C   [8]  4B 00 00 00 00 00 00 00
(000.650550)  vcan0  00000309   [8]  04 75 00 00 00 00 00 00
(000.650778)  vcan0  0000014A   [8]  00 00 02 31 03 A5 AA 84
(000.650995)  vcan0  00000170   [8]  E1 00 00 00 00 00 00 00
(000.656470)  vcan0  0000017C   [8]  4B 00 00 00 00 00 00 00
(000.656688)  vcan0  0000014A   [8]  00 00 02 28 E2 60 AD 82
(000.656898)  vcan0  00000170   [8]  71 00 00 00 00 00 00 00
(000.657109)  vcan0  00000309   [8]  04 85 00 00 00 00 00 00
(000.662286)  vcan0  0000017C   [8]  4B 00 00 00 00 00 00 00
(000.662499)  vcan0  00000170   [8]  32 00 00 00 00 00 00 00
(000.662712)  vcan0  0000014A   [8]  00 00 02 20 D5 0F FE 68
(000.662923)  vcan0  00000309   [8]  04 94 00 00 00 00 00 00
(000.668228)  vcan0  0000017C   [8]  4B 00 00 00 00 00 00 00
(000.668454)  vcan0  00000309   [8]  04 A3 00 00 00 00 00 00
(000.668666)  vcan0  0000014A   [8]  00 00 02 18 C9 3D 26 EA
(000.668877)  vcan0  00000170   [8]  59 00 00 00 00 00 00 00
(000.674247)  vcan0  00000170   [8]  43 00 00 00 00 00 00 00
(000.674467)  vcan0  00000309   [8]  04 B2 00 00 00 00 00 00
(000.674678)  vcan0  0000014A   [8]  00 00 02 10 D5 E6 1C 78
(000.674896)  vcan0  0000017C   [8]  4B 00 00 00 00 00 00 00
(000.680304)  vcan0  00000309   [8]  04 C1 00 00 00 00 00 00
(000.680519)  vcan0  0000014A   [8]  00 00 02 08 E7 C5 30 A2
(000.680738)  vcan0  0000017C   [8]  4B 00 00 00 00 00 00 00
(000.680947)  vcan0  00000170   [8]  AE 00 00 00 00 00 00 00
(000.686116)  vcan0  00000170   [8]  80 00 00 00 00 00 00 00
(000.686338)  vcan0  0000014A   [8]  00 00 02 01 0A 26 25 1A
(000.686551)  vcan0  00000309   [8]  04 D0 00 00 00 00 00 00
(000.686770)  vcan0  0000017C   [8]  4B 00 00 00 00 00 00 00
(000.692295)  vcan0  00000309   [8]  04 DE 00 00 00 00 00 00
(000.692519)  vcan0  0000017C   [8]  4B 00 00 00 00 00 00 00
(000.692731)  vcan0  0000014A   [8]  00 00 01 F9 41 23 0A D0
(000.692940)  vcan0  00000170   [8]  E4 00 00 00 00 00 00 00
(000.698120)  vcan0  00000309   [8]  04 ED 00 00 00 00 00 00
(000.698344)  vcan0  0000017C   [8]  4B 00 00 00 00 00 00 00
(000.698553)  vcan0  00000170   [8]  83 00 00 00 00 00 00 00
(000.698765)  vcan0  0000014A   [8]  00 00 01 F1 84 E0 39 A8
(000.704129)  vcan0  0000014A   [8]  00 00 01 E9 D6 15 A1 48
(000.704343)  vcan0  00000309   [8]  04 FC 00 00 00 00 00 00
(000.704562)  vcan0  0000017C   [8]  4B 00 00 00 00 00 00 00
(000.704771)  vcan0  00000170   [8]  9E 00 00 00 00 00 00 00
(000.710122)  vcan0  0000017C   [8]  4B 00 00 00 00 00 00 00
(000.710337)  vcan0  0000014A   [8]  00 00 01 E2 3E B6 6C 82
(000.710547)  vcan0  00000309   [8]  05 0A 00 00 00 00 00 00
(000.710755)  vcan0  00000170   [8]  59 00 00 00 00 00 00 00
(000.716274)  vcan0  0000014A   [8]  00 00 01 DA B7 BF 7B 88
(000.716488)  vcan0  00000170   [8]  4F 00 00 00 00 00 00 00
(000.716710)  vcan0  0000017C   [8]  4B 00 00 00 00 00 00 00
(000.716920)  vcan0  00000309   [8]  05 18 00 00 00 00 00 00
(000.722534)  vcan0  0000017C   [8]  4B 00 00 00 00 00 00 00
(000.722749)  vcan0  0000014A   [8]  00 00 01 D3 43 45 FC FC
(000.722958)  vcan0  00000170   [8]  44 00 00 00 00 00 00 00
(000.723169)  vcan0  00000309   [8]  05 27 00 00 00 00 00 00
(000.728414)  vcan0  00000309   [8]  05 35 00 00 00 00 00 00
(000.728638)  vcan0  00000170   [8]  87 00 00 00 00 00 00 00
(000.728860)  vcan0  0000014A   [8]  00 00 01 CB DE DE 9C 82
(000.729080)  vcan0  0000017C   [8]  4B 00 00 00 00 00 00 00
(000.734828)  vcan0  0000017C   [8]  4B 00 00 00 00 00 00 00
(000.735044)  vcan0  0000014A   [8]  00 00 01 C4 91 75 31 72
(000.735255)  vcan0  00000309   [8]  05 43 00 00 00 00 00 00
(000.735463)  vcan0  00000170   [8]  0B 00 00 00 00 00 00 00
(000.740556)  vcan0  0000014A   [8]  00 00 01 BD 55 97 13 FC
(000.740770)  vcan0  00000170   [8]  BF 00 00 00 00 00 00 00
(000.740991)  vcan0  0000017C   [8]  4B 00 00 00 00 00 00 00
(000.741201)  vcan0  00000309   [8]  05 51 00 00 00 00 00 00
(000.746329)  vcan0  00000309   [8]  05 5F 00 00 00 00 00 00
(000.746543)  vcan0  00000170   [8]  47 00 00 00 00 00 00 00
(000.746758)  vcan0  0000014A   [8]  00 00 01 B6 30 11 9C A6
(000.746977)  vcan0  0000017C   [8]  4B 00 00 00 00 00 00 00
(000.752492)  vcan0  00000309   [8]  05 6D 00 00 00 00 00 00
(000.752703)  vcan0  00000170   [8]  AC 00 00 00 00 00 00 00
(000.752924)  vcan0  0000017C   [8]  4B 00 00 00 00 00 00 00
(000.753133)  vcan0  0000014A   [8]  00 00 01 AF 20 13 3F 42
(000.753340)  vcan0  00000202   [8]  00 9C 00 00 00 00 00 00
(000.758488)  vcan0  0000017C   [8]  4B 00 00 00 00 00 00 00
(000.758701)  vcan0  00000309   [8]  05 7B 00 00 00 00 00 00
(000.758911)  vcan0  0000014A   [8]  00 00 01 A8 26 E4 46 5A
(000.759119)  vcan0  00000170   [8]  7E 00 00 00 00 00 00 00
(000.765118)  vcan0  0000014A   [8]  00 00 01 A1 3B 84 D5 FA
(000.765333)  vcan0  00000309   [8]  05 88 00 00 00 00 00 00
(000.765567)  vcan0  00000170   [8]  2A 00 00 00 00 00 00 00
(000.765805)  vcan0  0000017C   [8]  4B 00 00 00 00 00 00 00
(000.770334)  vcan0  00000309   [8]  05 96 00 00 00 00 00 00
(000.770559)  vcan0  0000017C   [8]  4B 00 00 00 00 00 00 00
(000.770769)  vcan0  00000170   [8]  C5 00 00 00 00 00 00 00
(000.770980)  vcan0  0000014A   [8]  00 00 01 9A 6B 19 55 40
(000.776251)  vcan0  0000017C   [8]  4B 00 00 00 00 00 00 00
(000.776468)  vcan0  0000014A   [8]  00 00 01 93 B5 52 9A 98
(000.776680)  vcan0  00000309   [8]  05 A4 00 00 00 00 00 00
(000.776889)  vcan0  00000170   [8]  E7 00 00 00 00 00 00 00
(000.782397)  vcan0  0000014A   [8]  00 00 01 8D 0E 5D D9 A0
(000.782645)  vcan0  0000017C   [8]  4B 00 00 00 00 00 00 00
(000.782863)  vcan0  00000170   [8]  F2 00 00 00 00 00 00 00
(000.783089)  vcan0  00000309   [8]  05 B2 00 00 00 00 00 00
(000.788693)  vcan0  0000017C   [8]  4B 00 00 00 00 00 00 00
(000.788916)  vcan0  00000170   [8]  21 00 00 00 00 00 00 00
(000.789151)  vcan0  0000014A   [8]  00 00 01 86 85 D8 C6 18
(000.789376)  vcan0  00000309   [8]  05 BF 00 00 00 00 00 00
(000.795058)  vcan0  00000170   [8]  73 00 00 00 00 00 00 00
(000.795316)  vcan0  0000017C   [8]  4B 00 00 00 00 00 00 00
(000.795543)  vcan0  00000309   [8]  05 CD 00 00 00 00 00 00
(000.795767)  vcan0  0000014A   [8]  00 00 01 80 0A D6 65 8E
(000.800696)  vcan0  00000170   [8]  6E 00 00 00 00 00 00 00
(000.800936)  vcan0  0000014A   [8]  00 00 01 79 B1 1C 75 00
(000.801152)  vcan0  00000309   [8]  05 DA 00 00 00 00 00 00
(000.801373)  vcan0  0000017C   [8]  4B 00 00 00 00 00 00 00
(000.806263)  vcan0  0000017C   [8]  4B 00 00 00 00 00 00 00
(000.806480)  vcan0  00000309   [8]  05 E8 00 00 00 00 00 00
(000.806691)  vcan0  00000170   [8]  CB 00 00 00 00 00 00 00
(000.806904)  vcan0  0000014A   [8]  00 00 01 73 67 51 B5 D0
(000.813022)  vcan0  00000309   [8]  05 F5 00 00 00 00 00 00
(000.813256)  vcan0  0000014A   [8]  00 00 01 6D 3A 17 02 80
(000.813476)  vcan0  00000170   [8]  CF 00 00 00 00 00 00 00
(000.813716)  vcan0  0000017C   [8]  4B 00 00 00 00 00 00 00
(000.818304)  vcan0  0000014A   [8]  00 00 01 67 22 73 B5 74
(000.818517)  vcan0  00000170   [8]  6F 00 00 00 00 00 00 00
(000.818740)  vcan0  0000017C   [8]  4B 00 00 00 00 00 00 00
(000.818950)  vcan0  00000309   [8]  06 03 00 00 00 00 00 00
(000.824415)  vcan0  0000014A   [8]  00 00 01 61 20 A4 57 E2
(000.824643)  vcan0  0000017C   [8]  4B 00 00 00 00 00 00 00
(000.824853)  vcan0  00000170   [8]  E4 00 00 00 00 00 00 00
(000.825065)  vcan0  00000309   [8]  06 10 00 00 00 00 00 00
(000.830615)  vcan0  00000309   [8]  06 1E 00 00 00 00 00 00
(000.830834)  vcan0  0000014A   [8]  00 00 01 5B 38 0F B3 28
(000.831053)  vcan0  0000017C   [8]  4B 00 00 00 00 00 00 00
(000.831262)  vcan0  00000170   [8]  06 00 00 00 00 00 00 00
(000.836682)  vcan0  00000170   [8]  AD 00 00 00 00 00 00 00
(000.836902)  vcan0  00000309   [8]  06 2B 00 00 00 00 00 00
(000.837114)  vcan0  0000014A   [8]  00 00 01 55 6C 54 71 C4
(000.837331)  vcan0  0000017C   [8]  4B 00 00 00 00 00 00 00
(000.843117)  vcan0  0000017C   [8]  4B 00 00 00 00 00 00 00
(000.843332)  vcan0  00000309   [8]  06 38 00 00 00 00 00 00
(000.843542)  vcan0  0000014A   [8]  00 00 01 4F B8 7E D0 68
(000.843750)  vcan0  00000170   [8]  4D 00 00 00 00 00 00 00
(000.848495)  vcan0  0000014A   [8]  00 00 01 4A 16 9A EE B4
(000.848721)  vcan0  0000017C   [8]  4B 00 00 00 00 00 00 00
(000.848933)  vcan0  00000309   [8]  06 46 00 00 00 00 00 00
(000.849142)  vcan0  00000170   [8]  B3 00 00 00 00 00 00 00
(000.854389)  vcan0  00000170   [8]  60 00 00 00 00 00 00 00
(000.854613)  vcan0  0000014A   [8]  00 00 01 44 91 9A EA 88
(000.854834)  vcan0  0000017C   [8]  4B 00 00 00 00 00 00 00
(000.855044)  vcan0  00000309   [8]  06 53 00 00 00 00 00 00
(000.860371)  vcan0  00000309   [8]  06 60 00 00 00 00 00 00
(000.860586)  vcan0  0000014A   [8]  00 00 01 3F 24 2F 08 C6
(000.860795)  vcan0  00000170   [8]  71 00 00 00 00 00 00 00
(000.861014)  vcan0  0000017C   [8]  4B 00 00 00 00 00 00 00
(000.866492)  vcan0  0000014A   [8]  00 00 01 39 CD 04 84 AE
(000.866707)  vcan0  00000309   [8]  06 6D 00 00 00 00 00 00
(000.866916)  vcan0  00000170   [8]  95 00 00 00 00 00 00 00
(000.867136)  vcan0  0000017C   [8]  4B 00 00 00 00 00 00 00
(000.872406)  vcan0  00000170   [8]  85 00 00 00 00 00 00 00
(000.872627)  vcan0  00000309   [8]  06 7B 00 00 00 00 00 00
(000.872839)  vcan0  0000014A   [8]  00 00 01 34 92 A3 17 98
(000.873058)  vcan0  0000017C   [8]  4B 00 00 00 00 00 00 00
(000.878631)  vcan0  0000014A   [8]  00 00 01 2F 6A 1E 75 BA
(000.878848)  vcan0  00000309   [8]  06 88 00 00 00 00 00 00
(000.879068)  vcan0  0000017C   [8]  4B 00 00 00 00 00 00 00
(000.879278)  vcan0  00000170   [8]  0A 00 00 00 00 00 00 00
(000.884411)  vcan0  00000309   [8]  06 95 00 00 00 00 00 00
(000.884626)  vcan0  0000014A   [8]  00 00 01 2A 5F 8F 44 DC
(000.884836)  vcan0  00000170   [8]  87 00 00 00 00 00 00 00
(000.885055)  vcan0  0000017C   [8]  4B 00 00 00 00 00 00 00
(000.890307)  vcan0  0000017C   [8]  4B 00 00 00 00 00 00 00
(000.890520)  vcan0  00000170   [8]  84 00 00 00 00 00 00 00
(000.890732)  vcan0  00000309   [8]  06 A2 00 00 00 00 00 00
(000.890943)  vcan0  0000014A   [8]  00 00 01 25 6F 80 C3 58
(000.896897)  vcan0  0000017C   [8]  4B 00 00 00 00 00 00 00
(000.897128)  vcan0  0000014A   [8]  00 00 01 20 90 05 98 7A
(000.897352)  vcan0  00000309   [8]  06 AF 00 00 00 00 00 00
(000.897568)  vcan0  00000170   [8]  DF 00 00 00 00 00 00 00
(000.903103)  vcan0  0000014A   [8]  00 00 01 1B CE EE 76 D0
(000.903319)  vcan0  00000309   [8]  06 BC 00 00 00 00 00 00
(000.903527)  vcan0  00000170   [8]  23 00 00 00 00 00 00 00
(000.903746)  vcan0  0000017C   [8]  4B 00 00 00 00 00 00 00
(000.908940)  vcan0  00000170   [8]  41 00 00 00 00 00 00 00
(000.909162)  vcan0  00000309   [8]  06 C9 00 00 00 00 00 00
(000.909381)  vcan0  0000017C   [8]  4B 00 00 00 00 00 00 00
(000.909591)  vcan0  0000014A   [8]  00 00 01 17 24 25 81 10
(000.914356)  vcan0  0000017C   [8]  4B 00 00 00 00 00 00 00
(000.914573)  vcan0  0000014A   [8]  00 00 01 12 91 58 49 CC
(000.914782)  vcan0  00000170   [8]  CB 00 00 00 00 00 00 00
(000.914993)  vcan0  00000309   [8]  06 D6 00 00 00 00 00 00
(000.920244)  vcan0  00000170   [8]  35 00 00 00 00 00 00 00
(000.920473)  vcan0  0000017C   [8]  4B 00 00 00 00 00 00 00
(000.920684)  vcan0  00000309   [8]  06 E3 00 00 00 00 00 00
(000.920894)  vcan0  0000014A   [8]  00 00 01 0E 15 B1 C6 C4
(000.926758)  vcan0  00000170   [8]  DF 00 00 00 00 00 00 00
(000.926986)  vcan0  0000017C   [8]  4B 00 00 00 00 00 00 00
(000.927197)  vcan0  0000014A   [8]  00 00 01 09 B3 B2 40 BC
(000.927407)  vcan0  00000309   [8]  06 F0 00 00 00 00 00 00
(000.932453)  vcan0  0000017C   [8]  4B 00 00 00 00 00 00 00
(000.932665)  vcan0  00000170   [8]  CF 00 00 00 00 00 00 00
(000.932878)  vcan0  0000014A   [8]  00 00 01 05 6B 47 AC 5C
(000.933088)  vcan0  00000309   [8]  06 FD 00 00 00 00 00 00
(000.938400)  vcan0  0000017C   [8]  4B 00 00 00 00 00 00 00
(000.938612)  vcan0  00000170   [8]  C3 00 00 00 00 00 00 00
(000.938824)  vcan0  00000309   [8]  07 0A 00 00 00 00 00 00
(000.939036)  vcan0  0000014A   [8]  00 00 01 01 32 1F FD EA
(000.944751)  vcan0  0000014A   [8]  00 00 00 FD 17 CC 1A E8
(000.944966)  vcan0  00000309   [8]  07 17 00 00 00 00 00 00
(000.945184)  vcan0  0000017C   [8]  4B 00 00 00 00 00 00 00
(000.945394)  vcan0  00000170   [8]  06 00 00 00 00 00 00 00
(000.950243)  vcan0  00000170   [8]  0F 00 00 00 00 00 00 00
(000.950473)  vcan0  0000017C   [8]  4B 00 00 00 00 00 00 00
(000.950684)  vcan0  0000014A   [8]  00 00 00 F9 1E 51 7A A8
(000.950894)  vcan0  00000309   [8]  07 24 00 00 00 00 00 00
(000.956755)  vcan0  0000014A   [8]  00 00 00 F5 36 37 AA 28
(000.956970)  vcan0  00000309   [8]  07 31 00 00 00 00 00 00
(000.957190)  vcan0  0000017C   [8]  4B 00 00 00 00 00 00 00
(000.957398)  vcan0  00000170   [8]  FA 00 00 00 00 00 00 00
(000.962975)  vcan0  00000309   [8]  07 3D 00 00 00 00 00 00
(000.963195)  vcan0  0000017C   [8]  4B 00 00 00 00 00 00 00
(000.963405)  vcan0  0000014A   [8]  00 00 00 F1 68 58 1A 9A
(000.963613)  vcan0  00000170   [8]  E0 00 00 00 00 00 00 00
(000.969226)  vcan0  00000170   [8]  A3 00 00 00 00 00 00 00
(000.969448)  vcan0  0000014A   [8]  00 00 00 ED A7 20 61 AE
(000.969668)  vcan0  0000017C   [8]  4B 00 00 00 00 00 00 00
(000.969877)  vcan0  00000309   [8]  07 4A 00 00 00 00 00 00
(000.974967)  vcan0  00000170   [8]  A7 00 00 00 00 00 00 00
(000.975186)  vcan0  0000014A   [8]  00 00 00 EA 15 1D 26 D4
(000.975405)  vcan0  0000017C   [8]  4B 00 00 00 00 00 00 00
(000.975615)  vcan0  00000309   [8]  07 57 00 00 00 00 00 00
(000.980700)  vcan0  00000170   [8]  22 00 00 00 00 00 00 00
(000.980928)  vcan0  0000017C   [8]  4B 00 00 00 00 00 00 00
(000.981140)  vcan0  00000309   [8]  07 64 00 00 00 00 00 00
(000.981350)  vcan0  0000014A   [8]  00 00 00 E6 69 80 E7 42
(000.986816)  vcan0  0000017C   [8]  4B 00 00 00 00 00 00 00
(000.987028)  vcan0  00000170   [8]  9B 00 00 00 00 00 00 00
(000.987240)  vcan0  0000014A   [8]  00 00 00 E3 35 ED A4 B2
(000.987449)  vcan0  00000309   [8]  07 6F 00 00 00 00 00 00
(000.992744)  vcan0  00000309   [8]  07 7C 00 00 00 00 00 00
(000.992954)  vcan0  00000170   [8]  A4 00 00 00 00 00 00 00
(000.993173)  vcan0  0000017C   [8]  4B 00 00 00 00 00 00 00
(000.993383)  vcan0  0000014A   [8]  00 00 00 DF 39 A1 3E 0C
(000.998436)  vcan0  00000170   [8]  98 00 00 00 00 00 00 00
(000.998657)  vcan0  00000309   [8]  07 7F 00 00 00 00 00 00
(000.998875)  vcan0  0000017C   [8]  4B 00 00 00 00 00 00 00
(000.999084)  vcan0  0000014A   [8]  00 00 00 DC C7 2D D2 C6
(000.999291)  vcan0  00000202   [8]  00 49 00 00 00 00 00 00
(001.004928)  vcan0  00000170   [8]  63 00 00 00 00 00 00 00
(001.005144)  vcan0  00000309   [8]  07 89 00 00 00 00 00 00
(001.005356)  vcan0  0000014A   [8]  00 00 00 D8 AF A6 79 10
(001.005573)  vcan0  0000017C   [8]  4B 00 00 00 00 00 00 00
(001.010334)  vcan0  00000374   [8]  00 00 00 00 00 00 00 00
(001.010543)  vcan0  00000170   [8]  E9 00 00 00 00 00 00 00
(001.010762)  vcan0  000001A4   [8]  00 67 00 00 00 00 00 00
(001.010977)  vcan0  0000017C   [8]  4B 00 00 00 00 00 00 00
(001.011189)  vcan0  0000037B   [8]  00 00 00 00 00 00 00 00
(001.011398)  vcan0  00000309   [8]  07 82 00 00 00 00 00 00
(001.011606)  vcan0  0000014A   [8]  00 00 00 D5 E7 72 9D DA
(001.011816)  vcan0  000001A3   [8]  00 00 00 00 00 00 00 00
(001.012029)  vcan0  00000326   [8]  00 00 00 00 00 00 00 00
(001.012235)  vcan0  0000018F   [8]  00 00 FF 00 00 00 00 00
(001.016181)  vcan0  0000017C   [8]  4B 00 00 00 00 00 00 00
(001.016391)  vcan0  00000170   [8]  C7 00 00 00 00 00 00 00
(001.016602)  vcan0  0000014A   [8]  00 00 00 D2 DD CC D9 6C
(001.016810)  vcan0  00000309   [8]  07 8C 00 00 00 00 00 00
(001.022103)  vcan0  0000017C   [8]  4B 00 00 00 00 00 00 00
(001.022316)  vcan0  0000014A   [8]  00 00 00 D0 2A 72 A2 B2
(001.022524)  vcan0  00000170   [8]  1B 00 00 00 00 00 00 00
(001.022733)  vcan0  00000309   [8]  07 8D 00 00 00 00 00 00
(001.028552)  vcan0  0000017C   [8]  4B 00 00 00 00 00 00 00
(001.028769)  vcan0  0000014A   [8]  00 00 00 CC B2 A8 7E C4
(001.028978)  vcan0  00000170   [8]  2B 00 00 00 00 00 00 00
(001.029211)  vcan0  00000309   [8]  07 97 00 00 00 00 00 00
(001.034821)  vcan0  0000014A   [8]  00 00 00 CA 1E 0D B4 12
(001.035033)  vcan0  00000170   [8]  FC 00 00 00 00 00 00 00
(001.035245)  vcan0  00000309   [8]  07 96 00 00 00 00 00 00
(001.035464)  vcan0  0000017C   [8]  4B 00 00 00 00 00 00 00
(001.040571)  vcan0  0000014A   [8]  00 00 00 C7 47 23 CF BC
(001.040786)  vcan0  00000309   [8]  07 A2 00 00 00 00 00 00
(001.041005)  vcan0  0000017C   [8]  4B 00 00 00 00 00 00 00
(001.041214)  vcan0  00000170   [8]  6A 00 00 00 00 00 00 00
(001.046515)  vcan0  0000014A   [8]  00 00 00 C4 D9 AB 23 E2
(001.046731)  vcan0  00000309   [8]  07 A3 00 00 00 00 00 00
(001.046951)  vcan0  0000017C   [8]  4B 00 00 00 00 00 00 00
(001.047159)  vcan0  00000170   [8]  1D 00 00 00 00 00 00 00
(001.052599)  vcan0  00000309   [8]  07 B0 00 00 00 00 00 00
(001.052812)  vcan0  0000014A   [8]  00 00 00 C1 CF 42 60 90
(001.053030)  vcan0  0000017C   [8]  4B 00 00 00 00 00 00 00
(001.053238)  vcan0  00000170   [8]  1E 00 00 00 00 00 00 00
(001.058161)  vcan0  0000017C   [8]  4B 00 00 00 00 00 00 00
(001.058376)  vcan0  0000014A   [8]  00 00 00 BF 82 DE 56 A8
(001.058587)  vcan0  00000309   [8]  07 B1 00 00 00 00 00 00
(001.058794)  vcan0  00000170   [8]  FB 00 00 00 00 00 00 00
(001.064231)  vcan0  0000014A   [8]  00 00 00 BC ED B9 98 36
(001.064443)  vcan0  00000170   [8]  FF 00 00 00 00 00 00 00
(001.064655)  vcan0  00000309   [8]  07 BE 00 00 00 00 00 00
(001.064873)  vcan0  0000017C   [8]  4B 00 00 00 00 00 00 00
(001.070865)  vcan0  0000014A   [8]  00 00 00 BA C2 46 F9 0C
(001.071079)  vcan0  00000170   [8]  D7 00 00 00 00 00 00 00
(001.071299)  vcan0  0000017C   [8]  4B 00 00 00 00 00 00 00
(001.071508)  vcan0  00000309   [8]  07 C0 00 00 00 00 00 00
(001.076472)  vcan0  0000014A   [8]  00 00 00 B8 14 7B EF B6
(001.076683)  vcan0  00000170   [8]  8A 00 00 00 00 00 00 00
(001.076903)  vcan0  0000017C   [8]  4B 00 00 00 00 00 00 00
(001.077112)  vcan0  00000309   [8]  07 CE 00 00 00 00 00 00
(001.082822)  vcan0  00000170   [8]  F0 00 00 00 00 00 00 00
(001.083040)  vcan0  0000014A   [8]  00 00 00 B6 03 63 DF A4
(001.083259)  vcan0  0000017C   [8]  4B 00 00 00 00 00 00 00
(001.083467)  vcan0  00000309   [8]  07 D1 00 00 00 00 00 00
(001.088545)  vcan0  00000170   [8]  CA 00 00 00 00 00 00 00
(001.088765)  vcan0  00000309   [8]  07 DF 00 00 00 00 00 00
(001.088977)  vcan0  0000014A   [8]  00 00 00 B3 BA 28 EB E0
(001.089194)  vcan0  0000017C   [8]  4B 00 00 00 00 00 00 00
(001.095299)  vcan0  0000014A   [8]  00 00 00 B1 C5 8F 71 52
(001.095513)  vcan0  00000309   [8]  07 E3 00 00 00 00 00 00
(001.095730)  vcan0  0000017C   [8]  4B 00 00 00 00 00 00 00
(001.095937)  vcan0  00000170   [8]  05 00 00 00 00 00 00 00
(001.100922)  vcan0  0000017C   [8]  4B 00 00 00 00 00 00 00
(001.101135)  vcan0  0000014A   [8]  00 00 00 AF 6C C7 16 22
(001.101343)  vcan0  00000170   [8]  02 00 00 00 00 00 00 00
(001.101552)  vcan0  00000309   [8]  07 F2 00 00 00 00 00 00
(001.106662)  vcan0  0000014A   [8]  00 00 00 AD 98 BE FB 68
(001.106883)  vcan0  0000017C   [8]  4B 00 00 00 00 00 00 00
(001.107092)  vcan0  00000309   [8]  07 F5 00 00 00 00 00 00
(001.107300)  vcan0  00000170   [8]  80 00 00 00 00 00 00 00
(001.112519)  vcan0  0000014A   [8]  00 00 00 AB 8E 79 70 AC
(001.112730)  vcan0  00000170   [8]  9C 00 00 00 00 00 00 00
(001.112941)  vcan0  00000309   [8]  08 05 00 00 00 00 00 00
(001.113161)  vcan0  0000017C   [8]  4B 00 00 00 00 00 00 00
(001.118106)  vcan0  0000017C   [8]  4B 00 00 00 00 00 00 00
(001.118321)  vcan0  0000014A   [8]  00 00 00 A9 CE 5E 5D 34
(001.118529)  vcan0  00000170   [8]  91 00 00 00 00 00 00 00
(001.118738)  vcan0  00000309   [8]  08 09 00 00 00 00 00 00
(001.124334)  vcan0  0000017C   [8]  4B 00 00 00 00 00 00 00
(001.124550)  vcan0  00000309   [8]  08 19 00 00 00 00 00 00
(001.124762)  vcan0  0000014A   [8]  00 00 00 A7 BE 69 56 EE
(001.124971)  vcan0  00000170   [8]  06 00 00 00 00 00 00 00
(001.130251)  vcan0  00000170   [8]  BE 00 00 00 00 00 00 00
(001.130472)  vcan0  00000309   [8]  08 1D 00 00 00 00 00 00
(001.130686)  vcan0  0000014A   [8]  00 00 00 A6 1F 09 D6 A0
(001.130905)  vcan0  0000017C   [8]  4B 00 00 00 00 00 00 00
(001.136315)  vcan0  00000170   [8]  40 00 00 00 00 00 00 00
(001.136557)  vcan0  0000014A   [8]  00 00 00 A4 53 F2 C0 10
(001.136774)  vcan0  00000309   [8]  08 2E 00 00 00 00 00 00
(001.136994)  vcan0  0000017C   [8]  4B 00 00 00 00 00 00 00
(001.142305)  vcan0  0000014A   [8]  00 00 00 A2 C8 E4 1A 82
(001.142528)  vcan0  0000017C   [8]  4B 00 00 00 00 00 00 00
(001.142737)  vcan0  00000170   [8]  F4 00 00 00 00 00 00 00
(001.142947)  vcan0  00000309   [8]  08 33 00 00 00 00 00 00
(001.148302)  vcan0  00000170   [8]  9B 00 00 00 00 00 00 00
(001.148535)  vcan0  0000017C   [8]  4B 00 00 00 00 00 00 00
(001.148747)  vcan0  00000309   [8]  08 43 00 00 00 00 00 00
(001.148956)  vcan0  0000014A   [8]  00 00 00 A0 F1 C8 28 90
(001.154133)  vcan0  00000170   [8]  3F 00 00 00 00 00 00 00
(001.154359)  vcan0  0000017C   [8]  4B 00 00 00 00 00 00 00
(001.154569)  vcan0  00000309   [8]  08 48 00 00 00 00 00 00
(001.154778)  vcan0  0000014A   [8]  00 00 00 9F 84 AC 9F F6
(001.160304)  vcan0  00000309   [8]  08 59 00 00 00 00 00 00
(001.160518)  vcan0  0000014A   [8]  00 00 00 9D F5 05 E4 74
(001.160727)  vcan0  00000170   [8]  28 00 00 00 00 00 00 00
(001.160945)  vcan0  0000017C   [8]  4B 00 00 00 00 00 00 00
(001.167530)  vcan0  0000014A   [8]  00 00 00 9C 91 2B FE 20
(001.167741)  vcan0  00000170   [8]  22 00 00 00 00 00 00 00
(001.167958)  vcan0  0000017C   [8]  4B 00 00 00 00 00 00 00
(001.168167)  vcan0  00000309   [8]  08 5F 00 00 00 00 00 00
(001.172314)  vcan0  0000014A   [8]  00 00 00 9A F9 04 E0 32
(001.172538)  vcan0  0000017C   [8]  4B 00 00 00 00 00 00 00
(001.172748)  vcan0  00000309   [8]  08 6F 00 00 00 00 00 00
(001.172957)  vcan0  00000170   [8]  0E 00 00 00 00 00 00 00
(001.179009)  vcan0  0000017C   [8]  4B 00 00 00 00 00 00 00
(001.179221)  vcan0  00000170   [8]  58 00 00 00 00 00 00 00
(001.179431)  vcan0  00000309   [8]  08 75 00 00 00 00 00 00
(001.179641)  vcan0  0000014A   [8]  00 00 00 99 B6 D0 1B F2
(001.184775)  vcan0  00000309   [8]  08 86 00 00 00 00 00 00
(001.184992)  vcan0  0000014A   [8]  00 00 00 98 55 62 1E FC
(001.185202)  vcan0  00000170   [8]  8F 00 00 00 00 00 00 00
(001.185421)  vcan0  0000017C   [8]  4B 00 00 00 00 00 00 00
(001.190339)  vcan0  00000309   [8]  08 8C 00 00 00 00 00 00
(001.190556)  vcan0  0000014A   [8]  00 00 00 97 19 BF 43 C8
(001.190765)  vcan0  00000170   [8]  EA 00 00 00 00 00 00 00
(001.190985)  vcan0  0000017C   [8]  4B 00 00 00 00 00 00 00
(001.196272)  vcan0  00000309   [8]  08 9E 00 00 00 00 00 00
(001.196489)  vcan0  0000014A   [8]  00 00 00 95 B9 05 6D EC
(001.196710)  vcan0  0000017C   [8]  4B 00 00 00 00 00 00 00
(001.196919)  vcan0  00000170   [8]  93 00 00 00 00 00 00 00
(001.202458)  vcan0  00000170   [8]  EB 00 00 00 00 00 00 00
(001.202680)  vcan0  0000014A   [8]  00 00 00 94 97 A1 C6 44
(001.202893)  vcan0  00000309   [8]  08 A4 00 00 00 00 00 00
(001.203111)  vcan0  0000017C   [8]  4B 00 00 00 00 00 00 00
(001.208353)  vcan0  00000309   [8]  08 B5 00 00 00 00 00 00
(001.208576)  vcan0  0000017C   [8]  4B 00 00 00 00 00 00 00
(001.208787)  vcan0  0000014A   [8]  00 00 00 93 68 9E 2B C6
(001.208995)  vcan0  00000170   [8]  B5 00 00 00 00 00 00 00
(001.214487)  vcan0  0000014A   [8]  00 00 00 92 57 F0 A2 36
(001.214708)  vcan0  0000017C   [8]  4B 00 00 00 00 00 00 00
(001.214917)  vcan0  00000309   [8]  08 BC 00 00 00 00 00 00
(001.215125)  vcan0  00000170   [8]  E8 00 00 00 00 00 00 00
(001.220356)  vcan0  0000017C   [8]  4B 00 00 00 00 00 00 00
(001.220570)  vcan0  00000309   [8]  08 CD 00 00 00 00 00 00
(001.220780)  vcan0  0000014A   [8]  00 00 00 91 20 5E 62 86
(001.220987)  vcan0  00000170   [8]  C0 00 00 00 00 00 00 00
(001.226555)  vcan0  00000309   [8]  08 D4 00 00 00 00 00 00
(001.226777)  vcan0  0000017C   [8]  4B 00 00 00 00 00 00 00
(001.226985)  vcan0  00000170   [8]  D3 00 00 00 00 00 00 00
(001.227195)  vcan0  0000014A   [8]  00 00 00 90 24 5A C2 7E
(001.232522)  vcan0  0000014A   [8]  00 00 00 8F 1F 5F 6C AA
(001.232768)  vcan0  0000017C   [8]  4B 00 00 00 00 00 00 00
(001.232980)  vcan0  00000170   [8]  54 00 00 00 00 00 00 00
(001.233193)  vcan0  00000309   [8]  08 E5 00 00 00 00 00 00
(001.238984)  vcan0  00000309   [8]  08 EC 00 00 00 00 00 00
(001.239200)  vcan0  0000014A   [8]  00 00 00 8E 30 0E B2 7C
(001.239408)  vcan0  00000170   [8]  B8 00 00 00 00 00 00 00
(001.239626)  vcan0  0000017C   [8]  4B 00 00 00 00 00 00 00
(001.244767)  vcan0  00000309   [8]  08 FE 00 00 00 00 00 00
(001.244978)  vcan0  00000170   [8]  88 00 00 00 00 00 00 00
(001.245190)  vcan0  0000014A   [8]  00 00 00 8D 23 37 44 C2
(001.245408)  vcan0  0000017C   [8]  4B 00 00 00 00 00 00 00
(001.245614)  vcan0  00000202   [8]  00 F7 00 00 00 00 00 00
(001.250967)  vcan0  00000309   [8]  09 05 00 00 00 00 00 00
(001.251182)  vcan0  0000014A   [8]  00 00 00 8C 4B 8C B8 5C
(001.251390)  vcan0  00000170   [8]  D5 00 00 00 00 00 00 00
(001.251608)  vcan0  0000017C   [8]  4B 00 00 00 00 00 00 00
(001.256629)  vcan0  0000017C   [8]  4B 00 00 00 00 00 00 00
(001.256842)  vcan0  0000014A   [8]  00 00 00 8B 5F 6A 9B EE
(001.257052)  vcan0  00000309   [8]  09 16 00 00 00 00 00 00
(001.257260)  vcan0  00000170   [8]  49 00 00 00 00 00 00 00
(001.262483)  vcan0  00000309   [8]  09 1D 00 00 00 00 00 00
(001.262695)  vcan0  00000170   [8]  ED 00 00 00 00 00 00 00
(001.262914)  vcan0  0000017C   [8]  4B 00 00 00 00 00 00 00
(001.263124)  vcan0  0000014A   [8]  00 00 00 8A 94 E8 D4 3A
(001.268223)  vcan0  0000017C   [8]  4B 00 00 00 00 00 00 00
(001.268442)  vcan0  0000014A   [8]  00 00 00 89 AF 89 4D F2
(001.268652)  vcan0  00000309   [8]  09 2F 00 00 00 00 00 00
(001.268861)  vcan0  00000170   [8]  BD 00 00 00 00 00 00 00
(001.274337)  vcan0  0000014A   [8]  00 00 00 88 ED 49 A0 6C
(001.274549)  vcan0  00000170   [8]  5E 00 00 00 00 00 00 00
(001.274762)  vcan0  00000309   [8]  09 36 00 00 00 00 00 00
(001.274981)  vcan0  0000017C   [8]  4B 00 00 00 00 00 00 00
(001.280251)  vcan0  0000014A   [8]  00 00 00 88 29 69 9E 58
(001.280531)  vcan0  0000017C   [8]  4B 00 00 00 00 00 00 00
(001.280744)  vcan0  00000309   [8]  09 48 00 00 00 00 00 00
(001.280953)  vcan0  00000170   [8]  65 00 00 00 00 00 00 00
(001.286320)  vcan0  00000170   [8]  93 00 00 00 00 00 00 00
(001.286558)  vcan0  00000309   [8]  09 4F 00 00 00 00 00 00
(001.286783)  vcan0  0000014A   [8]  00 00 00 87 72 60 03 D2
(001.287020)  vcan0  0000017C   [8]  4B 00 00 00 00 00 00 00
(001.292992)  vcan0  00000309   [8]  09 61 00 00 00 00 00 00
(001.293235)  vcan0  0000017C   [8]  4B 00 00 00 00 00 00 00
(001.293458)  vcan0  0000014A   [8]  00 00 00 86 B4 7E 6E FA
(001.293674)  vcan0  00000170   [8]  4A 00 00 00 00 00 00 00
(001.298929)  vcan0  00000309   [8]  09 68 00 00 00 00 00 00
(001.299150)  vcan0  0000014A   [8]  00 00 00 86 08 F5 1E 72
(001.299358)  vcan0  00000170   [8]  FC 00 00 00 00 00 00 00
(001.299576)  vcan0  0000017C   [8]  4B 00 00 00 00 00 00 00
(001.304427)  vcan0  00000309   [8]  09 7A 00 00 00 00 00 00
(001.304655)  vcan0  0000017C   [8]  4B 00 00 00 00 00 00 00
(001.304864)  vcan0  00000170   [8]  98 00 00 00 00 00 00 00
(001.305075)  vcan0  0000014A   [8]  00 00 00 85 5F C5 3C 28
(001.310859)  vcan0  0000014A   [8]  00 00 00 84 C6 1A 63 42
(001.311071)  vcan0  00000170   [8]  C4 00 00 00 00 00 00 00
(001.311292)  vcan0  0000017C   [8]  4B 00 00 00 00 00 00 00
(001.311502)  vcan0  00000309   [8]  09 81 00 00 00 00 00 00
(001.316870)  vcan0  0000017C   [8]  4B 00 00 00 00 00 00 00
(001.317084)  vcan0  00000309   [8]  09 93 00 00 00 00 00 00
(001.317294)  vcan0  00000170   [8]  F8 00 00 00 00 00 00 00
(001.317504)  vcan0  0000014A   [8]  00 00 00 0D 90 86 7D 56
(001.322776)  vcan0  00000309   [8]  09 9A 00 00 00 00 00 00
(001.322988)  vcan0  00000170   [8]  3F 00 00 00 00 00 00 00
(001.323208)  vcan0  0000017C   [8]  4B 00 00 00 00 00 00 00
(001.323418)  vcan0  0000014A   [8]  01 FF FF D5 0C ED EB 8C
(001.328461)  vcan0  0000017C   [8]  4B 00 00 00 00 00 00 00
(001.328675)  vcan0  00000309   [8]  09 AB 00 00 00 00 00 00
(001.328883)  vcan0  00000170   [8]  DC 00 00 00 00 00 00 00
(001.329094)  vcan0  0000014A   [8]  01 FF FF D4 C5 BB EF F4
(001.334363)  vcan0  0000014A   [8]  01 FF FF D5 13 2E A1 7A
(001.334577)  vcan0  00000309   [8]  09 B3 00 00 00 00 00 00
(001.334786)  vcan0  00000170   [8]  48 00 00 00 00 00 00 00
(001.335005)  vcan0  0000017C   [8]  4B 00 00 00 00 00 00 00
(001.340373)  vcan0  00000170   [8]  0B 00 00 00 00 00 00 00
(001.340596)  vcan0  00000309   [8]  09 C3 00 00 00 00 00 00
(001.340932)  vcan0  0000017C   [8]  4B 00 00 00 00 00 00 00
(001.341144)  vcan0  0000014A   [8]  01 FF FF D6 5D 3E 09 16
(001.346427)  vcan0  00000170   [8]  9B 00 00 00 00 00 00 00
(001.346749)  vcan0  0000014A   [8]  01 FF FF D8 26 43 6F 16
(001.346961)  vcan0  00000309   [8]  09 CB 00 00 00 00 00 00
(001.347180)  vcan0  0000017C   [8]  4B 00 00 00 00 00 00 00
(001.352255)  vcan0  0000017C   [8]  4B 00 00 00 00 00 00 00
(001.352498)  vcan0  00000309   [8]  09 DA 00 00 00 00 00 00
(001.352707)  vcan0  00000170   [8]  65 00 00 00 00 00 00 00
(001.353009)  vcan0  0000014A   [8]  01 FF FF DB 22 3D 2C B4
(001.358495)  vcan0  0000017C   [8]  4B 00 00 00 00 00 00 00
(001.358705)  vcan0  00000170   [8]  F9 00 00 00 00 00 00 00
(001.358917)  vcan0  00000309   [8]  09 E2 00 00 00 00 00 00
(001.359127)  vcan0  0000014A   [8]  01 FF FF DE 37 BD 4E AA
(001.364303)  vcan0  0000014A   [8]  01 FF FF E2 03 8C 57 AE
(001.364518)  vcan0  00000309   [8]  09 F2 00 00 00 00 00 00
(001.364795)  vcan0  0000017C   [8]  4B 00 00 00 00 00 00 00
(001.365005)  vcan0  00000170   [8]  1E 00 00 00 00 00 00 00
(001.370175)  vcan0  00000309   [8]  09 F9 00 00 00 00 00 00
(001.370392)  vcan0  0000014A   [8]  01 FF FF E5 B0 DD 25 F6
(001.370614)  vcan0  0000017C   [8]  4B 00 00 00 00 00 00 00
(001.370824)  vcan0  00000170   [8]  EB 00 00 00 00 00 00 00
(001.376149)  vcan0  00000309   [8]  0A 09 00 00 00 00 00 00
(001.376368)  vcan0  0000014A   [8]  01 FF FF EA 2B 72 AA 8E
(001.376588)  vcan0  0000017C   [8]  4B 00 00 00 00 00 00 00
(001.376797)  vcan0  00000170   [8]  71 00 00 00 00 00 00 00
(001.382168)  vcan0  0000017C   [8]  4B 00 00 00 00 00 00 00
(001.382384)  vcan0  0000014A   [8]  01 FF FF EE 54 D7 F9 82
(001.382595)  vcan0  00000309   [8]  0A 11 00 00 00 00 00 00
(001.382803)  vcan0  00000170   [8]  46 00 00 00 00 00 00 00
(001.388534)  vcan0  0000014A   [8]  01 FF FF F3 12 AD 92 8C
(001.388768)  vcan0  00000309   [8]  0A 22 00 00 00 00 00 00
(001.388987)  vcan0  00000170   [8]  B9 00 00 00 00 00 00 00
(001.389231)  vcan0  0000017C   [8]  4B 00 00 00 00 00 00 00
(001.394355)  vcan0  0000014A   [8]  01 FF FF F7 62 AD F5 AA
(001.394569)  vcan0  00000170   [8]  40 00 00 00 00 00 00 00
(001.394782)  vcan0  00000309   [8]  0A 29 00 00 00 00 00 00
(001.395000)  vcan0  0000017C   [8]  4B 00 00 00 00 00 00 00
(001.400513)  vcan0  0000014A   [8]  01 FF FF FC 34 C9 EF 3E
(001.400727)  vcan0  00000170   [8]  4A 00 00 00 00 00 00 00
(001.400940)  vcan0  00000309   [8]  0A 3A 00 00 00 00 00 00
(001.401164)  vcan0  0000017C   [8]  4B 00 00 00 00 00 00 00
(001.407118)  vcan0  0000014A   [8]  00 00 00 00 8D B2 E5 DA
(001.407331)  vcan0  00000309   [8]  0A 42 00 00 00 00 00 00
(001.407549)  vcan0  0000017C   [8]  4B 00 00 00 00 00 00 00
(001.407757)  vcan0  00000170   [8]  C2 00 00 00 00 00 00 00
(001.413114)  vcan0  0000014A   [8]  00 00 00 05 47 DB 47 1C
(001.413329)  vcan0  00000309   [8]  0A 53 00 00 00 00 00 00
(001.413547)  vcan0  0000017C   [8]  3B B7 00 00 00 00 00 00
(001.413755)  vcan0  00000170   [8]  12 00 00 00 00 00 00 00
(001.418966)  vcan0  00000309   [8]  0A 5B 00 00 00 00 00 00
(001.419190)  vcan0  0000017C   [8]  33 A5 00 00 00 00 00 00
(001.419400)  vcan0  00000170   [8]  25 00 00 00 00 00 00 00
(001.419610)  vcan0  0000014A   [8]  00 00 00 09 9A C7 A2 26
(001.424545)  vcan0  00000170   [8]  78 00 00 00 00 00 00 00
(001.424768)  vcan0  0000014A   [8]  00 00 00 0E 36 E8 87 0C
(001.424980)  vcan0  00000309   [8]  0A 6C 00 00 00 00 00 00
(001.425199)  vcan0  0000017C   [8]  22 55 00 00 00 00 00 00
(001.430646)  vcan0  00000170   [8]  C5 00 00 00 00 00 00 00
(001.430870)  vcan0  0000014A   [8]  00 00 00 12 62 8A 99 70
(001.431083)  vcan0  00000309   [8]  0A 73 00 00 00 00 00 00
(001.431302)  vcan0  0000017C   [8]  1A AB 00 00 00 00 00 00
(001.436694)  vcan0  0000014A   [8]  00 00 00 16 D8 63 11 D2
(001.436906)  vcan0  00000170   [8]  48 00 00 00 00 00 00 00
(001.437118)  vcan0  00000309   [8]  0A 83 00 00 00 00 00 00
(001.437336)  vcan0  0000017C   [8]  0A 5A 00 00 00 00 00 00
(001.442533)  vcan0  0000017C   [8]  03 C6 00 00 00 00 00 00
(001.442748)  vcan0  00000309   [8]  0A 8A 00 00 00 00 00 00
(001.442957)  vcan0  00000170   [8]  C8 00 00 00 00 00 00 00
(001.443167)  vcan0  0000014A   [8]  00 00 00 1A CB F6 0A EA
(001.448343)  vcan0  0000014A   [8]  00 00 00 1F 09 B0 47 B6
(001.448569)  vcan0  0000017C   [8]  00 00 00 00 00 00 06 F8
(001.448904)  vcan0  00000309   [8]  0A 98 00 00 00 00 00 00
(001.449113)  vcan0  00000170   [8]  92 00 00 00 00 00 00 00
(001.454446)  vcan0  0000014A   [8]  00 00 00 22 D5 2B 7F 0C
(001.454661)  vcan0  00000309   [8]  0A 9D 00 00 00 00 00 00
(001.454917)  vcan0  00000170   [8]  43 00 00 00 00 00 00 00
(001.455135)  vcan0  0000017C   [8]  00 00 00 00 00 00 0A 30
(001.460334)  vcan0  00000309   [8]  0A A9 00 00 00 00 00 00
(001.460550)  vcan0  0000014A   [8]  00 00 00 26 CA 3F CD D4
(001.460758)  vcan0  00000170   [8]  80 00 00 00 00 00 00 00
(001.460978)  vcan0  0000017C   [8]  00 00 00 00 00 00 11 F0
(001.466106)  vcan0  00000309   [8]  0A AA 00 00 00 00 00 00
(001.466322)  vcan0  0000014A   [8]  00 00 00 2A 58 88 6D A2
(001.466542)  vcan0  0000017C   [8]  00 00 00 00 00 00 13 30
(001.466750)  vcan0  00000170   [8]  A7 00 00 00 00 00 00 00
(001.472421)  vcan0  0000017C   [8]  00 00 00 00 00 00 13 30
(001.472638)  vcan0  0000014A   [8]  01 FF FF B3 22 F4 E4 D8
(001.472849)  vcan0  00000170   [8]  2A 00 00 00 00 00 00 00
(001.473060)  vcan0  00000309   [8]  0A B3 00 00 00 00 00 00
(001.478572)  vcan0  00000170   [8]  4E 00 00 00 00 00 00 00
(001.478792)  vcan0  0000014A   [8]  01 FF FF B5 64 49 21 42
(001.479004)  vcan0  00000309   [8]  0A B2 00 00 00 00 00 00
(001.479223)  vcan0  0000017C   [8]  00 00 00 00 00 00 13 30
(001.484340)  vcan0  00000309   [8]  0A B7 00 00 00 00 00 00
(001.484556)  vcan0  0000014A   [8]  01 FF FF B9 32 08 18 28
(001.484782)  vcan0  00000170   [8]  87 00 00 00 00 00 00 00
(001.485002)  vcan0  0000017C   [8]  00 00 00 00 00 00 13 30
(001.490500)  vcan0  0000017C   [8]  00 00 00 00 00 00 13 30
(001.490804)  vcan0  00000170   [8]  5D 00 00 00 00 00 00 00
(001.491018)  vcan0  0000014A   [8]  01 FF FF BC F6 82 83 BC
(001.491228)  vcan0  00000309   [8]  0A B3 00 00 00 00 00 00
(001.491434)  vcan0  00000202   [8]  00 B3 00 00 00 00 00 00
(001.496642)  vcan0  0000014A   [8]  01 FF FF C2 14 2D 7A 30
(001.496896)  vcan0  00000309   [8]  0A B5 00 00 00 00 00 00
(001.497118)  vcan0  00000170   [8]  4E 00 00 00 00 00 00 00
(001.497358)  vcan0  0000017C   [8]  00 00 00 00 00 00 13 30
(001.502578)  vcan0  00000170   [8]  04 00 00 00 00 00 00 00
(001.502802)  vcan0  00000309   [8]  0A B0 00 00 00 00 00 00
(001.503022)  vcan0  0000017C   [8]  00 00 00 00 00 00 13 30
(001.503231)  vcan0  0000014A   [8]  01 FF FF C6 C7 94 81 F2
(001.508450)  vcan0  0000014A   [8]  01 FF FF CC 8E 48 35 A8
(001.508674)  vcan0  000001A3   [8]  00 00 00 00 00 00 00 00
(001.508884)  vcan0  0000018F   [8]  00 00 DC 00 00 00 00 00
(001.509090)  vcan0  00000170   [8]  AE 00 00 00 00 00 00 00
(001.509300)  vcan0  00000309   [8]  0A B1 00 00 00 00 00 00
(001.509519)  vcan0  0000017C   [8]  00 00 00 00 00 00 13 30
(001.514450)  vcan0  00000309   [8]  0A AA 00 00 00 00 00 00
(001.514675)  vcan0  0000017C   [8]  00 00 00 00 00 00 13 30
(001.514885)  vcan0  00000170   [8]  4D 00 00 00 00 00 00 00
(001.515096)  vcan0  0000014A   [8]  01 FF FF D1 8E 25 4F E6
(001.520286)  vcan0  00000170   [8]  43 00 00 00 00 00 00 00
(001.520506)  vcan0  0000014A   [8]  01 FF FF D7 7B 62 0C 68
(001.520716)  vcan0  00000309   [8]  0A AA 00 00 00 00 00 00
(001.520934)  vcan0  0000017C   [8]  00 00 00 00 00 00 13 30
(001.526621)  vcan0  00000309   [8]  0A A2 00 00 00 00 00 00
(001.526847)  vcan0  0000017C   [8]  00 00 00 00 00 00 0E F0
(001.527058)  vcan0  0000014A   [8]  01 FF FF DC 90 9E AB CE
(001.527280)  vcan0  00000170   [8]  BC 00 00 00 00 00 00 00
(001.533228)  vcan0  00000170   [8]  65 00 00 00 00 00 00 00
(001.533449)  vcan0  0000014A   [8]  01 FF FF E2 A7 D6 DE B6
(001.533670)  vcan0  0000017C   [8]  00 00 00 00 00 00 0E C8
(001.533879)  vcan0  00000309   [8]  0A A2 00 00 00 00 00 00
(001.539008)  vcan0  00000170   [8]  15 00 00 00 00 00 00 00
(001.539230)  vcan0  0000014A   [8]  01 FF FF E7 E0 20 34 1C
(001.539449)  vcan0  0000017C   [8]  00 00 00 00 00 00 09 70
(001.539658)  vcan0  00000309   [8]  0A 9A 00 00 00 00 00 00
(001.545264)  vcan0  0000017C   [8]  00 00 00 00 00 00 09 38
(001.545475)  vcan0  00000170   [8]  C4 00 00 00 00 00 00 00
(001.545687)  vcan0  0000014A   [8]  01 FF FF ED D1 9C 42 4E
(001.545895)  vcan0  00000309   [8]  0A 9A 00 00 00 00 00 00
(001.551022)  vcan0  00000309   [8]  0A 91 00 00 00 00 00 00
(001.551245)  vcan0  0000017C   [8]  00 00 00 00 00 00 03 B8
(001.551454)  vcan0  00000170   [8]  4D 00 00 00 00 00 00 00
(001.551664)  vcan0  0000014A   [8]  01 FF FF F2 F5 67 56 0A
(001.556496)  vcan0  00000309   [8]  0A 91 00 00 00 00 00 00
(001.556719)  vcan0  0000017C   [8]  00 00 00 00 00 00 03 78
(001.556929)  vcan0  00000170   [8]  D8 00 00 00 00 00 00 00
(001.557139)  vcan0  0000014A   [8]  01 FF FF F8 A9 41 0A 7A
(001.562544)  vcan0  00000170   [8]  FF 00 00 00 00 00 00 00
(001.562774)  vcan0  0000017C   [8]  03 45 00 00 00 00 00 00
(001.562986)  vcan0  0000014A   [8]  01 FF FF FD 96 66 7D 20
(001.563195)  vcan0  00000309   [8]  0A 88 00 00 00 00 00 00
(001.568523)  vcan0  00000309   [8]  0A 88 00 00 00 00 00 00
(001.568818)  vcan0  0000017C   [8]  03 A2 00 00 00 00 00 00
(001.569028)  vcan0  00000170   [8]  8D 00 00 00 00 00 00 00
(001.569239)  vcan0  0000014A   [8]  00 00 00 03 08 F4 B3 1A
(001.574679)  vcan0  0000014A   [8]  00 00 00 07 BB 5F B0 D4
(001.574907)  vcan0  0000017C   [8]  0C 73 00 00 00 00 00 00
(001.575118)  vcan0  00000309   [8]  0A 7F 00 00 00 00 00 00
(001.575327)  vcan0  00000170   [8]  67 00 00 00 00 00 00 00
(001.580734)  vcan0  00000170   [8]  0A 00 00 00 00 00 00 00
(001.580962)  vcan0  0000017C   [8]  0C DE 00 00 00 00 00 00
(001.581175)  vcan0  00000309   [8]  0A 7F 00 00 00 00 00 00
(001.581384)  vcan0  0000014A   [8]  00 00 00 0C DC 0F A6 B4
(001.586952)  vcan0  0000017C   [8]  16 25 00 00 00 00 00 00
(001.587167)  vcan0  0000014A   [8]  00 00 00 11 42 27 7E A6
(001.587377)  vcan0  00000309   [8]  0A 76 00 00 00 00 00 00
(001.587585)  vcan0  00000170   [8]  DB 00 00 00 00 00 00 00
(001.592374)  vcan0  0000017C   [8]  16 A9 00 00 00 00 00 00
(001.592588)  vcan0  00000309   [8]  0A 75 00 00 00 00 00 00
(001.592877)  vcan0  0000014A   [8]  00 00 00 16 15 43 00 52
(001.593085)  vcan0  00000170   [8]  57 00 00 00 00 00 00 00
(001.598307)  vcan0  0000014A   [8]  00 00 00 1A 33 F2 BA 96
(001.598519)  vcan0  00000309   [8]  0A 6C 00 00 00 00 00 00
(001.598892)  vcan0  0000017C   [8]  20 00 00 00 00 00 00 00
(001.599101)  vcan0  00000170   [8]  19 00 00 00 00 00 00 00
(001.604653)  vcan0  00000170   [8]  78 00 00 00 00 00 00 00
(001.604875)  vcan0  00000309   [8]  0A 6C 00 00 00 00 00 00
(001.605095)  vcan0  0000017C   [8]  20 5A 00 00 00 00 00 00
(001.605306)  vcan0  0000014A   [8]  00 00 00 1E A6 A2 B1 D8
(001.610329)  vcan0  00000309   [8]  0A 63 00 00 00 00 00 00
(001.610543)  vcan0  0000014A   [8]  00 00 00 22 7B C3 14 72
(001.610762)  vcan0  0000017C   [8]  29 71 00 00 00 00 00 00
(001.610971)  vcan0  00000170   [8]  50 00 00 00 00 00 00 00
(001.616798)  vcan0  00000170   [8]  94 00 00 00 00 00 00 00
(001.617022)  vcan0  00000309   [8]  0A 63 00 00 00 00 00 00
(001.617233)  vcan0  0000014A   [8]  00 00 00 26 A2 61 AC 3A
(001.617451)  vcan0  0000017C   [8]  29 64 00 00 00 00 00 00
(001.622939)  vcan0  00000170   [8]  81 00 00 00 00 00 00 00
(001.623166)  vcan0  0000017C   [8]  31 F6 00 00 00 00 00 00
(001.623377)  vcan0  0000014A   [8]  00 00 00 2A 29 77 71 44
(001.623585)  vcan0  00000309   [8]  0A 5B 00 00 00 00 00 00
(001.628807)  vcan0  0000014A   [8]  00 00 00 2D FE 96 14 D4
(001.629018)  vcan0  00000170   [8]  60 00 00 00 00 00 00 00
(001.629238)  vcan0  0000017C   [8]  31 4B 00 00 00 00 00 00
(001.629448)  vcan0  00000309   [8]  0A 5B 00 00 00 00 00 00
(001.635012)  vcan0  0000017C   [8]  39 1B 00 00 00 00 00 00
(001.635224)  vcan0  0000014A   [8]  00 00 00 31 3C 76 25 FE
(001.635434)  vcan0  00000309   [8]  0A 54 00 00 00 00 00 00
(001.635641)  vcan0  00000170   [8]  9B 00 00 00 00 00 00 00
(001.641330)  vcan0  0000017C   [8]  37 A6 00 00 00 00 00 00
(001.641544)  vcan0  0000014A   [8]  00 00 00 34 C2 C1 A5 80
(001.641754)  vcan0  00000309   [8]  0A 55 00 00 00 00 00 00
(001.641961)  vcan0  00000170   [8]  7A 00 00 00 00 00 00 00
(001.646983)  vcan0  0000017C   [8]  3E 8B 00 00 00 00 00 00
(001.647194)  vcan0  00000170   [8]  9B 00 00 00 00 00 00 00
(001.647405)  vcan0  00000309   [8]  0A 4F 00 00 00 00 00 00
(001.647614)  vcan0  0000014A   [8]  00 00 00 37 C3 DA CE 44
(001.652611)  vcan0  00000170   [8]  DA 00 00 00 00 00 00 00
(001.652829)  vcan0  00000309   [8]  0A 51 00 00 00 00 00 00
(001.653040)  vcan0  0000014A   [8]  00 00 00 3A F5 24 34 A4
(001.653257)  vcan0  0000017C   [8]  3C 2B 00 00 00 00 00 00
(001.658412)  vcan0  00000309   [8]  0A 4B 00 00 00 00 00 00
(001.658637)  vcan0  0000017C   [8]  42 0A 00 00 00 00 00 00
(001.658849)  vcan0  0000014A   [8]  00 00 00 3D B7 09 61 A2
(001.659058)  vcan0  00000170   [8]  94 00 00 00 00 00 00 00
(001.664276)  vcan0  00000170   [8]  C6 00 00 00 00 00 00 00
(001.664502)  vcan0  0000017C   [8]  3E AC 00 00 00 00 00 00
(001.664714)  vcan0  0000014A   [8]  00 00 00 40 AD 05 A4 28
(001.664924)  vcan0  00000309   [8]  0A 4F 00 00 00 00 00 00
(001.670310)  vcan0  0000014A   [8]  00 00 00 43 28 70 7A B8
(001.670524)  vcan0  00000170   [8]  30 00 00 00 00 00 00 00
(001.670737)  vcan0  00000309   [8]  0A 4A 00 00 00 00 00 00
(001.670956)  vcan0  0000017C   [8]  43 7B 00 00 00 00 00 00
(001.676374)  vcan0  0000014A   [8]  00 00 00 45 DD 6D C9 D0
(001.676587)  vcan0  00000309   [8]  0A 4E 00 00 00 00 00 00
(001.676807)  vcan0  0000017C   [8]  3F 19 00 00 00 00 00 00
(001.677015)  vcan0  00000170   [8]  EE 00 00 00 00 00 00 00
(001.682954)  vcan0  0000014A   [8]  01 FF FF CE A7 DA 41 04
(001.683177)  vcan0  00000170   [8]  51 00 00 00 00 00 00 00
(001.683403)  vcan0  00000309   [8]  0A 4B 00 00 00 00 00 00
(001.683639)  vcan0  0000017C   [8]  42 DF 00 00 00 00 00 00
(001.688353)  vcan0  0000014A   [8]  01 FF FF EC C0 29 FA D2
(001.688591)  vcan0  0000017C   [8]  3D B2 00 00 00 00 00 00
(001.688813)  vcan0  00000309   [8]  0A 50 00 00 00 00 00 00
(001.689028)  vcan0  00000170   [8]  28 00 00 00 00 00 00 00
(001.694366)  vcan0  0000017C   [8]  40 AD 00 00 00 00 00 00
(001.694582)  vcan0  00000309   [8]  0A 4D 00 00 00 00 00 00
(001.694793)  vcan0  0000014A   [8]  01 FF FF EF 26 04 1C C0
(001.695001)  vcan0  00000170   [8]  E9 00 00 00 00 00 00 00
(001.700533)  vcan0  0000017C   [8]  3B 9F 00 00 00 00 00 00
(001.700749)  vcan0  00000309   [8]  0A 52 00 00 00 00 00 00
(001.700960)  vcan0  00000170   [8]  E2 00 00 00 00 00 00 00
(001.701173)  vcan0  0000014A   [8]  01 FF FF F2 A2 A2 00 54
(001.707167)  vcan0  00000170   [8]  54 00 00 00 00 00 00 00
(001.707397)  vcan0  0000017C   [8]  3D 93 00 00 00 00 00 00
(001.707608)  vcan0  0000014A   [8]  01 FF FF F5 F8 1C 06 06
(001.707818)  vcan0  00000309   [8]  0A 50 00 00 00 00 00 00
(001.712443)  vcan0  0000014A   [8]  01 FF FF FA 0D 9D 53 66
(001.712667)  vcan0  0000017C   [8]  37 DA 00 00 00 00 00 00
(001.712877)  vcan0  00000170   [8]  AA 00 00 00 00 00 00 00
(001.713087)  vcan0  00000309   [8]  0A 56 00 00 00 00 00 00
(001.718770)  vcan0  0000017C   [8]  39 44 00 00 00 00 00 00
(001.718981)  vcan0  00000170   [8]  67 00 00 00 00 00 00 00
(001.719192)  vcan0  00000309   [8]  0A 54 00 00 00 00 00 00
(001.719402)  vcan0  0000014A   [8]  01 FF FF FD A3 B8 4B 26
(001.724343)  vcan0  0000017C   [8]  32 8F 00 00 00 00 00 00
(001.724573)  vcan0  00000309   [8]  0A 5B 00 00 00 00 00 00
(001.724796)  vcan0  0000014A   [8]  00 00 00 01 DC E5 CB B6
(001.725013)  vcan0  00000170   [8]  8D 00 00 00 00 00 00 00
(001.730444)  vcan0  00000309   [8]  0A 5A 00 00 00 00 00 00
(001.730660)  vcan0  0000014A   [8]  00 00 00 05 9C C4 ED C2
(001.730869)  vcan0  00000170   [8]  05 00 00 00 00 00 00 00
(001.731090)  vcan0  0000017C   [8]  33 9E 00 00 00 00 00 00
(001.736348)  vcan0  00000202   [8]  00 31 00 00 00 00 00 00
(001.736570)  vcan0  00000309   [8]  0A 61 00 00 00 00 00 00
(001.736814)  vcan0  0000017C   [8]  2C 52 00 00 00 00 00 00
(001.737026)  vcan0  0000014A   [8]  00 00 00 09 DC 61 20 2A
(001.737233)  vcan0  00000170   [8]  52 00 00 00 00 00 00 00
(001.742312)  vcan0  00000170   [8]  85 00 00 00 00 00 00 00
(001.742536)  vcan0  00000309   [8]  0A 60 00 00 00 00 00 00
(001.742758)  vcan0  0000017C   [8]  2D 30 00 00 00 00 00 00
(001.742969)  vcan0  0000014A   [8]  00 00 00 0D B3 D0 E6 90
(001.748455)  vcan0  0000017C   [8]  25 B0 00 00 00 00 00 00
(001.748685)  vcan0  00000309   [8]  0A 68 00 00 00 00 00 00
(001.748910)  vcan0  0000014A   [8]  00 00 00 12 03 38 33 A0
(001.749127)  vcan0  00000170   [8]  29 00 00 00 00 00 00 00
(001.754268)  vcan0  0000017C   [8]  26 96 00 00 00 00 00 00
(001.754484)  vcan0  0000014A   [8]  00 00 00 15 D0 77 1B FA
(001.754696)  vcan0  00000309   [8]  0A 67 00 00 00 00 00 00
(001.754904)  vcan0  00000170   [8]  95 00 00 00 00 00 00 00
(001.760362)  vcan0  00000309   [8]  0A 6E 00 00 00 00 00 00
(001.760578)  vcan0  0000014A   [8]  00 00 00 19 F9 13 99 EE
(001.760788)  vcan0  00000170   [8]  3C 00 00 00 00 00 00 00
(001.761007)  vcan0  0000017C   [8]  1F 32 00 00 00 00 00 00
(001.766354)  vcan0  00000170   [8]  C6 00 00 00 00 00 00 00
(001.766583)  vcan0  0000017C   [8]  20 59 00 00 00 00 00 00
(001.766795)  vcan0  00000309   [8]  0A 6D 00 00 00 00 00 00
(001.767005)  vcan0  0000014A   [8]  00 00 00 1D 9F E3 15 FE
(001.772738)  vcan0  00000170   [8]  F5 00 00 00 00 00 00 00
(001.772958)  vcan0  0000014A   [8]  00 00 00 21 A4 73 55 DA
(001.773169)  vcan0  00000309   [8]  0A 74 00 00 00 00 00 00
(001.773386)  vcan0  0000017C   [8]  19 54 00 00 00 00 00 00
(001.779124)  vcan0  00000170   [8]  32 00 00 00 00 00 00 00
(001.779353)  vcan0  0000017C   [8]  1A EC 00 00 00 00 00 00
(001.779564)  vcan0  0000014A   [8]  00 00 00 25 19 7B FF B4
(001.779773)  vcan0  00000309   [8]  0A 72 00 00 00 00 00 00
(001.785029)  vcan0  0000014A   [8]  00 00 00 28 E6 2A 8D 2E
(001.785240)  vcan0  00000170   [8]  32 00 00 00 00 00 00 00
(001.785452)  vcan0  00000309   [8]  0A 78 00 00 00 00 00 00
(001.785669)  vcan0  0000017C   [8]  14 76 00 00 00 00 00 00
(001.790848)  vcan0  00000309   [8]  0A 76 00 00 00 00 00 00
(001.791070)  vcan0  0000017C   [8]  16 A5 00 00 00 00 00 00
(001.791282)  vcan0  0000014A   [8]  00 00 00 2C 33 EA 18 66
(001.791491)  vcan0  00000170   [8]  BB 00 00 00 00 00 00 00
(001.797244)  vcan0  00000309   [8]  0A 7C 00 00 00 00 00 00
(001.797466)  vcan0  0000017C   [8]  10 DB 00 00 00 00 00 00
(001.797674)  vcan0  00000170   [8]  2F 00 00 00 00 00 00 00
(001.797884)  vcan0  0000014A   [8]  00 00 00 2F BB 31 A1 F0
(001.802470)  vcan0  00000170   [8]  3D 00 00 00 00 00 00 00
(001.802700)  vcan0  0000017C   [8]  13 B7 00 00 00 00 00 00
(001.802913)  vcan0  0000014A   [8]  00 00 00 32 D8 57 49 F4
(001.803122)  vcan0  00000309   [8]  0A 79 00 00 00 00 00 00
(001.808428)  vcan0  00000309   [8]  0A 7E 00 00 00 00 00 00
(001.808639)  vcan0  00000170   [8]  21 00 00 00 00 00 00 00
(001.808859)  vcan0  0000017C   [8]  0E A6 00 00 00 00 00 00
(001.809069)  vcan0  0000014A   [8]  00 00 00 36 22 56 FD 06
(001.814664)  vcan0  0000014A   [8]  00 00 00 38 FF 74 C9 0A
(001.814888)  vcan0  0000017C   [8]  12 39 00 00 00 00 00 00
(001.815099)  vcan0  00000309   [8]  0A 7A 00 00 00 00 00 00
(001.815308)  vcan0  00000170   [8]  2A 00 00 00 00 00 00 00
(001.820446)  vcan0  00000170   [8]  AC 00 00 00 00 00 00 00
(001.820682)  vcan0  0000014A   [8]  00 00 00 3C 19 01 4E 2E
(001.820906)  vcan0  00000309   [8]  0A 7F 00 00 00 00 00 00
(001.821141)  vcan0  0000017C   [8]  0D DD 00 00 00 00 00 00
(001.826821)  vcan0  0000014A   [8]  00 00 00 3E B8 AD 10 66
(001.827047)  vcan0  00000309   [8]  0A 7A 00 00 00 00 00 00
(001.827281)  vcan0  0000017C   [8]  12 21 00 00 00 00 00 00
(001.827497)  vcan0  00000170   [8]  C9 00 00 00 00 00 00 00
(001.832778)  vcan0  00000309   [8]  0A 7E 00 00 00 00 00 00
(001.832999)  vcan0  00000170   [8]  A9 00 00 00 00 00 00 00
(001.833227)  vcan0  0000014A   [8]  00 00 00 41 9A A0 5B 18
(001.833464)  vcan0  0000017C   [8]  0E 6C 00 00 00 00 00 00
(001.839248)  vcan0  00000170   [8]  2B 00 00 00 00 00 00 00
(001.839480)  vcan0  0000014A   [8]  00 00 00 44 08 41 30 BE
(001.839715)  vcan0  0000017C   [8]  13 51 00 00 00 00 00 00
(001.839936)  vcan0  00000309   [8]  0A 79 00 00 00 00 00 00
(001.845221)  vcan0  00000170   [8]  C5 00 00 00 00 00 00 00
(001.845443)  vcan0  00000309   [8]  0A 7C 00 00 00 00 00 00
(001.845654)  vcan0  0000014A   [8]  00 00 00 46 A2 31 88 AE
(001.845873)  vcan0  0000017C   [8]  10 29 00 00 00 00 00 00
(001.850593)  vcan0  0000017C   [8]  15 98 00 00 00 00 00 00
(001.850809)  vcan0  00000309   [8]  0A 77 00 00 00 00 00 00
(001.851019)  vcan0  0000014A   [8]  00 00 00 48 E6 E2 5E C2
(001.851228)  vcan0  00000170   [8]  4D 00 00 00 00 00 00 00
(001.856969)  vcan0  0000017C   [8]  12 DD 00 00 00 00 00 00
(001.857182)  vcan0  00000170   [8]  25 00 00 00 00 00 00 00
(001.857394)  vcan0  00000309   [8]  0A 7A 00 00 00 00 00 00
(001.857603)  vcan0  0000014A   [8]  00 00 00 4B 46 47 B2 38
(001.862568)  vcan0  0000014A   [8]  00 00 00 4D 56 FF B7 62
(001.862778)  vcan0  00000170   [8]  C7 00 00 00 00 00 00 00
(001.862998)  vcan0  0000017C   [8]  18 B7 00 00 00 00 00 00
(001.863210)  vcan0  00000309   [8]  0A 74 00 00 00 00 00 00
(001.868283)  vcan0  00000309   [8]  0A 76 00 00 00 00 00 00
(001.868496)  vcan0  00000170   [8]  F2 00 00 00 00 00 00 00
(001.868717)  vcan0  0000017C   [8]  16 4A 00 00 00 00 00 00
(001.868927)  vcan0  0000014A   [8]  00 00 00 4F 86 45 AE 94
(001.874713)  vcan0  0000017C   [8]  1C 6D 00 00 00 00 00 00
(001.874937)  vcan0  00000170   [8]  E4 00 00 00 00 00 00 00
(001.875167)  vcan0  0000014A   [8]  00 00 00 51 63 AE 8F B4
(001.875390)  vcan0  00000309   [8]  0A 70 00 00 00 00 00 00
(001.880271)  vcan0  0000014A   [8]  01 FF FF DA 2E 1A 71 E8
(001.880488)  vcan0  00000309   [8]  0A 72 00 00 00 00 00 00
(001.880697)  vcan0  00000170   [8]  97 00 00 00 00 00 00 00
(001.880915)  vcan0  0000017C   [8]  1A 2A 00 00 00 00 00 00
(001.886379)  vcan0  0000017C   [8]  20 83 00 00 00 00 00 00
(001.886594)  vcan0  00000309   [8]  0A 6C 00 00 00 00 00 00
(001.886805)  vcan0  0000014A   [8]  00 00 00 0F 2D 5A A5 A4
(001.887013)  vcan0  00000170   [8]  32 00 00 00 00 00 00 00
(001.892191)  vcan0  00000170   [8]  A0 00 00 00 00 00 00 00
(001.892411)  vcan0  0000014A   [8]  00 00 00 11 AF EA 14 30
(001.892632)  vcan0  0000017C   [8]  1E DC 00 00 00 00 00 00
(001.892841)  vcan0  00000309   [8]  0A 6E 00 00 00 00 00 00
(001.898170)  vcan0  0000014A   [8]  00 00 00 14 28 B8 FB EE
(001.898381)  vcan0  00000170   [8]  51 00 00 00 00 00 00 00
(001.898594)  vcan0  00000309   [8]  0A 68 00 00 00 00 00 00
(001.898813)  vcan0  0000017C   [8]  25 1F 00 00 00 00 00 00
(001.904142)  vcan0  00000309   [8]  0A 69 00 00 00 00 00 00
(001.904367)  vcan0  0000017C   [8]  23 9B 00 00 00 00 00 00
(001.904576)  vcan0  00000170   [8]  27 00 00 00 00 00 00 00
(001.904787)  vcan0  0000014A   [8]  00 00 00 17 3D 6F B7 E2
(001.910171)  vcan0  00000309   [8]  0A 63 00 00 00 00 00 00
(001.910398)  vcan0  0000017C   [8]  29 AC 00 00 00 00 00 00
(001.910609)  vcan0  0000014A   [8]  00 00 00 19 F1 43 01 06
(001.910817)  vcan0  00000170   [8]  3B 00 00 00 00 00 00 00
(001.916450)  vcan0  00000309   [8]  0A 65 00 00 00 00 00 00
(001.916665)  vcan0  0000014A   [8]  00 00 00 1D 30 1E 87 32
(001.916885)  vcan0  0000017C   [8]  27 96 00 00 00 00 00 00
(001.917094)  vcan0  00000170   [8]  1A 00 00 00 00 00 00 00
(001.922278)  vcan0  00000170   [8]  F4 00 00 00 00 00 00 00
(001.922501)  vcan0  00000309   [8]  0A 5F 00 00 00 00 00 00
(001.922714)  vcan0  0000014A   [8]  00 00 00 1F F6 D0 77 B4
(001.922933)  vcan0  0000017C   [8]  2D 6A 00 00 00 00 00 00
(001.928181)  vcan0  0000017C   [8]  2A C2 00 00 00 00 00 00
(001.928397)  vcan0  00000309   [8]  0A 62 00 00 00 00 00 00
(001.928609)  vcan0  0000014A   [8]  00 00 00 23 40 07 EE CA
(001.928817)  vcan0  00000170   [8]  8A 00 00 00 00 00 00 00
(001.934141)  vcan0  00000309   [8]  0A 5D 00 00 00 00 00 00
(001.934361)  vcan0  0000014A   [8]  00 00 00 26 0F 7A DE 00
(001.934569)  vcan0  00000170   [8]  7A 00 00 00 00 00 00 00
(001.934788)  vcan0  0000017C   [8]  30 34 00 00 00 00 00 00
(001.940377)  vcan0  0000017C   [8]  2C FF 00 00 00 00 00 00
(001.940592)  vcan0  00000309   [8]  0A 60 00 00 00 00 00 00
(001.940801)  vcan0  00000170   [8]  A3 00 00 00 00 00 00 00
(001.941011)  vcan0  0000014A   [8]  00 00 00 29 5C 17 F4 6E
(001.946322)  vcan0  00000309   [8]  0A 5B 00 00 00 00 00 00
(001.946534)  vcan0  00000170   [8]  3E 00 00 00 00 00 00 00
(001.946746)  vcan0  0000014A   [8]  00 00 00 2C 37 76 22 84
(001.946965)  vcan0  0000017C   [8]  31 FC 00 00 00 00 00 00
(001.952540)  vcan0  0000017C   [8]  2E 3E 00 00 00 00 00 00
(001.952752)  vcan0  00000170   [8]  13 00 00 00 00 00 00 00
(001.952964)  vcan0  00000309   [8]  0A 5F 00 00 00 00 00 00
(001.953175)  vcan0  0000014A   [8]  00 00 00 2F 6A 00 42 48
(001.958374)  vcan0  0000014A   [8]  00 00 00 32 2E 52 82 AC
(001.958603)  vcan0  0000017C   [8]  32 BE 00 00 00 00 00 00
(001.958814)  vcan0  00000309   [8]  0A 5A 00 00 00 00 00 00
(001.959023)  vcan0  00000170   [8]  E2 00 00 00 00 00 00 00
(001.964429)  vcan0  0000017C   [8]  2E 7D 00 00 00 00 00 00
(001.964645)  vcan0  00000309   [8]  0A 5F 00 00 00 00 00 00
(001.964854)  vcan0  00000170   [8]  E2 00 00 00 00 00 00 00
(001.965065)  vcan0  0000014A   [8]  00 00 00 35 42 B6 96 F8
(001.970261)  vcan0  0000014A   [8]  00 00 00 37 E6 30 29 9C
(001.970483)  vcan0  0000017C   [8]  32 84 00 00 00 00 00 00
(001.970693)  vcan0  00000170   [8]  3C 00 00 00 00 00 00 00
(001.970904)  vcan0  00000309   [8]  0A 5B 00 00 00 00 00 00
(001.976264)  vcan0  00000309   [8]  0A 5F 00 00 00 00 00 00
(001.976478)  vcan0  0000014A   [8]  00 00 00 3A CC CB 41 96
(001.976699)  vcan0  0000017C   [8]  2D CE 00 00 00 00 00 00
(001.976908)  vcan0  00000170   [8]  33 00 00 00 00 00 00 00
(001.982225)  vcan0  00000202   [8]  00 43 00 00 00 00 00 00
(001.982444)  vcan0  0000014A   [8]  00 00 00 3D 53 1A D2 CA
(001.982652)  vcan0  00000170   [8]  6F 00 00 00 00 00 00 00
(001.982871)  vcan0  0000017C   [8]  31 68 00 00 00 00 00 00
(001.983081)  vcan0  00000309   [8]  0A 5C 00 00 00 00 00 00
(001.988553)  vcan0  00000309   [8]  0A 61 00 00 00 00 00 00
(001.988783)  vcan0  0000014A   [8]  00 00 00 40 09 A6 90 52
(001.989002)  vcan0  00000170   [8]  BF 00 00 00 00 00 00 00
(001.989247)  vcan0  0000017C   [8]  2C 51 00 00 00 00 00 00
(001.994871)  vcan0  0000017C   [8]  2F 93 00 00 00 00 00 00
(001.995088)  vcan0  00000309   [8]  0A 5E 00 00 00 00 00 00
(001.995299)  vcan0  00000170   [8]  D4 00 00 00 00 00 00 00
(001.995510)  vcan0  0000014A   [8]  00 00 00 42 65 F7 77 8E
(002.000773)  vcan0  0000017C   [8]  2A 32 00 00 00 00 00 00
(002.000984)  vcan0  00000170   [8]  76 00 00 00 00 00 00 00
(002.001197)  vcan0  0000014A   [8]  00 00 00 44 ED E1 FA F4
(002.001407)  vcan0  00000309   [8]  0A 63 00 00 00 00 00 00
(002.006666)  vcan0  0000037B   [8]  00 00 00 00 00 00 00 00
(002.006884)  vcan0  000001A3   [8]  00 00 00 00 00 00 00 00
(002.007094)  vcan0  00000170   [8]  7B 00 00 00 00 00 00 00
(002.007315)  vcan0  0000017C   [8]  2D 33 00 00 00 00 00 00
(002.007530)  vcan0  00000326   [8]  00 00 00 00 00 00 00 00
(002.007739)  vcan0  00000309   [8]  0A 60 00 00 00 00 00 00
(002.007947)  vcan0  0000014A   [8]  00 00 00 47 1F CE 5B 30
(002.008153)  vcan0  0000018F   [8]  00 00 4E 00 00 00 00 00
(002.008366)  vcan0  00000374   [8]  00 00 00 00 00 00 00 00
(002.008580)  vcan0  000001A4   [8]  00 67 00 00 00 00 00 00
(002.012398)  vcan0  00000170   [8]  B5 00 00 00 00 00 00 00
(002.012616)  vcan0  00000309   [8]  0A 65 00 00 00 00 00 00
(002.012827)  vcan0  0000014A   [8]  00 00 00 49 85 88 2E FA
(002.013044)  vcan0  0000017C   [8]  27 A2 00 00 00 00 00 00
(002.018271)  vcan0  00000170   [8]  1D 00 00 00 00 00 00 00
(002.018491)  vcan0  00000309   [8]  0A 63 00 00 00 00 00 00
(002.018711)  vcan0  0000017C   [8]  2A 7D 00 00 00 00 00 00
(002.018921)  vcan0  0000014A   [8]  00 00 00 4B 8E 26 8E 44
(002.024161)  vcan0  00000170   [8]  17 00 00 00 00 00 00 00
(002.024379)  vcan0  00000309   [8]  0A 68 00 00 00 00 00 00
(002.024595)  vcan0  0000014A   [8]  00 00 00 4D B9 9F 4A 0C
(002.024813)  vcan0  0000017C   [8]  24 D9 00 00 00 00 00 00
(002.030867)  vcan0  0000014A   [8]  00 00 00 4F 9D 05 5B C2
(002.031080)  vcan0  00000170   [8]  7C 00 00 00 00 00 00 00
(002.031293)  vcan0  00000309   [8]  0A 65 00 00 00 00 00 00
(002.031511)  vcan0  0000017C   [8]  27 AA 00 00 00 00 00 00
(002.036449)  vcan0  0000014A   [8]  00 00 00 51 9B 8F 18 12
(002.036665)  vcan0  00000309   [8]  0A 6B 00 00 00 00 00 00
(002.036885)  vcan0  0000017C   [8]  22 0D 00 00 00 00 00 00
(002.037095)  vcan0  00000170   [8]  A7 00 00 00 00 00 00 00
(002.042915)  vcan0  0000014A   [8]  00 00 00 53 58 99 87 E2
(002.043129)  vcan0  00000170   [8]  E1 00 00 00 00 00 00 00
(002.043342)  vcan0  00000309   [8]  0A 68 00 00 00 00 00 00
(002.043560)  vcan0  0000017C   [8]  24 EC 00 00 00 00 00 00
(002.049052)  vcan0  00000170   [8]  31 00 00 00 00 00 00 00
(002.049282)  vcan0  00000309   [8]  0A 6E 00 00 00 00 00 00
(002.049496)  vcan0  0000014A   [8]  00 00 00 55 32 32 B4 4C
(002.049715)  vcan0  0000017C   [8]  1F 6E 00 00 00 00 00 00
(002.054553)  vcan0  00000309   [8]  0A 6A 00 00 00 00 00 00
(002.054784)  vcan0  0000017C   [8]  22 73 00 00 00 00 00 00
(002.054995)  vcan0  00000170   [8]  EE 00 00 00 00 00 00 00
(002.055208)  vcan0  0000014A   [8]  00 00 00 56 CD 61 25 B2
(002.060417)  vcan0  0000017C   [8]  1D 28 00 00 00 00 00 00
(002.060632)  vcan0  0000014A   [8]  00 00 00 58 77 28 D0 24
(002.060843)  vcan0  00000170   [8]  EB 00 00 00 00 00 00 00
(002.061053)  vcan0  00000309   [8]  0A 70 00 00 00 00 00 00
(002.066419)  vcan0  00000309   [8]  0A 6C 00 00 00 00 00 00
(002.066632)  vcan0  0000014A   [8]  00 00 00 59 EF 37 7B 6A
(002.066841)  vcan0  00000170   [8]  1D 00 00 00 00 00 00 00
(002.067067)  vcan0  0000017C   [8]  20 63 00 00 00 00 00 00
(002.073002)  vcan0  0000014A   [8]  00 00 00 5B 79 8E 7B CC
(002.073220)  vcan0  00000309   [8]  0A 71 00 00 00 00 00 00
(002.073441)  vcan0  0000017C   [8]  1B 59 00 00 00 00 00 00
(002.073650)  vcan0  00000170   [8]  46 00 00 00 00 00 00 00
(002.078813)  vcan0  00000170   [8]  81 00 00 00 00 00 00 00
(002.079038)  vcan0  00000309   [8]  0A 6E 00 00 00 00 00 00
(002.079254)  vcan0  0000014A   [8]  01 FF FF E4 43 FA A8 80
(002.079474)  vcan0  0000017C   [8]  1E D8 00 00 00 00 00 00
(002.084902)  vcan0  00000170   [8]  04 00 00 00 00 00 00 00
(002.085127)  vcan0  0000014A   [8]  00 00 00 2A 60 F0 F2 94
(002.085339)  vcan0  00000309   [8]  0A 73 00 00 00 00 00 00
(002.085559)  vcan0  0000017C   [8]  1A 3F 00 00 00 00 00 00
(002.091347)  vcan0  0000017C   [8]  1E 16 00 00 00 00 00 00
(002.091563)  vcan0  0000014A   [8]  00 00 00 2C 2E 2C 5A 14
(002.091773)  vcan0  00000170   [8]  57 00 00 00 00 00 00 00
(002.091983)  vcan0  00000309   [8]  0A 6F 00 00 00 00 00 00
(002.097728)  vcan0  00000309   [8]  0A 73 00 00 00 00 00 00
(002.097973)  vcan0  0000017C   [8]  1A 22 00 00 00 00 00 00
(002.098198)  vcan0  0000014A   [8]  00 00 00 2E 78 FE C1 F8
(002.098416)  vcan0  00000170   [8]  0C 00 00 00 00 00 00 00
(002.102695)  vcan0  00000170   [8]  71 00 00 00 00 00 00 00
(002.102923)  vcan0  00000309   [8]  0A 6F 00 00 00 00 00 00
(002.103135)  vcan0  0000014A   [8]  00 00 00 30 76 55 72 A8
(002.103354)  vcan0  0000017C   [8]  1E 26 00 00 00 00 00 00
(002.108874)  vcan0  00000309   [8]  0A 72 00 00 00 00 00 00
(002.109094)  vcan0  00000170   [8]  9E 00 00 00 00 00 00 00
(002.109315)  vcan0  0000017C   [8]  1A 47 00 00 00 00 00 00
(002.109527)  vcan0  0000014A   [8]  00 00 00 32 EA 8A 3A E4
(002.114911)  vcan0  00000309   [8]  0A 6E 00 00 00 00 00 00
(002.115137)  vcan0  0000017C   [8]  1E 9A 00 00 00 00 00 00
(002.115347)  vcan0  00000170   [8]  C7 00 00 00 00 00 00 00
(002.115558)  vcan0  0000014A   [8]  00 00 00 34 FF 97 1B 2C
(002.120652)  vcan0  0000017C   [8]  1A D1 00 00 00 00 00 00
(002.120867)  vcan0  0000014A   [8]  00 00 00 37 71 D9 56 F8
(002.121076)  vcan0  00000170   [8]  31 00 00 00 00 00 00 00
(002.121287)  vcan0  00000309   [8]  0A 72 00 00 00 00 00 00
(002.126538)  vcan0  00000309   [8]  0A 6D 00 00 00 00 00 00
(002.126749)  vcan0  00000170   [8]  3B 00 00 00 00 00 00 00
(002.126967)  vcan0  0000017C   [8]  1F 5D 00 00 00 00 00 00
(002.127176)  vcan0  0000014A   [8]  00 00 00 39 97 A5 CA C8
(002.132483)  vcan0  00000170   [8]  97 00 00 00 00 00 00 00
(002.132705)  vcan0  0000014A   [8]  00 00 00 3C 09 86 87 22
(002.132917)  vcan0  00000309   [8]  0A 71 00 00 00 00 00 00
(002.133135)  vcan0  0000017C   [8]  1B AD 00 00 00 00 00 00
(002.138835)  vcan0  00000309   [8]  0A 6C 00 00 00 00 00 00
(002.139046)  vcan0  00000170   [8]  B8 00 00 00 00 00 00 00
(002.139265)  vcan0  0000017C   [8]  20 64 00 00 00 00 00 00
(002.139474)  vcan0  0000014A   [8]  00 00 00 3E 32 5E 61 7E
(002.145123)  vcan0  0000017C   [8]  1C C9 00 00 00 00 00 00
(002.145338)  vcan0  00000170   [8]  F8 00 00 00 00 00 00 00
(002.145551)  vcan0  0000014A   [8]  00 00 00 40 A1 B7 8E 6C
(002.145762)  vcan0  00000309   [8]  0A 70 00 00 00 00 00 00
(002.150993)  vcan0  00000170   [8]  A5 00 00 00 00 00 00 00
(002.151221)  vcan0  0000014A   [8]  00 00 00 42 BE B1 D7 B0
(002.151445)  vcan0  0000017C   [8]  21 9F 00 00 00 00 00 00
(002.151655)  vcan0  00000309   [8]  0A 6B 00 00 00 00 00 00
(002.157390)  vcan0  00000170   [8]  64 00 00 00 00 00 00 00
(002.157615)  vcan0  0000014A   [8]  00 00 00 45 15 7C E1 B6
(002.157826)  vcan0  00000309   [8]  0A 6F 00 00 00 00 00 00
(002.158045)  vcan0  0000017C   [8]  1E 11 00 00 00 00 00 00
(002.163516)  vcan0  0000017C   [8]  22 F7 00 00 00 00 00 00
(002.163729)  vcan0  00000170   [8]  44 00 00 00 00 00 00 00
(002.163941)  vcan0  00000309   [8]  0A 6A 00 00 00 00 00 00
(002.164154)  vcan0  0000014A   [8]  00 00 00 47 1A 78 38 EE
(002.168775)  vcan0  00000170   [8]  66 00 00 00 00 00 00 00
(002.169016)  vcan0  0000014A   [8]  00 00 00 49 51 9D EB 58
(002.169241)  vcan0  00000309   [8]  0A 6D 00 00 00 00 00 00
(002.169477)  vcan0  0000017C   [8]  1F 6D 00 00 00 00 00 00
(002.174765)  vcan0  0000017C   [8]  24 57 00 00 00 00 00 00
(002.174979)  vcan0  00000170   [8]  D1 00 00 00 00 00 00 00
(002.175192)  vcan0  00000309   [8]  0A 68 00 00 00 00 00 00
(002.175402)  vcan0  0000014A   [8]  00 00 00 4B 38 6B A5 F2
(002.181031)  vcan0  00000170   [8]  7B 00 00 00 00 00 00 00
(002.181265)  vcan0  0000017C   [8]  20 C8 00 00 00 00 00 00
(002.181477)  vcan0  00000309   [8]  0A 6C 00 00 00 00 00 00
(002.181688)  vcan0  0000014A   [8]  00 00 00 4D 4E D3 26 A2
(002.187227)  vcan0  00000309   [8]  0A 67 00 00 00 00 00 00
(002.187443)  vcan0  0000014A   [8]  00 00 00 4F 1A 49 B3 1C
(002.187663)  vcan0  0000017C   [8]  25 AA 00 00 00 00 00 00
(002.187874)  vcan0  00000170   [8]  86 00 00 00 00 00 00 00
(002.192666)  vcan0  00000170   [8]  9A 00 00 00 00 00 00 00
(002.192889)  vcan0  0000014A   [8]  00 00 00 51 0B 48 01 3E
(002.193110)  vcan0  0000017C   [8]  22 0C 00 00 00 00 00 00
(002.193321)  vcan0  00000309   [8]  0A 6B 00 00 00 00 00 00
(002.198656)  vcan0  0000014A   [8]  00 00 00 52 B8 22 C8 A6
(002.198869)  vcan0  00000170   [8]  20 00 00 00 00 00 00 00
(002.199080)  vcan0  00000309   [8]  0A 66 00 00 00 00 00 00
(002.199298)  vcan0  0000017C   [8]  26 DD 00 00 00 00 00 00
(002.204649)  vcan0  0000017C   [8]  23 27 00 00 00 00 00 00
(002.204868)  vcan0  0000014A   [8]  00 00 00 54 86 75 95 BA
(002.205078)  vcan0  00000170   [8]  0A 00 00 00 00 00 00 00
(002.205289)  vcan0  00000309   [8]  0A 6A 00 00 00 00 00 00
(002.210421)  vcan0  00000309   [8]  0A 65 00 00 00 00 00 00
(002.210634)  vcan0  0000014A   [8]  00 00 00 56 0F 3E E1 EE
(002.210852)  vcan0  0000017C   [8]  27 DE 00 00 00 00 00 00
(002.211060)  vcan0  00000170   [8]  17 00 00 00 00 00 00 00
(002.216537)  vcan0  0000014A   [8]  00 00 00 57 BE 42 C7 9E
(002.216761)  vcan0  0000017C   [8]  24 0A 00 00 00 00 00 00
(002.216969)  vcan0  00000170   [8]  35 00 00 00 00 00 00 00
(002.217179)  vcan0  00000309   [8]  0A 69 00 00 00 00 00 00
(002.223530)  vcan0  00000309   [8]  0A 64 00 00 00 00 00 00
(002.223743)  vcan0  0000014A   [8]  00 00 00 59 26 41 F3 5E
(002.223951)  vcan0  00000170   [8]  7E 00 00 00 00 00 00 00
(002.224169)  vcan0  0000017C   [8]  28 A1 00 00 00 00 00 00
(002.228642)  vcan0  0000017C   [8]  24 AA 00 00 00 00 00 00
(002.228856)  vcan0  0000014A   [8]  00 00 00 5A AE CD FC 1A
(002.229065)  vcan0  00000309   [8]  0A 68 00 00 00 00 00 00
(002.229278)  vcan0  00000202   [8]  00 C4 00 00 00 00 00 00
(002.229484)  vcan0  00000170   [8]  A3 00 00 00 00 00 00 00
(002.235223)  vcan0  0000014A   [8]  00 00 00 5C 08 04 7E 58
(002.235434)  vcan0  00000170   [8]  1B 00 00 00 00 00 00 00
(002.235646)  vcan0  00000309   [8]  0A 64 00 00 00 00 00 00
(002.235864)  vcan0  0000017C   [8]  29 1E 00 00 00 00 00 00
(002.240845)  vcan0  0000014A   [8]  00 00 00 5D 68 1C 38 7A
(002.241056)  vcan0  00000170   [8]  5C 00 00 00 00 00 00 00
(002.241267)  vcan0  00000309   [8]  0A 68 00 00 00 00 00 00
(002.241484)  vcan0  0000017C   [8]  25 04 00 00 00 00 00 00
(002.246509)  vcan0  0000014A   [8]  00 00 00 5E A0 FD BE DC
(002.246723)  vcan0  00000309   [8]  0A 64 00 00 00 00 00 00
(002.246942)  vcan0  0000017C   [8]  29 54 00 00 00 00 00 00
(002.247153)  vcan0  00000170   [8]  23 00 00 00 00 00 00 00
(002.252843)  vcan0  00000309   [8]  0A 68 00 00 00 00 00 00
(002.253071)  vcan0  0000014A   [8]  00 00 00 5F E9 D6 2D 04
(002.253305)  vcan0  0000017C   [8]  25 16 00 00 00 00 00 00
(002.253521)  vcan0  00000170   [8]  06 00 00 00 00 00 00 00
(002.258671)  vcan0  0000014A   [8]  00 00 00 61 02 33 6C 54
(002.258885)  vcan0  00000170   [8]  E3 00 00 00 00 00 00 00
(002.259106)  vcan0  0000017C   [8]  29 44 00 00 00 00 00 00
(002.259316)  vcan0  00000309   [8]  0A 64 00 00 00 00 00 00
(002.264769)  vcan0  00000170   [8]  BD 00 00 00 00 00 00 00
(002.264994)  vcan0  00000309   [8]  0A 68 00 00 00 00 00 00
(002.265215)  vcan0  0000017C   [8]  24 E6 00 00 00 00 00 00
(002.265425)  vcan0  0000014A   [8]  00 00 00 62 29 B1 5F 28
(002.270639)  vcan0  0000014A   [8]  00 00 00 63 2C 0E E1 DE
(002.270883)  vcan0  0000017C   [8]  28 F5 00 00 00 00 00 00
(002.271101)  vcan0  00000170   [8]  08 00 00 00 00 00 00 00
(002.271325)  vcan0  00000309   [8]  0A 64 00 00 00 00 00 00
(002.276706)  vcan0  00000309   [8]  0A 68 00 00 00 00 00 00
(002.276927)  vcan0  0000014A   [8]  00 00 00 64 39 3C 05 8C
(002.277137)  vcan0  00000170   [8]  DA 00 00 00 00 00 00 00
(002.277357)  vcan0  0000017C   [8]  24 7D 00 00 00 00 00 00
(002.282994)  vcan0  0000014A   [8]  01 FF FF EF B7 E5 90 C2
(002.283208)  vcan0  00000170   [8]  5B 00 00 00 00 00 00 00
(002.283429)  vcan0  0000017C   [8]  28 72 00 00 00 00 00 00
(002.283639)  vcan0  00000309   [8]  0A 65 00 00 00 00 00 00
(002.288857)  vcan0  00000170   [8]  B9 00 00 00 00 00 00 00
(002.289078)  vcan0  00000309   [8]  0A 69 00 00 00 00 00 00
(002.289289)  vcan0  0000014A   [8]  00 00 00 3F 58 F4 CE F2
(002.289506)  vcan0  0000017C   [8]  24 0A 00 00 00 00 00 00
(002.294712)  vcan0  0000014A   [8]  00 00 00 40 AA FD 43 C6
(002.294935)  vcan0  0000017C   [8]  27 ED 00 00 00 00 00 00
(002.295148)  vcan0  00000309   [8]  0A 65 00 00 00 00 00 00
(002.295357)  vcan0  00000170   [8]  B2 00 00 00 00 00 00 00
(002.300837)  vcan0  0000014A   [8]  00 00 00 42 53 1E A2 4E
(002.301053)  vcan0  00000309   [8]  0A 69 00 00 00 00 00 00
(002.301262)  vcan0  00000170   [8]  F2 00 00 00 00 00 00 00
(002.301480)  vcan0  0000017C   [8]  23 99 00 00 00 00 00 00
(002.306611)  vcan0  0000014A   [8]  00 00 00 43 CC 8C 70 D4
(002.306826)  vcan0  00000170   [8]  62 00 00 00 00 00 00 00
(002.307047)  vcan0  0000017C   [8]  27 68 00 00 00 00 00 00
(002.307257)  vcan0  00000309   [8]  0A 66 00 00 00 00 00 00
(002.312420)  vcan0  0000014A   [8]  00 00 00 45 8B D5 63 1A
(002.312636)  vcan0  00000309   [8]  0A 6A 00 00 00 00 00 00
(002.312845)  vcan0  00000170   [8]  54 00 00 00 00 00 00 00
(002.313062)  vcan0  0000017C   [8]  22 EF 00 00 00 00 00 00
(002.318667)  vcan0  00000170   [8]  B3 00 00 00 00 00 00 00
(002.318896)  vcan0  0000017C   [8]  26 BE 00 00 00 00 00 00
(002.319107)  vcan0  0000014A   [8]  00 00 00 47 18 A5 65 9E
(002.319318)  vcan0  00000309   [8]  0A 66 00 00 00 00 00 00
(002.325136)  vcan0  00000170   [8]  05 00 00 00 00 00 00 00
(002.325362)  vcan0  0000017C   [8]  22 2F 00 00 00 00 00 00
(002.325574)  vcan0  0000014A   [8]  00 00 00 48 DE F4 AB 46
(002.325782)  vcan0  00000309   [8]  0A 6B 00 00 00 00 00 00
(002.331056)  vcan0  00000309   [8]  0A 67 00 00 00 00 00 00
(002.331271)  vcan0  0000014A   [8]  00 00 00 4A 6C DA 54 54
(002.331480)  vcan0  00000170   [8]  41 00 00 00 00 00 00 00
(002.331697)  vcan0  0000017C   [8]  25 FE 00 00 00 00 00 00
(002.336593)  vcan0  0000017C   [8]  21 67 00 00 00 00 00 00
(002.336807)  vcan0  00000309   [8]  0A 6C 00 00 00 00 00 00
(002.337017)  vcan0  0000014A   [8]  00 00 00 4C 34 DC 69 A6
(002.337225)  vcan0  00000170   [8]  6F 00 00 00 00 00 00 00
(002.342353)  vcan0  0000017C   [8]  25 3B 00 00 00 00 00 00
(002.342566)  vcan0  00000309   [8]  0A 68 00 00 00 00 00 00
(002.342775)  vcan0  0000014A   [8]  00 00 00 4D C8 9B C1 96
(002.342983)  vcan0  00000170   [8]  A1 00 00 00 00 00 00 00
(002.348480)  vcan0  0000017C   [8]  20 A7 00 00 00 00 00 00
(002.348727)  vcan0  0000014A   [8]  00 00 00 4F 8E D1 20 38
(002.348937)  vcan0  00000170   [8]  37 00 00 00 00 00 00 00
(002.349151)  vcan0  00000309   [8]  0A 6C 00 00 00 00 00 00
(002.354994)  vcan0  0000017C   [8]  24 86 00 00 00 00 00 00
(002.355211)  vcan0  0000014A   [8]  00 00 00 51 1B 06 03 24
(002.355422)  vcan0  00000170   [8]  5A 00 00 00 00 00 00 00
(002.355661)  vcan0  00000309   [8]  0A 68 00 00 00 00 00 00
(002.360609)  vcan0  00000309   [8]  0A 6D 00 00 00 00 00 00
(002.360834)  vcan0  0000017C   [8]  1F FD 00 00 00 00 00 00
(002.361046)  vcan0  0000014A   [8]  00 00 00 52 C8 26 EE 72
(002.361256)  vcan0  00000170   [8]  17 00 00 00 00 00 00 00
(002.366917)  vcan0  0000014A   [8]  00 00 00 54 49 5D 9F 7A
(002.367133)  vcan0  00000309   [8]  0A 69 00 00 00 00 00 00
(002.367344)  vcan0  00000170   [8]  2F 00 00 00 00 00 00 00
(002.367563)  vcan0  0000017C   [8]  23 EB 00 00 00 00 00 00
(002.373241)  vcan0  00000309   [8]  0A 6D 00 00 00 00 00 00
(002.373465)  vcan0  00000170   [8]  62 00 00 00 00 00 00 00
(002.373705)  vcan0  0000017C   [8]  1F 74 00 00 00 00 00 00
(002.373928)  vcan0  0000014A   [8]  00 00 00 55 E0 F1 9E B8
(002.378457)  vcan0  00000170   [8]  65 00 00 00 00 00 00 00
(002.378694)  vcan0  0000014A   [8]  00 00 00 57 48 4D F4 78
(002.378908)  vcan0  00000309   [8]  0A 69 00 00 00 00 00 00
(002.379127)  vcan0  0000017C   [8]  23 75 00 00 00 00 00 00
(002.384533)  vcan0  0000014A   [8]  00 00 00 58 D0 4E DF 6C
(002.384768)  vcan0  0000017C   [8]  1F 12 00 00 00 00 00 00
(002.384979)  vcan0  00000170   [8]  DA 00 00 00 00 00 00 00
(002.385191)  vcan0  00000309   [8]  0A 6E 00 00 00 00 00 00
(002.390515)  vcan0  0000014A   [8]  00 00 00 5A 1D 35 95 0C
(002.390730)  vcan0  00000170   [8]  9C 00 00 00 00 00 00 00
(002.390951)  vcan0  0000017C   [8]  23 29 00 00 00 00 00 00
(002.391162)  vcan0  00000309   [8]  0A 6A 00 00 00 00 00 00
(002.396576)  vcan0  0000014A   [8]  00 00 00 5B 88 84 8C 34
(002.396808)  vcan0  0000017C   [8]  1E DC 00 00 00 00 00 00
(002.397019)  vcan0  00000309   [8]  0A 6E 00 00 00 00 00 00
(002.397228)  vcan0  00000170   [8]  24 00 00 00 00 00 00 00
(002.402753)  vcan0  00000309   [8]  0A 6A 00 00 00 00 00 00
(002.402993)  vcan0  00000170   [8]  2B 00 00 00 00 00 00 00
(002.403240)  vcan0  0000017C   [8]  23 0A 00 00 00 00 00 00
(002.403464)  vcan0  0000014A   [8]  00 00 00 5C BF 27 20 5E
(002.408605)  vcan0  0000014A   [8]  00 00 00 5E 11 62 39 34
(002.408823)  vcan0  00000309   [8]  0A 6E 00 00 00 00 00 00
(002.409042)  vcan0  0000017C   [8]  1E D2 00 00 00 00 00 00
(002.409251)  vcan0  00000170   [8]  B3 00 00 00 00 00 00 00
(002.414567)  vcan0  0000014A   [8]  00 00 00 5F 31 53 F7 FC
(002.414780)  vcan0  00000170   [8]  84 00 00 00 00 00 00 00
(002.414992)  vcan0  00000309   [8]  0A 6A 00 00 00 00 00 00
(002.415211)  vcan0  0000017C   [8]  23 15 00 00 00 00 00 00
(002.421034)  vcan0  00000309   [8]  0A 6E 00 00 00 00 00 00
(002.421253)  vcan0  0000014A   [8]  00 00 00 60 6D CE 56 BA
