(000.000000)  vcan0  1FFFFFFF   [8]  00 00 00 00 00 00 00 00
(000.164567)  vcan0  00000374   [8]  00 00 00 00 00 00 00 00
(000.164790)  vcan0  000001A3   [8]  00 00 00 00 00 00 00 00
(000.165004)  vcan0  00000170   [8]  11 00 00 00 00 00 00 00
(000.165231)  vcan0  0000017C   [8]  4B 00 00 00 00 00 00 00
(000.165448)  vcan0  000001A4   [8]  00 67 00 00 00 00 00 00
(000.165664)  vcan0  0000037B   [8]  00 00 00 00 00 00 00 00
(000.165879)  vcan0  0000014A   [8]  00 00 00 51 7C E3 C0 F0
(000.166087)  vcan0  00000202   [8]  00 DB 00 00 00 00 00 00
(000.166296)  vcan0  0000018F   [8]  00 00 27 00 00 00 00 00
(000.166514)  vcan0  00000326   [8]  00 00 00 00 00 00 00 00
(000.166726)  vcan0  00000309   [8]  00 89 00 00 00 00 00 00
(000.168705)  vcan0  0000014A   [8]  00 00 00 51 64 21 3A FE
(000.168928)  vcan0  00000309   [8]  00 A5 00 00 00 00 00 00
(000.169141)  vcan0  00000170   [8]  74 00 00 00 00 00 00 00
(000.169368)  vcan0  0000017C   [8]  4B 00 00 00 00 00 00 00
(000.174060)  vcan0  0000014A   [8]  00 00 00 51 57 BF D2 C4
(000.174277)  vcan0  00000309   [8]  00 C2 00 00 00 00 00 00
(000.174499)  vcan0  0000017C   [8]  4B 00 00 00 00 00 00 00
(000.174709)  vcan0  00000170   [8]  3E 00 00 00 00 00 00 00
(000.180174)  vcan0  00000309   [8]  00 DE 00 00 00 00 00 00
(000.180398)  vcan0  0000017C   [8]  4B 00 00 00 00 00 00 00
(000.180607)  vcan0  00000170   [8]  2B 00 00 00 00 00 00 00
(000.180819)  vcan0  0000014A   [8]  00 00 00 51 4B 5E 6A 8A
(000.185905)  vcan0  0000014A   [8]  00 00 00 51 3E FD 02 50
(000.186116)  vcan0  00000170   [8]  16 00 00 00 00 00 00 00
(000.186379)  vcan0  00000309   [8]  00 FA 00 00 00 00 00 00
(000.186629)  vcan0  0000017C   [8]  4B 00 00 00 00 00 00 00
(000.192246)  vcan0  00000309   [8]  01 16 00 00 00 00 00 00
(000.192462)  vcan0  00000170   [8]  45 00 00 00 00 00 00 00
(000.192678)  vcan0  0000014A   [8]  00 00 00 51 32 9B 9A 16
(000.192899)  vcan0  0000017C   [8]  4B 00 00 00 00 00 00 00
(000.198022)  vcan0  0000014A   [8]  00 00 00 51 26 3A 31 DC
(000.198250)  vcan0  0000017C   [8]  4B 00 00 00 00 00 00 00
(000.198463)  vcan0  00000309   [8]  01 33 00 00 00 00 00 00
(000.198672)  vcan0  00000170   [8]  56 00 00 00 00 00 00 00
(000.203965)  vcan0  0000017C   [8]  4B 00 00 00 00 00 00 00
(000.204181)  vcan0  0000014A   [8]  00 00 00 51 19 D8 C9 A2
(000.204392)  vcan0  00000170   [8]  8F 00 00 00 00 00 00 00
(000.204605)  vcan0  00000309   [8]  01 4F 00 00 00 00 00 00
(000.209977)  vcan0  00000309   [8]  01 6B 00 00 00 00 00 00
(000.210203)  vcan0  0000017C   [8]  4B 00 00 00 00 00 00 00
(000.210416)  vcan0  0000014A   [8]  00 00 00 51 0D 77 61 68
(000.210625)  vcan0  00000170   [8]  CA 00 00 00 00 00 00 00
(000.216096)  vcan0  00000309   [8]  01 87 00 00 00 00 00 00
(000.216316)  vcan0  0000014A   [8]  00 00 00 51 01 15 F9 2E
(000.216528)  vcan0  00000170   [8]  88 00 00 00 00 00 00 00
(000.216750)  vcan0  0000017C   [8]  4B 00 00 00 00 00 00 00
(000.222061)  vcan0  0000017C   [8]  4B 00 00 00 00 00 00 00
(000.222285)  vcan0  00000170   [8]  63 00 00 00 00 00 00 00
(000.222522)  vcan0  00000309   [8]  01 A3 00 00 00 00 00 00
(000.222740)  vcan0  0000014A   [8]  00 00 00 51 01 15 F9 2E
(000.228361)  vcan0  00000170   [8]  F9 00 00 00 00 00 00 00
(000.228584)  vcan0  00000309   [8]  01 C0 00 00 00 00 00 00
(000.228806)  vcan0  0000017C   [8]  4B 00 00 00 00 00 00 00
(000.229017)  vcan0  0000014A   [8]  00 00 00 51 01 15 F9 2E
(000.234005)  vcan0  00000309   [8]  01 DC 00 00 00 00 00 00
(000.234217)  vcan0  00000170   [8]  1E 00 00 00 00 00 00 00
(000.234431)  vcan0  0000014A   [8]  00 00 00 51 01 15 F9 2E
(000.234653)  vcan0  0000017C   [8]  4B 00 00 00 00 00 00 00
(000.240219)  vcan0  00000170   [8]  77 00 00 00 00 00 00 00
(000.240451)  vcan0  0000017C   [8]  4B 00 00 00 00 00 00 00
(000.240663)  vcan0  0000014A   [8]  00 00 00 51 01 15 F9 2E
(000.240873)  vcan0  00000309   [8]  01 F8 00 00 00 00 00 00
(000.246190)  vcan0  00000170   [8]  6B 00 00 00 00 00 00 00
(000.246409)  vcan0  0000014A   [8]  00 00 00 51 01 15 F9 2E
(000.246619)  vcan0  00000309   [8]  02 14 00 00 00 00 00 00
(000.246837)  vcan0  0000017C   [8]  4B 00 00 00 00 00 00 00
(000.252078)  vcan0  0000017C   [8]  4B 00 00 00 00 00 00 00
(000.252290)  vcan0  0000014A   [8]  00 00 00 51 01 15 F9 2E
(000.252499)  vcan0  00000309   [8]  02 31 00 00 00 00 00 00
(000.252707)  vcan0  00000170   [8]  DD 00 00 00 00 00 00 00
(000.258214)  vcan0  00000170   [8]  0D 00 00 00 00 00 00 00
(000.258442)  vcan0  0000014A   [8]  00 00 00 51 01 15 F9 2E
(000.258656)  vcan0  00000309   [8]  02 4D 00 00 00 00 00 00
(000.258875)  vcan0  0000017C   [8]  4B 00 00 00 00 00 00 00
(000.264908)  vcan0  0000014A   [8]  00 00 00 51 01 15 F9 2E
(000.265121)  vcan0  00000170   [8]  98 00 00 00 00 00 00 00
(000.265333)  vcan0  00000309   [8]  02 69 00 00 00 00 00 00
(000.265551)  vcan0  0000017C   [8]  4B 00 00 00 00 00 00 00
(000.270584)  vcan0  0000017C   [8]  4B 00 00 00 00 00 00 00
(000.270801)  vcan0  00000309   [8]  02 85 00 00 00 00 00 00
(000.271010)  vcan0  00000170   [8]  F2 00 00 00 00 00 00 00
(000.271219)  vcan0  0000014A   [8]  00 00 00 51 01 15 F9 2E
(000.276321)  vcan0  0000014A   [8]  00 00 00 51 01 15 F9 2E
(000.276545)  vcan0  0000017C   [8]  4B 00 00 00 00 00 00 00
(000.276753)  vcan0  00000170   [8]  40 00 00 00 00 00 00 00
(000.276963)  vcan0  00000309   [8]  02 A1 00 00 00 00 00 00
(000.282256)  vcan0  00000309   [8]  02 BE 00 00 00 00 00 00
(000.282470)  vcan0  0000014A   [8]  00 00 00 51 01 15 F9 2E
(000.282687)  vcan0  0000017C   [8]  4B 00 00 00 00 00 00 00
(000.282896)  vcan0  00000170   [8]  24 00 00 00 00 00 00 00
(000.288559)  vcan0  00000309   [8]  02 DA 00 00 00 00 00 00
(000.288782)  vcan0  0000017C   [8]  4B 00 00 00 00 00 00 00
(000.288991)  vcan0  00000170   [8]  CF 00 00 00 00 00 00 00
(000.289201)  vcan0  0000014A   [8]  00 00 00 51 01 15 F9 2E
(000.294407)  vcan0  00000309   [8]  02 F6 00 00 00 00 00 00
(000.294617)  vcan0  00000170   [8]  13 00 00 00 00 00 00 00
(000.294835)  vcan0  0000017C   [8]  4B 00 00 00 00 00 00 00
(000.295045)  vcan0  0000014A   [8]  00 00 00 51 01 15 F9 2E
(000.300352)  vcan0  0000017C   [8]  4B 00 00 00 00 00 00 00
(000.300568)  vcan0  0000014A   [8]  00 00 00 51 01 15 F9 2E
(000.300778)  vcan0  00000309   [8]  03 12 00 00 00 00 00 00
(000.300987)  vcan0  00000170   [8]  87 00 00 00 00 00 00 00
(000.306424)  vcan0  0000014A   [8]  00 00 00 85 6F E6 57 48
(000.306651)  vcan0  0000017C   [8]  4B 00 00 00 00 00 00 00
(000.306862)  vcan0  00000309   [8]  03 2F 00 00 00 00 00 00
(000.307071)  vcan0  00000170   [8]  B4 00 00 00 00 00 00 00
(000.312214)  vcan0  00000170   [8]  C5 00 00 00 00 00 00 00
(000.312447)  vcan0  0000017C   [8]  4B 00 00 00 00 00 00 00
(000.312661)  vcan0  00000309   [8]  03 4B 00 00 00 00 00 00
(000.312873)  vcan0  0000014A   [8]  00 00 00 62 39 96 3B 92
(000.318236)  vcan0  0000017C   [8]  4B 00 00 00 00 00 00 00
(000.318456)  vcan0  0000014A   [8]  00 00 00 62 3F 39 7D DE
(000.318668)  vcan0  00000309   [8]  03 67 00 00 00 00 00 00
(000.318876)  vcan0  00000170   [8]  B0 00 00 00 00 00 00 00
(000.324084)  vcan0  0000017C   [8]  4B 00 00 00 00 00 00 00
(000.324295)  vcan0  00000170   [8]  23 00 00 00 00 00 00 00
(000.324506)  vcan0  00000309   [8]  03 83 00 00 00 00 00 00
(000.324716)  vcan0  0000014A   [8]  00 00 00 62 44 DC 9A E8
(000.330007)  vcan0  0000014A   [8]  00 00 00 62 4A 7F DD 32
(000.330228)  vcan0  0000017C   [8]  4B 00 00 00 00 00 00 00
(000.330437)  vcan0  00000309   [8]  03 9F 00 00 00 00 00 00
(000.330645)  vcan0  00000170   [8]  A3 00 00 00 00 00 00 00
(000.336374)  vcan0  00000170   [8]  81 00 00 00 00 00 00 00
(000.336600)  vcan0  0000017C   [8]  4B 00 00 00 00 00 00 00
(000.336810)  vcan0  0000014A   [8]  00 00 00 62 50 22 FA 3C
(000.337019)  vcan0  00000309   [8]  03 BC 00 00 00 00 00 00
(000.342235)  vcan0  0000014A   [8]  00 00 00 62 55 C6 3C 86
(000.342457)  vcan0  0000017C   [8]  4B 00 00 00 00 00 00 00
(000.342667)  vcan0  00000309   [8]  03 D8 00 00 00 00 00 00
(000.342875)  vcan0  00000170   [8]  B6 00 00 00 00 00 00 00
(000.348430)  vcan0  00000170   [8]  62 00 00 00 00 00 00 00
(000.348655)  vcan0  0000017C   [8]  4B 00 00 00 00 00 00 00
(000.348865)  vcan0  00000309   [8]  03 F4 00 00 00 00 00 00
(000.349073)  vcan0  0000014A   [8]  00 00 00 62 5B 69 59 90
(000.354058)  vcan0  0000014A   [8]  00 00 00 62 61 0C 9B DC
(000.354281)  vcan0  0000017C   [8]  4B 00 00 00 00 00 00 00
(000.354490)  vcan0  00000170   [8]  E4 00 00 00 00 00 00 00
(000.354700)  vcan0  00000309   [8]  04 10 00 00 00 00 00 00
(000.360130)  vcan0  0000017C   [8]  4B 00 00 00 00 00 00 00
(000.360348)  vcan0  0000014A   [8]  00 00 00 62 66 AF B8 E6
(000.360559)  vcan0  00000309   [8]  04 2D 00 00 00 00 00 00
(000.360768)  vcan0  00000170   [8]  A5 00 00 00 00 00 00 00
(000.366225)  vcan0  00000309   [8]  04 49 00 00 00 00 00 00
(000.366441)  vcan0  0000014A   [8]  00 00 00 62 66 AF B8 E6
(000.366651)  vcan0  00000170   [8]  9F 00 00 00 00 00 00 00
(000.366871)  vcan0  0000017C   [8]  4B 00 00 00 00 00 00 00
(000.372738)  vcan0  0000017C   [8]  4B 00 00 00 00 00 00 00
(000.372956)  vcan0  00000309   [8]  04 65 00 00 00 00 00 00
(000.373165)  vcan0  00000170   [8]  B7 00 00 00 00 00 00 00
(000.373376)  vcan0  0000014A   [8]  00 00 00 62 66 AF B8 E6
(000.378036)  vcan0  0000017C   [8]  4B 00 00 00 00 00 00 00
(000.378252)  vcan0  00000309   [8]  04 62 00 00 00 00 00 00
(000.378463)  vcan0  0000014A   [8]  00 00 00 62 66 AF B8 E6
(000.378688)  vcan0  00000170   [8]  6B 00 00 00 00 00 00 00
(000.384273)  vcan0  00000309   [8]  03 CF 00 00 00 00 00 00
(000.384495)  vcan0  00000170   [8]  4B 00 00 00 00 00 00 00
(000.384737)  vcan0  0000017C   [8]  4B 00 00 00 00 00 00 00
(000.384972)  vcan0  0000014A   [8]  00 00 00 62 66 AF B8 E6
(000.390287)  vcan0  00000170   [8]  33 00 00 00 00 00 00 00
(000.390510)  vcan0  00000309   [8]  03 51 00 00 00 00 00 00
(000.390750)  vcan0  0000017C   [8]  4B 00 00 00 00 00 00 00
(000.390964)  vcan0  0000014A   [8]  00 00 00 62 66 AF B8 E6
(000.396011)  vcan0  0000017C   [8]  4B 00 00 00 00 00 00 00
(000.396225)  vcan0  00000170   [8]  89 00 00 00 00 00 00 00
(000.396438)  vcan0  00000309   [8]  02 E1 00 00 00 00 00 00
(000.396649)  vcan0  0000014A   [8]  00 00 00 62 66 AF DE 26
(000.402271)  vcan0  00000170   [8]  BF 00 00 00 00 00 00 00
(000.402511)  vcan0  0000014A   [8]  00 00 00 62 66 AF DE 26
(000.402748)  vcan0  00000309   [8]  02 7C 00 00 00 00 00 00
(000.402972)  vcan0  0000017C   [8]  4B 00 00 00 00 00 00 00
(000.408068)  vcan0  00000170   [8]  76 00 00 00 00 00 00 00
(000.408301)  vcan0  0000017C   [8]  4B 00 00 00 00 00 00 00
(000.408593)  vcan0  0000014A   [8]  00 00 00 62 66 AF DE 26
(000.408802)  vcan0  00000202   [8]  00 6C 00 00 00 00 00 00
(000.409012)  vcan0  00000309   [8]  02 21 00 00 00 00 00 00
(000.414198)  vcan0  0000017C   [8]  4B 00 00 00 00 00 00 00
(000.414421)  vcan0  00000170   [8]  70 00 00 00 00 00 00 00
(000.414650)  vcan0  00000309   [8]  01 D1 00 00 00 00 00 00
(000.414864)  vcan0  0000014A   [8]  00 00 00 62 66 AF DE 26
(000.420215)  vcan0  0000017C   [8]  4B 00 00 00 00 00 00 00
(000.420437)  vcan0  00000170   [8]  D6 00 00 00 00 00 00 00
(000.420671)  vcan0  0000014A   [8]  00 00 00 62 66 AF DE 26
(000.420886)  vcan0  00000309   [8]  01 89 00 00 00 00 00 00
(000.426130)  vcan0  00000170   [8]  11 00 00 00 00 00 00 00
(000.426352)  vcan0  00000309   [8]  01 49 00 00 00 00 00 00
(000.426575)  vcan0  0000017C   [8]  4B 00 00 00 00 00 00 00
(000.426786)  vcan0  0000014A   [8]  00 00 00 62 66 AF DE 26
(000.432136)  vcan0  0000014A   [8]  00 00 00 62 66 AF DE 26
(000.432357)  vcan0  00000170   [8]  A9 00 00 00 00 00 00 00
(000.432582)  vcan0  00000309   [8]  01 11 00 00 00 00 00 00
(000.432817)  vcan0  0000017C   [8]  4B 00 00 00 00 00 00 00
(000.438278)  vcan0  00000170   [8]  23 00 00 00 00 00 00 00
(000.438502)  vcan0  00000309   [8]  00 DE 00 00 00 00 00 00
(000.438714)  vcan0  0000014A   [8]  00 00 00 62 66 AF DE 26
(000.438936)  vcan0  0000017C   [8]  4B 00 00 00 00 00 00 00
(000.444293)  vcan0  0000014A   [8]  00 00 00 62 66 AF DE 26
(000.444508)  vcan0  00000309   [8]  00 B2 00 00 00 00 00 00
(000.444717)  vcan0  00000170   [8]  4A 00 00 00 00 00 00 00
(000.444938)  vcan0  0000017C   [8]  4B 00 00 00 00 00 00 00
(000.449972)  vcan0  0000017C   [8]  4B 00 00 00 00 00 00 00
(000.450188)  vcan0  0000014A   [8]  00 00 00 62 66 AF DE 26
(000.450399)  vcan0  00000309   [8]  00 8B 00 00 00 00 00 00
(000.450608)  vcan0  00000170   [8]  0E 00 00 00 00 00 00 00
(000.456195)  vcan0  00000170   [8]  16 00 00 00 00 00 00 00
(000.456463)  vcan0  0000017C   [8]  4B 00 00 00 00 00 00 00
(000.456685)  vcan0  00000309   [8]  00 68 00 00 00 00 00 00
(000.456897)  vcan0  0000014A   [8]  00 00 00 62 66 AF DE 26
(000.462493)  vcan0  0000014A   [8]  00 00 00 62 66 AF DE 26
(000.462713)  vcan0  00000170   [8]  3A 00 00 00 00 00 00 00
(000.462955)  vcan0  0000017C   [8]  4B 00 00 00 00 00 00 00
(000.463178)  vcan0  00000309   [8]  00 4A 00 00 00 00 00 00
(000.468657)  vcan0  0000017C   [8]  4B 00 00 00 00 00 00 00
(000.468873)  vcan0  0000014A   [8]  00 00 00 62 66 AF DE 26
(000.469082)  vcan0  00000170   [8]  4E 00 00 00 00 00 00 00
(000.469291)  vcan0  00000309   [8]  00 30 00 00 00 00 00 00
(000.475060)  vcan0  00000170   [8]  91 00 00 00 00 00 00 00
(000.475295)  vcan0  0000014A   [8]  00 00 00 62 66 AF DE 26
(000.475533)  vcan0  0000017C   [8]  4B 00 00 00 00 00 00 00
(000.475754)  vcan0  00000309   [8]  00 19 00 00 00 00 00 00
(000.480921)  vcan0  00000170   [8]  8A 00 00 00 00 00 00 00
(000.481159)  vcan0  0000017C   [8]  4B 00 00 00 00 00 00 00
(000.481371)  vcan0  0000014A   [8]  00 00 00 62 66 AF DE 26
(000.481581)  vcan0  00000309   [8]  00 05 00 00 00 00 00 00
(000.486869)  vcan0  0000017C   [8]  4B 00 00 00 00 00 00 00
(000.487084)  vcan0  00000309   [8]  00 0C 00 00 00 00 00 00
(000.487295)  vcan0  0000014A   [8]  00 00 00 62 66 AF DE 26
(000.487504)  vcan0  00000170   [8]  B9 00 00 00 00 00 00 00
(000.492019)  vcan0  00000309   [8]  00 1B 00 00 00 00 00 00
(000.492238)  vcan0  0000014A   [8]  00 00 00 62 66 AF DE 26
(000.492447)  vcan0  00000170   [8]  6C 00 00 00 00 00 00 00
(000.493363)  vcan0  0000017C   [8]  4B 00 00 00 00 00 00 00
(000.498417)  vcan0  00000170   [8]  31 00 00 00 00 00 00 00
(000.498649)  vcan0  0000017C   [8]  4B 00 00 00 00 00 00 00
(000.498861)  vcan0  00000309   [8]  00 28 00 00 00 00 00 00
(000.499072)  vcan0  0000014A   [8]  00 00 00 62 66 AF DE 26
(000.504209)  vcan0  00000170   [8]  04 00 00 00 00 00 00 00
(000.504430)  vcan0  0000014A   [8]  00 00 00 62 66 AF DE 26
(000.504643)  vcan0  00000309   [8]  00 32 00 00 00 00 00 00
(000.504861)  vcan0  0000017C   [8]  4B 00 00 00 00 00 00 00
(000.510197)  vcan0  0000014A   [8]  00 00 00 62 66 AF DE 26
(000.510420)  vcan0  0000017C   [8]  4B 00 00 00 00 00 00 00
(000.510629)  vcan0  00000170   [8]  6F 00 00 00 00 00 00 00
(000.510839)  vcan0  00000309   [8]  00 3B 00 00 00 00 00 00
(000.516013)  vcan0  0000014A   [8]  00 00 00 62 66 AF DE 26
(000.516225)  vcan0  00000170   [8]  49 00 00 00 00 00 00 00
(000.516438)  vcan0  00000309   [8]  00 42 00 00 00 00 00 00
(000.516656)  vcan0  0000017C   [8]  4B 00 00 00 00 00 00 00
(000.522193)  vcan0  0000014A   [8]  00 00 00 62 66 AF DE 26
(000.522407)  vcan0  00000309   [8]  00 48 00 00 00 00 00 00
(000.522625)  vcan0  0000017C   [8]  4B 00 00 00 00 00 00 00
(000.522833)  vcan0  00000170   [8]  16 00 00 00 00 00 00 00
(000.527811)  vcan0  0000017C   [8]  4B 00 00 00 00 00 00 00
(000.528026)  vcan0  00000309   [8]  00 4D 00 00 00 00 00 00
(000.528237)  vcan0  0000014A   [8]  00 00 00 62 66 AF DE 26
(000.528446)  vcan0  00000170   [8]  27 00 00 00 00 00 00 00
(000.533958)  vcan0  0000014A   [8]  00 00 00 62 66 AF DE 26
(000.534173)  vcan0  00000309   [8]  00 51 00 00 00 00 00 00
(000.534394)  vcan0  0000017C   [8]  4B 00 00 00 00 00 00 00
(000.534603)  vcan0  00000170   [8]  63 00 00 00 00 00 00 00
(000.540164)  vcan0  0000017C   [8]  4B 00 00 00 00 00 00 00
(000.540378)  vcan0  0000014A   [8]  00 00 00 62 66 AF DE 26
(000.540589)  vcan0  00000309   [8]  00 54 00 00 00 00 00 00
(000.540799)  vcan0  00000170   [8]  E9 00 00 00 00 00 00 00
(000.546105)  vcan0  00000170   [8]  64 00 00 00 00 00 00 00
(000.546323)  vcan0  0000014A   [8]  00 00 00 62 66 AF DE 26
(000.546543)  vcan0  0000017C   [8]  4B 00 00 00 00 00 00 00
(000.546753)  vcan0  00000309   [8]  00 56 00 00 00 00 00 00
(000.552348)  vcan0  00000170   [8]  65 00 00 00 00 00 00 00
(000.552575)  vcan0  00000309   [8]  00 57 00 00 00 00 00 00
(000.552799)  vcan0  0000017C   [8]  4B 00 00 00 00 00 00 00
(000.553011)  vcan0  0000014A   [8]  00 00 00 62 66 B3 F1 3C
(000.558442)  vcan0  0000017C   [8]  4B 00 00 00 00 00 00 00
(000.558665)  vcan0  0000014A   [8]  00 00 00 62 85 CE 50 52
(000.558876)  vcan0  00000170   [8]  CA 00 00 00 00 00 00 00
(000.559088)  vcan0  00000309   [8]  00 76 00 00 00 00 00 00
(000.564535)  vcan0  0000017C   [8]  4B 00 00 00 00 00 00 00
(000.564751)  vcan0  00000170   [8]  52 00 00 00 00 00 00 00
(000.564965)  vcan0  00000309   [8]  00 8B 00 00 00 00 00 00
(000.565176)  vcan0  0000014A   [8]  00 00 00 62 8E 57 93 2A
(000.570353)  vcan0  00000170   [8]  10 00 00 00 00 00 00 00
(000.570587)  vcan0  0000017C   [8]  4B 00 00 00 00 00 00 00
(000.570862)  vcan0  0000014A   [8]  00 00 00 62 B1 FD 5F 38
(000.571073)  vcan0  00000309   [8]  00 CA 00 00 00 00 00 00
(000.576261)  vcan0  0000017C   [8]  4B 00 00 00 00 00 00 00
(000.576474)  vcan0  00000170   [8]  F1 00 00 00 00 00 00 00
(000.576689)  vcan0  0000014A   [8]  00 00 00 62 D5 C3 54 2A
(000.576900)  vcan0  00000309   [8]  01 02 00 00 00 00 00 00
(000.582215)  vcan0  00000309   [8]  01 18 00 00 00 00 00 00
(000.582442)  vcan0  0000017C   [8]  4B 00 00 00 00 00 00 00
(000.582655)  vcan0  0000014A   [8]  00 00 00 62 F8 07 F3 6C
(000.582865)  vcan0  00000170   [8]  EC 00 00 00 00 00 00 00
(000.587974)  vcan0  0000014A   [8]  00 00 00 63 20 33 CA 12
(000.588199)  vcan0  0000017C   [8]  4B 00 00 00 00 00 00 00
(000.588410)  vcan0  00000309   [8]  01 58 00 00 00 00 00 00
(000.588618)  vcan0  00000170   [8]  43 00 00 00 00 00 00 00
(000.594124)  vcan0  0000014A   [8]  00 00 00 63 47 55 53 EA
(000.594350)  vcan0  0000017C   [8]  4B 00 00 00 00 00 00 00
(000.594562)  vcan0  00000309   [8]  01 7A 00 00 00 00 00 00
(000.594770)  vcan0  00000170   [8]  34 00 00 00 00 00 00 00
(000.600048)  vcan0  0000017C   [8]  4B 00 00 00 00 00 00 00
(000.600264)  vcan0  00000309   [8]  01 AC 00 00 00 00 00 00
(000.600476)  vcan0  0000014A   [8]  00 00 00 63 78 16 5C 26
(000.600685)  vcan0  00000170   [8]  04 00 00 00 00 00 00 00
(000.606072)  vcan0  00000170   [8]  73 00 00 00 00 00 00 00
(000.606293)  vcan0  00000309   [8]  01 D4 00 00 00 00 00 00
(000.606514)  vcan0  0000017C   [8]  4B 00 00 00 00 00 00 00
(000.606725)  vcan0  0000014A   [8]  00 00 00 63 A9 AB FE E0
(000.611955)  vcan0  0000014A   [8]  00 00 00 63 DA 8E A4 88
(000.612178)  vcan0  0000017C   [8]  4B 00 00 00 00 00 00 00
(000.612388)  vcan0  00000309   [8]  01 FD 00 00 00 00 00 00
(000.612598)  vcan0  00000170   [8]  B2 00 00 00 00 00 00 00
(000.618129)  vcan0  0000014A   [8]  00 00 00 64 10 72 00 FE
(000.618353)  vcan0  0000017C   [8]  4B 00 00 00 00 00 00 00
(000.618562)  vcan0  00000170   [8]  18 00 00 00 00 00 00 00
(000.618773)  vcan0  00000309   [8]  02 21 00 00 00 00 00 00
(000.624028)  vcan0  0000014A   [8]  00 00 00 64 47 AE AE 96
(000.624239)  vcan0  00000170   [8]  18 00 00 00 00 00 00 00
(000.624451)  vcan0  00000309   [8]  02 46 00 00 00 00 00 00
(000.624670)  vcan0  0000017C   [8]  4B 00 00 00 00 00 00 00
(000.630224)  vcan0  0000017C   [8]  4B 00 00 00 00 00 00 00
(000.630438)  vcan0  00000309   [8]  02 66 00 00 00 00 00 00
(000.630649)  vcan0  0000014A   [8]  00 00 00 64 80 63 86 F0
(000.630857)  vcan0  00000170   [8]  E0 00 00 00 00 00 00 00
(000.636037)  vcan0  00000309   [8]  02 87 00 00 00 00 00 00
(000.636259)  vcan0  0000017C   [8]  4B 00 00 00 00 00 00 00
(000.636471)  vcan0  0000014A   [8]  00 00 00 64 BD 23 3B 4E
(000.636679)  vcan0  00000170   [8]  AD 00 00 00 00 00 00 00
(000.642079)  vcan0  0000014A   [8]  00 00 00 64 F8 3B FC 1C
(000.642302)  vcan0  0000017C   [8]  4B 00 00 00 00 00 00 00
(000.642510)  vcan0  00000170   [8]  C4 00 00 00 00 00 00 00
(000.642720)  vcan0  00000309   [8]  02 A3 00 00 00 00 00 00
(000.647960)  vcan0  00000170   [8]  EF 00 00 00 00 00 00 00
(000.648192)  vcan0  0000017C   [8]  4B 00 00 00 00 00 00 00
(000.648403)  vcan0  0000014A   [8]  00 00 00 65 32 7E 63 64
(000.648612)  vcan0  00000309   [8]  02 C1 00 00 00 00 00 00
(000.654232)  vcan0  00000202   [8]  00 33 00 00 00 00 00 00
(000.654451)  vcan0  0000014A   [8]  00 00 00 65 74 14 AD D8
(000.654671)  vcan0  0000017C   [8]  4B 00 00 00 00 00 00 00
(000.654878)  vcan0  00000170   [8]  B1 00 00 00 00 00 00 00
(000.655088)  vcan0  00000309   [8]  02 DB 00 00 00 00 00 00
(000.660051)  vcan0  00000309   [8]  02 F6 00 00 00 00 00 00
(000.660274)  vcan0  0000017C   [8]  4B 00 00 00 00 00 00 00
(000.660487)  vcan0  000001A3   [8]  00 00 00 00 00 00 00 00
(000.660696)  vcan0  0000018F   [8]  00 00 AC 00 00 00 00 00
(000.660902)  vcan0  00000170   [8]  FF 00 00 00 00 00 00 00
(000.661112)  vcan0  0000014A   [8]  00 00 00 65 B2 86 3F BE
(000.665989)  vcan0  0000017C   [8]  4B 00 00 00 00 00 00 00
(000.666203)  vcan0  00000309   [8]  03 0E 00 00 00 00 00 00
(000.666412)  vcan0  0000014A   [8]  00 00 00 65 F1 76 59 0A
(000.666620)  vcan0  00000170   [8]  6B 00 00 00 00 00 00 00
(000.671982)  vcan0  00000309   [8]  03 27 00 00 00 00 00 00
(000.672196)  vcan0  0000014A   [8]  00 00 00 66 2E 34 73 A0
(000.672403)  vcan0  00000170   [8]  C5 00 00 00 00 00 00 00
(000.672622)  vcan0  0000017C   [8]  4B 00 00 00 00 00 00 00
(000.677897)  vcan0  0000014A   [8]  00 00 00 66 73 55 09 28
(000.678111)  vcan0  00000309   [8]  03 3D 00 00 00 00 00 00
(000.678320)  vcan0  00000170   [8]  E5 00 00 00 00 00 00 00
(000.678537)  vcan0  0000017C   [8]  4B 00 00 00 00 00 00 00
(000.685511)  vcan0  00000170   [8]  9A 00 00 00 00 00 00 00
(000.685729)  vcan0  00000309   [8]  03 54 00 00 00 00 00 00
(000.685944)  vcan0  0000014A   [8]  00 00 00 66 B0 AE EA FA
(000.686162)  vcan0  0000017C   [8]  4B 00 00 00 00 00 00 00
(000.690306)  vcan0  00000309   [8]  03 68 00 00 00 00 00 00
(000.690516)  vcan0  00000170   [8]  B3 00 00 00 00 00 00 00
(000.690735)  vcan0  0000017C   [8]  4B 00 00 00 00 00 00 00
(000.690946)  vcan0  0000014A   [8]  00 00 00 66 F8 D5 5F 72
(000.696283)  vcan0  0000014A   [8]  00 00 00 67 32 2B 04 40
(000.696503)  vcan0  0000017C   [8]  4B 00 00 00 00 00 00 00
(000.696711)  vcan0  00000170   [8]  A1 00 00 00 00 00 00 00
(000.696920)  vcan0  00000309   [8]  03 7E 00 00 00 00 00 00
(000.733784)  vcan0  00000309   [8]  03 91 00 00 00 00 00 00
(000.734018)  vcan0  0000017C   [8]  4B 00 00 00 00 00 00 00
(000.734235)  vcan0  00000170   [8]  89 00 00 00 00 00 00 00
(000.734447)  vcan0  0000014A   [8]  00 00 00 67 7D 45 96 CE
(000.738156)  vcan0  00000309   [8]  03 A5 00 00 00 00 00 00
(000.738373)  vcan0  0000014A   [8]  00 00 00 67 B5 DC BF 90
(000.738582)  vcan0  00000170   [8]  CD 00 00 00 00 00 00 00
(000.738801)  vcan0  0000017C   [8]  4B 00 00 00 00 00 00 00
(000.742056)  vcan0  00000170   [8]  2A 00 00 00 00 00 00 00
(000.742308)  vcan0  0000017C   [8]  4B 00 00 00 00 00 00 00
(000.742537)  vcan0  00000309   [8]  03 B7 00 00 00 00 00 00
(000.742765)  vcan0  0000014A   [8]  00 00 00 68 04 3B 79 4C
(000.748227)  vcan0  0000014A   [8]  00 00 00 68 3D FA 66 94
(000.748450)  vcan0  00000170   [8]  FC 00 00 00 00 00 00 00
(000.748692)  vcan0  0000017C   [8]  4B 00 00 00 00 00 00 00
(000.748926)  vcan0  00000309   [8]  03 CA 00 00 00 00 00 00
(000.753802)  vcan0  00000309   [8]  03 DC 00 00 00 00 00 00
(000.754029)  vcan0  0000014A   [8]  00 00 00 68 86 5C 72 1C
(000.754248)  vcan0  00000170   [8]  ED 00 00 00 00 00 00 00
(000.754486)  vcan0  0000017C   [8]  4B 00 00 00 00 00 00 00
(000.759740)  vcan0  00000309   [8]  03 EE 00 00 00 00 00 00
(000.759957)  vcan0  0000014A   [8]  00 00 00 68 C2 DB F9 F4
(000.760165)  vcan0  00000170   [8]  A9 00 00 00 00 00 00 00
(000.760386)  vcan0  0000017C   [8]  4B 00 00 00 00 00 00 00
(000.765782)  vcan0  00000309   [8]  03 FF 00 00 00 00 00 00
(000.765995)  vcan0  00000170   [8]  49 00 00 00 00 00 00 00
(000.766211)  vcan0  0000014A   [8]  00 00 00 69 09 3B 64 98
(000.766430)  vcan0  0000017C   [8]  4B 00 00 00 00 00 00 00
(000.772399)  vcan0  0000017C   [8]  4B 00 00 00 00 00 00 00
(000.772630)  vcan0  00000309   [8]  04 10 00 00 00 00 00 00
(000.772854)  vcan0  0000014A   [8]  00 00 00 69 48 DD 88 D2
(000.773072)  vcan0  00000170   [8]  12 00 00 00 00 00 00 00
(000.778042)  vcan0  0000017C   [8]  4B 00 00 00 00 00 00 00
(000.778271)  vcan0  00000309   [8]  04 21 00 00 00 00 00 00
(000.778511)  vcan0  0000014A   [8]  00 00 00 69 8B C0 68 C8
(000.778723)  vcan0  00000170   [8]  B9 00 00 00 00 00 00 00
(000.784032)  vcan0  00000170   [8]  71 00 00 00 00 00 00 00
(000.784280)  vcan0  0000017C   [8]  4B 00 00 00 00 00 00 00
(000.784503)  vcan0  0000014A   [8]  00 00 00 69 CB 8D 0A DA
(000.784726)  vcan0  00000309   [8]  04 31 00 00 00 00 00 00
(000.789837)  vcan0  0000017C   [8]  4B 00 00 00 00 00 00 00
(000.790055)  vcan0  0000014A   [8]  00 00 00 6A 0D 5A 44 46
(000.790264)  vcan0  00000170   [8]  63 00 00 00 00 00 00 00
(000.790474)  vcan0  00000309   [8]  04 41 00 00 00 00 00 00
(000.795642)  vcan0  00000309   [8]  04 51 00 00 00 00 00 00
(000.795858)  vcan0  0000014A   [8]  00 00 00 6A 4F CE 79 68
(000.796084)  vcan0  0000017C   [8]  4B 00 00 00 00 00 00 00
(000.796295)  vcan0  00000170   [8]  71 00 00 00 00 00 00 00
(000.802026)  vcan0  00000170   [8]  B9 00 00 00 00 00 00 00
(000.802278)  vcan0  0000017C   [8]  4B 00 00 00 00 00 00 00
(000.802506)  vcan0  0000014A   [8]  00 00 00 6A 8F 31 3D FE
(000.802730)  vcan0  00000309   [8]  04 60 00 00 00 00 00 00
(000.807966)  vcan0  00000170   [8]  A5 00 00 00 00 00 00 00
(000.808210)  vcan0  00000309   [8]  04 70 00 00 00 00 00 00
(000.808452)  vcan0  0000017C   [8]  4B 00 00 00 00 00 00 00
(000.808672)  vcan0  0000014A   [8]  00 00 00 6A CD D3 DA 1E
(000.814760)  vcan0  00000170   [8]  C5 00 00 00 00 00 00 00
(000.815020)  vcan0  0000017C   [8]  4B 00 00 00 00 00 00 00
(000.815245)  vcan0  00000309   [8]  04 7F 00 00 00 00 00 00
(000.815472)  vcan0  0000014A   [8]  00 00 00 6B 0D 31 99 7A
(000.819967)  vcan0  0000014A   [8]  00 00 00 6B 4E EE BE 74
(000.820215)  vcan0  0000017C   [8]  4B 00 00 00 00 00 00 00
(000.820437)  vcan0  00000309   [8]  04 8E 00 00 00 00 00 00
(000.820657)  vcan0  00000170   [8]  4D 00 00 00 00 00 00 00
(000.825667)  vcan0  0000017C   [8]  4B 00 00 00 00 00 00 00
(000.825899)  vcan0  0000014A   [8]  00 00 00 6B 89 B4 42 9A
(000.826119)  vcan0  00000170   [8]  CB 00 00 00 00 00 00 00
(000.826342)  vcan0  00000309   [8]  04 9D 00 00 00 00 00 00
(000.831719)  vcan0  0000017C   [8]  4B 00 00 00 00 00 00 00
(000.831952)  vcan0  00000309   [8]  04 AC 00 00 00 00 00 00
(000.832172)  vcan0  00000170   [8]  CE 00 00 00 00 00 00 00
(000.832397)  vcan0  0000014A   [8]  00 00 00 6B C9 0C D7 7C
(000.837794)  vcan0  0000017C   [8]  4B 00 00 00 00 00 00 00
(000.838012)  vcan0  0000014A   [8]  00 00 00 6C 04 94 30 7E
(000.838223)  vcan0  00000309   [8]  04 BB 00 00 00 00 00 00
(000.838433)  vcan0  00000170   [8]  87 00 00 00 00 00 00 00
(000.843594)  vcan0  00000170   [8]  C6 00 00 00 00 00 00 00
(000.843818)  vcan0  0000014A   [8]  00 00 00 6C 41 06 C4 D2
(000.844042)  vcan0  0000017C   [8]  4B 00 00 00 00 00 00 00
(000.844254)  vcan0  00000309   [8]  04 C9 00 00 00 00 00 00
(000.849860)  vcan0  00000309   [8]  04 D7 00 00 00 00 00 00
(000.850075)  vcan0  00000170   [8]  D6 00 00 00 00 00 00 00
(000.850288)  vcan0  0000014A   [8]  00 00 00 6C 80 EC 23 E4
(000.850507)  vcan0  0000017C   [8]  4B 00 00 00 00 00 00 00
(000.855755)  vcan0  0000017C   [8]  4B 00 00 00 00 00 00 00
(000.855973)  vcan0  00000309   [8]  04 E6 00 00 00 00 00 00
(000.856183)  vcan0  00000170   [8]  65 00 00 00 00 00 00 00
(000.856394)  vcan0  0000014A   [8]  00 00 00 6C B9 40 A6 D0
(000.861768)  vcan0  00000170   [8]  35 00 00 00 00 00 00 00
(000.861993)  vcan0  00000309   [8]  04 F4 00 00 00 00 00 00
(000.862206)  vcan0  0000014A   [8]  00 00 00 6C F6 3F F2 B4
(000.862425)  vcan0  0000017C   [8]  4B 00 00 00 00 00 00 00
(000.867770)  vcan0  00000309   [8]  05 02 00 00 00 00 00 00
(000.867997)  vcan0  0000017C   [8]  4B 00 00 00 00 00 00 00
(000.868209)  vcan0  0000014A   [8]  00 00 00 6D 2E ED BC 4A
(000.868418)  vcan0  00000170   [8]  97 00 00 00 00 00 00 00
(000.874298)  vcan0  00000170   [8]  62 00 00 00 00 00 00 00
(000.874527)  vcan0  0000014A   [8]  00 00 00 6D 65 76 1D 88
(000.874738)  vcan0  00000309   [8]  05 10 00 00 00 00 00 00
(000.874958)  vcan0  0000017C   [8]  4B 00 00 00 00 00 00 00
(000.879852)  vcan0  0000014A   [8]  00 00 00 6D A0 8E 93 D6
(000.880078)  vcan0  0000017C   [8]  4B 00 00 00 00 00 00 00
(000.880287)  vcan0  00000170   [8]  80 00 00 00 00 00 00 00
(000.880498)  vcan0  00000309   [8]  05 1E 00 00 00 00 00 00
(000.886842)  vcan0  0000017C   [8]  4B 00 00 00 00 00 00 00
(000.887056)  vcan0  0000014A   [8]  00 00 00 6D D8 BC BE 9E
(000.887266)  vcan0  00000309   [8]  05 2C 00 00 00 00 00 00
(000.887475)  vcan0  00000170   [8]  F1 00 00 00 00 00 00 00
(000.891677)  vcan0  00000309   [8]  05 3A 00 00 00 00 00 00
(000.891891)  vcan0  0000014A   [8]  00 00 00 6E 0E 5E 83 54
(000.892112)  vcan0  0000017C   [8]  4B 00 00 00 00 00 00 00
(000.892322)  vcan0  00000170   [8]  A4 00 00 00 00 00 00 00
(000.897941)  vcan0  0000014A   [8]  00 00 00 6E 45 A7 28 FA
(000.898159)  vcan0  00000309   [8]  05 48 00 00 00 00 00 00
(000.898369)  vcan0  00000170   [8]  26 00 00 00 00 00 00 00
(000.898588)  vcan0  0000017C   [8]  4B 00 00 00 00 00 00 00
(000.904100)  vcan0  0000017C   [8]  4B 00 00 00 00 00 00 00
(000.904313)  vcan0  00000170   [8]  6D 00 00 00 00 00 00 00
(000.904525)  vcan0  00000309   [8]  05 55 00 00 00 00 00 00
(000.904736)  vcan0  0000014A   [8]  00 00 00 6E 7C 09 03 84
(000.910221)  vcan0  00000170   [8]  94 00 00 00 00 00 00 00
(000.910440)  vcan0  00000309   [8]  05 63 00 00 00 00 00 00
(000.910651)  vcan0  0000014A   [8]  00 00 00 6E B0 D4 A6 94
(000.910870)  vcan0  0000017C   [8]  4B 00 00 00 00 00 00 00
(000.916529)  vcan0  0000017C   [8]  4B 00 00 00 00 00 00 00
(000.916743)  vcan0  0000014A   [8]  00 00 00 6E E1 C1 02 DE
(000.916953)  vcan0  00000309   [8]  05 71 00 00 00 00 00 00
(000.917161)  vcan0  00000170   [8]  6C 00 00 00 00 00 00 00
(000.921809)  vcan0  00000170   [8]  AE 00 00 00 00 00 00 00
(000.922027)  vcan0  00000309   [8]  05 7E 00 00 00 00 00 00
(000.922238)  vcan0  0000014A   [8]  00 00 00 6F 16 D5 8D A4
(000.922456)  vcan0  0000017C   [8]  4B 00 00 00 00 00 00 00
(000.927713)  vcan0  00000170   [8]  9A 00 00 00 00 00 00 00
(000.927944)  vcan0  0000017C   [8]  4B 00 00 00 00 00 00 00
(000.928155)  vcan0  0000014A   [8]  00 00 00 6F 49 74 81 B8
(000.928362)  vcan0  00000202   [8]  00 04 00 00 00 00 00 00
(000.928571)  vcan0  00000309   [8]  05 8C 00 00 00 00 00 00
(000.933927)  vcan0  0000014A   [8]  00 00 00 6F 7C 01 DA 34
(000.934142)  vcan0  00000309   [8]  05 99 00 00 00 00 00 00
(000.934363)  vcan0  0000017C   [8]  4B 00 00 00 00 00 00 00
(000.934571)  vcan0  00000170   [8]  12 00 00 00 00 00 00 00
(000.939716)  vcan0  00000309   [8]  05 A7 00 00 00 00 00 00
(000.939930)  vcan0  00000170   [8]  C3 00 00 00 00 00 00 00
(000.940150)  vcan0  0000017C   [8]  4B 00 00 00 00 00 00 00
(000.940361)  vcan0  0000014A   [8]  00 00 00 6F A9 E7 52 C8
(000.945842)  vcan0  00000170   [8]  91 00 00 00 00 00 00 00
(000.946070)  vcan0  0000017C   [8]  4B 00 00 00 00 00 00 00
(000.946282)  vcan0  0000014A   [8]  00 00 00 6F DD 21 53 D4
(000.946492)  vcan0  00000309   [8]  05 B4 00 00 00 00 00 00
(000.951831)  vcan0  0000017C   [8]  4B 00 00 00 00 00 00 00
(000.952042)  vcan0  00000170   [8]  A9 00 00 00 00 00 00 00
(000.952254)  vcan0  00000309   [8]  05 C1 00 00 00 00 00 00
(000.952463)  vcan0  0000014A   [8]  00 00 00 70 0C 11 5A 6A
(000.957794)  vcan0  00000309   [8]  05 CF 00 00 00 00 00 00
(000.958006)  vcan0  00000170   [8]  D2 00 00 00 00 00 00 00
(000.958218)  vcan0  0000014A   [8]  00 00 00 70 3B 3B 26 68
(000.958436)  vcan0  0000017C   [8]  4B 00 00 00 00 00 00 00
(000.963988)  vcan0  0000017C   [8]  4B 00 00 00 00 00 00 00
(000.964200)  vcan0  00000309   [8]  05 DC 00 00 00 00 00 00
(000.964409)  vcan0  00000170   [8]  62 00 00 00 00 00 00 00
(000.964619)  vcan0  0000014A   [8]  00 00 00 70 69 F6 6C D0
(000.970082)  vcan0  00000309   [8]  05 E9 00 00 00 00 00 00
(000.970294)  vcan0  0000014A   [8]  00 00 00 70 94 0A 39 C2
(000.970512)  vcan0  0000017C   [8]  4B 00 00 00 00 00 00 00
(000.970720)  vcan0  00000170   [8]  20 00 00 00 00 00 00 00
(000.975646)  vcan0  0000014A   [8]  00 00 00 70 BE 80 A6 DE
(000.975859)  vcan0  00000170   [8]  10 00 00 00 00 00 00 00
(000.976081)  vcan0  0000017C   [8]  4B 00 00 00 00 00 00 00
(000.976292)  vcan0  00000309   [8]  05 F6 00 00 00 00 00 00
(000.981596)  vcan0  0000017C   [8]  4B 00 00 00 00 00 00 00
(000.981809)  vcan0  00000170   [8]  F9 00 00 00 00 00 00 00
(000.982023)  vcan0  0000014A   [8]  00 00 00 70 ED 74 88 A8
(000.982232)  vcan0  00000309   [8]  06 04 00 00 00 00 00 00
(000.987670)  vcan0  00000170   [8]  0C 00 00 00 00 00 00 00
(000.987892)  vcan0  0000014A   [8]  00 00 00 71 17 CF 0E 84
(000.988106)  vcan0  00000309   [8]  06 11 00 00 00 00 00 00
(000.988325)  vcan0  0000017C   [8]  4B 00 00 00 00 00 00 00
(000.993743)  vcan0  00000309   [8]  06 1E 00 00 00 00 00 00
(000.993955)  vcan0  00000170   [8]  93 00 00 00 00 00 00 00
(000.994175)  vcan0  0000017C   [8]  4B 00 00 00 00 00 00 00
(000.994385)  vcan0  0000014A   [8]  00 00 00 71 41 3A 3C AA
(000.999651)  vcan0  00000170   [8]  60 00 00 00 00 00 00 00
(000.999870)  vcan0  0000014A   [8]  00 00 00 71 6A B9 CA 38
(001.000090)  vcan0  0000017C   [8]  4B 00 00 00 00 00 00 00
(001.000300)  vcan0  00000309   [8]  06 2B 00 00 00 00 00 00
(001.005640)  vcan0  00000309   [8]  06 38 00 00 00 00 00 00
(001.005851)  vcan0  00000170   [8]  78 00 00 00 00 00 00 00
(001.006072)  vcan0  0000017C   [8]  4B 00 00 00 00 00 00 00
(001.006282)  vcan0  0000014A   [8]  00 00 00 71 96 58 3D 0C
(001.011645)  vcan0  00000309   [8]  06 45 00 00 00 00 00 00
(001.011866)  vcan0  0000017C   [8]  4B 00 00 00 00 00 00 00
(001.012074)  vcan0  00000170   [8]  0E 00 00 00 00 00 00 00
(001.012284)  vcan0  0000014A   [8]  00 00 00 71 B6 EA E2 D4
(001.017492)  vcan0  0000014A   [8]  00 00 00 71 E0 30 15 FA
(001.017703)  vcan0  00000170   [8]  B3 00 00 00 00 00 00 00
(001.017914)  vcan0  00000309   [8]  06 52 00 00 00 00 00 00
(001.018133)  vcan0  0000017C   [8]  4B 00 00 00 00 00 00 00
(001.023791)  vcan0  00000170   [8]  43 00 00 00 00 00 00 00
(001.024008)  vcan0  00000309   [8]  06 5F 00 00 00 00 00 00
(001.024219)  vcan0  0000014A   [8]  00 00 00 72 07 DF 81 66
(001.024436)  vcan0  0000017C   [8]  4B 00 00 00 00 00 00 00
(001.029761)  vcan0  0000014A   [8]  00 00 00 72 2B 86 2C F6
(001.029981)  vcan0  0000017C   [8]  4B 00 00 00 00 00 00 00
(001.030190)  vcan0  00000309   [8]  06 6C 00 00 00 00 00 00
(001.030398)  vcan0  00000170   [8]  A6 00 00 00 00 00 00 00
(001.035644)  vcan0  0000017C   [8]  4B 00 00 00 00 00 00 00
(001.035876)  vcan0  0000014A   [8]  00 00 00 72 4F 3F 1B C6
(001.036096)  vcan0  00000170   [8]  A2 00 00 00 00 00 00 00
(001.036320)  vcan0  00000309   [8]  06 79 00 00 00 00 00 00
(001.041865)  vcan0  0000017C   [8]  4B 00 00 00 00 00 00 00
(001.042082)  vcan0  00000309   [8]  06 86 00 00 00 00 00 00
(001.042293)  vcan0  00000170   [8]  2F 00 00 00 00 00 00 00
(001.042503)  vcan0  0000014A   [8]  00 00 00 72 73 55 48 62
(001.048132)  vcan0  00000309   [8]  06 93 00 00 00 00 00 00
(001.048381)  vcan0  0000017C   [8]  4B 00 00 00 00 00 00 00
(001.048600)  vcan0  00000170   [8]  02 00 00 00 00 00 00 00
(001.048824)  vcan0  0000014A   [8]  00 00 00 72 98 B3 FC 12
(001.054574)  vcan0  0000014A   [8]  00 00 00 72 B9 EF B9 BA
(001.054804)  vcan0  0000017C   [8]  4B 00 00 00 00 00 00 00
(001.055016)  vcan0  00000170   [8]  C9 00 00 00 00 00 00 00
(001.055228)  vcan0  00000309   [8]  06 A0 00 00 00 00 00 00
(001.060004)  vcan0  00000170   [8]  7A 00 00 00 00 00 00 00
(001.060236)  vcan0  0000014A   [8]  00 00 00 72 DB 36 81 F4
(001.060459)  vcan0  0000017C   [8]  4B 00 00 00 00 00 00 00
(001.060670)  vcan0  00000309   [8]  06 AD 00 00 00 00 00 00
(001.065855)  vcan0  00000309   [8]  06 BA 00 00 00 00 00 00
(001.066070)  vcan0  00000170   [8]  F0 00 00 00 00 00 00 00
(001.066293)  vcan0  0000017C   [8]  4B 00 00 00 00 00 00 00
(001.066504)  vcan0  0000014A   [8]  00 00 00 72 FC 47 A1 2C
(001.071880)  vcan0  00000170   [8]  7D 00 00 00 00 00 00 00
(001.072103)  vcan0  0000014A   [8]  00 00 00 73 19 FA 55 0E
(001.072325)  vcan0  0000017C   [8]  4B 00 00 00 00 00 00 00
(001.072535)  vcan0  00000309   [8]  06 C7 00 00 00 00 00 00
(001.078017)  vcan0  00000309   [8]  06 D4 00 00 00 00 00 00
(001.078231)  vcan0  00000170   [8]  29 00 00 00 00 00 00 00
(001.078455)  vcan0  0000017C   [8]  4B 00 00 00 00 00 00 00
(001.078665)  vcan0  0000014A   [8]  00 00 00 73 38 D4 5D B6
(001.084041)  vcan0  00000170   [8]  76 00 00 00 00 00 00 00
(001.084277)  vcan0  0000017C   [8]  4B 00 00 00 00 00 00 00
(001.084489)  vcan0  0000014A   [8]  00 00 00 73 57 3D FC 7E
(001.084701)  vcan0  00000309   [8]  06 E1 00 00 00 00 00 00
(001.089896)  vcan0  0000017C   [8]  4B 00 00 00 00 00 00 00
(001.090110)  vcan0  00000170   [8]  6E 00 00 00 00 00 00 00
(001.090323)  vcan0  00000309   [8]  06 ED 00 00 00 00 00 00
(001.090533)  vcan0  0000014A   [8]  00 00 00 84 63 B5 75 82
(001.095667)  vcan0  00000309   [8]  06 FA 00 00 00 00 00 00
(001.095892)  vcan0  0000017C   [8]  4B 00 00 00 00 00 00 00
(001.096105)  vcan0  0000014A   [8]  00 00 00 78 D4 A4 13 34
(001.096315)  vcan0  00000170   [8]  A8 00 00 00 00 00 00 00
(001.101682)  vcan0  00000170   [8]  97 00 00 00 00 00 00 00
(001.101912)  vcan0  00000309   [8]  07 07 00 00 00 00 00 00
(001.102125)  vcan0  0000014A   [8]  00 00 00 78 D0 4C F4 56
(001.102345)  vcan0  0000017C   [8]  4B 00 00 00 00 00 00 00
(001.107834)  vcan0  0000017C   [8]  4B 00 00 00 00 00 00 00
(001.108049)  vcan0  0000014A   [8]  00 00 00 78 C9 C9 93 EA
(001.108259)  vcan0  00000170   [8]  A5 00 00 00 00 00 00 00
(001.108469)  vcan0  00000309   [8]  07 14 00 00 00 00 00 00
(001.113655)  vcan0  00000170   [8]  6C 00 00 00 00 00 00 00
(001.113893)  vcan0  0000017C   [8]  4B 00 00 00 00 00 00 00
(001.114106)  vcan0  0000014A   [8]  00 00 00 78 C0 D6 47 58
(001.114317)  vcan0  00000309   [8]  07 21 00 00 00 00 00 00
(001.119744)  vcan0  00000309   [8]  07 2D 00 00 00 00 00 00
(001.119956)  vcan0  00000170   [8]  27 00 00 00 00 00 00 00
(001.120176)  vcan0  0000017C   [8]  4B 00 00 00 00 00 00 00
(001.120386)  vcan0  0000014A   [8]  00 00 00 78 BA B7 ED C2
(001.126150)  vcan0  00000309   [8]  07 3A 00 00 00 00 00 00
(001.126373)  vcan0  0000017C   [8]  4B 00 00 00 00 00 00 00
(001.126582)  vcan0  00000170   [8]  56 00 00 00 00 00 00 00
(001.126792)  vcan0  0000014A   [8]  00 00 00 78 B3 FC 8D F4
(001.132530)  vcan0  0000017C   [8]  4B 00 00 00 00 00 00 00
(001.132741)  vcan0  00000170   [8]  11 00 00 00 00 00 00 00
(001.132953)  vcan0  0000014A   [8]  00 00 00 78 AB 0B 87 76
(001.133163)  vcan0  00000309   [8]  07 47 00 00 00 00 00 00
(001.138063)  vcan0  00000309   [8]  07 53 00 00 00 00 00 00
(001.138287)  vcan0  0000017C   [8]  4B 00 00 00 00 00 00 00
(001.138499)  vcan0  0000014A   [8]  00 00 00 78 A1 D3 25 14
(001.138707)  vcan0  00000170   [8]  70 00 00 00 00 00 00 00
(001.143655)  vcan0  0000014A   [8]  00 00 00 78 99 1F 5B 12
(001.143878)  vcan0  0000017C   [8]  4B 00 00 00 00 00 00 00
(001.144088)  vcan0  00000170   [8]  33 00 00 00 00 00 00 00
(001.144299)  vcan0  00000309   [8]  07 60 00 00 00 00 00 00
(001.149785)  vcan0  00000309   [8]  07 6C 00 00 00 00 00 00
(001.150014)  vcan0  0000017C   [8]  4B 00 00 00 00 00 00 00
(001.150226)  vcan0  0000014A   [8]  00 00 00 78 91 8C 21 92
(001.150434)  vcan0  00000170   [8]  94 00 00 00 00 00 00 00
(001.155776)  vcan0  0000014A   [8]  00 00 00 78 7D 9D D9 02
(001.155989)  vcan0  00000170   [8]  09 00 00 00 00 00 00 00
(001.156204)  vcan0  00000309   [8]  07 7A 00 00 00 00 00 00
(001.156424)  vcan0  0000017C   [8]  4B 00 00 00 00 00 00 00
(001.161898)  vcan0  0000014A   [8]  00 00 00 78 83 E0 98 7A
(001.162109)  vcan0  00000170   [8]  82 00 00 00 00 00 00 00
(001.162321)  vcan0  00000309   [8]  07 7E 00 00 00 00 00 00
(001.162539)  vcan0  0000017C   [8]  4B 00 00 00 00 00 00 00
(001.168004)  vcan0  00000170   [8]  53 00 00 00 00 00 00 00
(001.168224)  vcan0  00000309   [8]  07 87 00 00 00 00 00 00
(001.168444)  vcan0  0000017C   [8]  4B 00 00 00 00 00 00 00
(001.168655)  vcan0  0000014A   [8]  00 00 00 78 6C 93 B8 58
(001.173948)  vcan0  00000309   [8]  07 80 00 00 00 00 00 00
(001.174161)  vcan0  00000202   [8]  00 60 00 00 00 00 00 00
(001.174367)  vcan0  00000170   [8]  49 00 00 00 00 00 00 00
(001.174587)  vcan0  0000017C   [8]  4B 00 00 00 00 00 00 00
(001.174797)  vcan0  0000014A   [8]  00 00 00 78 62 82 33 F8
(001.179841)  vcan0  00000309   [8]  07 89 00 00 00 00 00 00
(001.180064)  vcan0  0000017C   [8]  4B 00 00 00 00 00 00 00
(001.180275)  vcan0  0000014A   [8]  00 00 00 78 60 06 4D 72
(001.180484)  vcan0  00000170   [8]  A7 00 00 00 00 00 00 00
(001.186026)  vcan0  00000170   [8]  D3 00 00 00 00 00 00 00
(001.186251)  vcan0  000001A4   [8]  00 67 00 00 00 00 00 00
(001.186468)  vcan0  00000326   [8]  00 00 00 00 00 00 00 00
(001.186678)  vcan0  0000014A   [8]  00 00 00 78 54 A0 7F 7C
(001.186887)  vcan0  00000309   [8]  07 89 00 00 00 00 00 00
(001.187093)  vcan0  0000018F   [8]  00 00 2D 00 00 00 00 00
(001.187305)  vcan0  000001A3   [8]  00 00 00 00 00 00 00 00
(001.187519)  vcan0  00000374   [8]  00 00 00 00 00 00 00 00
(001.187734)  vcan0  0000017C   [8]  4B 00 00 00 00 00 00 00
(001.187946)  vcan0  0000037B   [8]  00 00 00 00 00 00 00 00
(001.191664)  vcan0  00000170   [8]  77 00 00 00 00 00 00 00
(001.191878)  vcan0  00000309   [8]  07 94 00 00 00 00 00 00
(001.192089)  vcan0  0000014A   [8]  00 00 00 78 49 0B AE 82
(001.192306)  vcan0  0000017C   [8]  4B 00 00 00 00 00 00 00
(001.198024)  vcan0  00000309   [8]  07 93 00 00 00 00 00 00
(001.198235)  vcan0  00000170   [8]  3E 00 00 00 00 00 00 00
(001.198455)  vcan0  0000017C   [8]  4B 00 00 00 00 00 00 00
(001.198665)  vcan0  0000014A   [8]  00 00 00 78 44 3E 4A 58
(001.203793)  vcan0  0000017C   [8]  4B 00 00 00 00 00 00 00
(001.204007)  vcan0  00000309   [8]  07 9F 00 00 00 00 00 00
(001.204217)  vcan0  0000014A   [8]  00 00 00 78 3A 03 91 94
(001.204424)  vcan0  00000170   [8]  24 00 00 00 00 00 00 00
(001.209628)  vcan0  0000017C   [8]  4B 00 00 00 00 00 00 00
(001.209842)  vcan0  00000309   [8]  07 9F 00 00 00 00 00 00
(001.210052)  vcan0  0000014A   [8]  00 00 00 78 33 62 6E F2
(001.210260)  vcan0  00000170   [8]  6F 00 00 00 00 00 00 00
(001.215703)  vcan0  0000014A   [8]  00 00 00 78 25 2B 4F 00
(001.215931)  vcan0  0000017C   [8]  4B 00 00 00 00 00 00 00
(001.216141)  vcan0  00000170   [8]  24 00 00 00 00 00 00 00
(001.216351)  vcan0  00000309   [8]  07 AC 00 00 00 00 00 00
(001.222141)  vcan0  0000014A   [8]  00 00 00 78 21 40 D4 EA
(001.222365)  vcan0  0000017C   [8]  4B 00 00 00 00 00 00 00
(001.222575)  vcan0  00000309   [8]  07 AD 00 00 00 00 00 00
(001.222783)  vcan0  00000170   [8]  0C 00 00 00 00 00 00 00
(001.228131)  vcan0  00000309   [8]  07 BA 00 00 00 00 00 00
(001.228342)  vcan0  00000170   [8]  5A 00 00 00 00 00 00 00
(001.228552)  vcan0  0000014A   [8]  00 00 00 78 16 85 8C 60
(001.228771)  vcan0  0000017C   [8]  4B 00 00 00 00 00 00 00
(001.233816)  vcan0  0000014A   [8]  00 00 00 78 10 D8 44 4A
(001.234040)  vcan0  0000017C   [8]  4B 00 00 00 00 00 00 00
(001.234250)  vcan0  00000309   [8]  07 BC 00 00 00 00 00 00
(001.234458)  vcan0  00000170   [8]  6F 00 00 00 00 00 00 00
(001.239680)  vcan0  00000309   [8]  07 CA 00 00 00 00 00 00
(001.239929)  vcan0  0000017C   [8]  4B 00 00 00 00 00 00 00
(001.240140)  vcan0  00000170   [8]  52 00 00 00 00 00 00 00
(001.240352)  vcan0  0000014A   [8]  00 00 00 78 07 36 50 18
(001.246292)  vcan0  0000014A   [8]  00 00 00 78 01 3C 89 C8
(001.246532)  vcan0  0000017C   [8]  4B 00 00 00 00 00 00 00
(001.246744)  vcan0  00000170   [8]  BD 00 00 00 00 00 00 00
(001.246955)  vcan0  00000309   [8]  07 CC 00 00 00 00 00 00
(001.252106)  vcan0  00000170   [8]  0B 00 00 00 00 00 00 00
(001.252329)  vcan0  0000014A   [8]  00 00 00 77 FA 04 C5 BC
(001.252549)  vcan0  0000017C   [8]  4B 00 00 00 00 00 00 00
(001.252760)  vcan0  00000309   [8]  07 DB 00 00 00 00 00 00
(001.257814)  vcan0  0000014A   [8]  00 00 00 77 F5 47 23 5C
(001.258025)  vcan0  00000170   [8]  F0 00 00 00 00 00 00 00
(001.258246)  vcan0  0000017C   [8]  4B 00 00 00 00 00 00 00
(001.258457)  vcan0  00000309   [8]  07 DE 00 00 00 00 00 00
(001.263986)  vcan0  0000014A   [8]  00 00 00 77 EC 83 27 CE
(001.264208)  vcan0  0000017C   [8]  4B 00 00 00 00 00 00 00
(001.264418)  vcan0  00000309   [8]  07 ED 00 00 00 00 00 00
(001.264626)  vcan0  00000170   [8]  61 00 00 00 00 00 00 00
(001.269744)  vcan0  0000017C   [8]  4B 00 00 00 00 00 00 00
(001.269958)  vcan0  0000014A   [8]  00 00 00 77 E8 75 C8 02
(001.270167)  vcan0  00000170   [8]  46 00 00 00 00 00 00 00
(001.270377)  vcan0  00000309   [8]  07 F0 00 00 00 00 00 00
(001.275960)  vcan0  0000014A   [8]  00 00 00 77 E0 27 EB 56
(001.276172)  vcan0  00000170   [8]  AB 00 00 00 00 00 00 00
(001.276384)  vcan0  00000309   [8]  08 00 00 00 00 00 00 00
(001.276603)  vcan0  0000017C   [8]  4B 00 00 00 00 00 00 00
(001.281964)  vcan0  0000017C   [8]  4B 00 00 00 00 00 00 00
(001.282197)  vcan0  00000309   [8]  08 04 00 00 00 00 00 00
(001.282422)  vcan0  0000014A   [8]  00 00 00 77 D9 24 FE BE
(001.282640)  vcan0  00000170   [8]  D5 00 00 00 00 00 00 00
(001.288149)  vcan0  0000014A   [8]  00 00 00 77 D2 45 9E 58
(001.288371)  vcan0  00000170   [8]  7C 00 00 00 00 00 00 00
(001.288598)  vcan0  00000309   [8]  08 14 00 00 00 00 00 00
(001.288835)  vcan0  0000017C   [8]  4B 00 00 00 00 00 00 00
(001.293831)  vcan0  00000309   [8]  08 18 00 00 00 00 00 00
(001.294058)  vcan0  0000017C   [8]  4B 00 00 00 00 00 00 00
(001.294268)  vcan0  00000170   [8]  68 00 00 00 00 00 00 00
(001.294478)  vcan0  0000014A   [8]  00 00 00 77 CD A9 47 E6
(001.300234)  vcan0  00000309   [8]  08 28 00 00 00 00 00 00
(001.300454)  vcan0  0000014A   [8]  00 00 00 83 4F AE F5 9A
(001.300676)  vcan0  0000017C   [8]  4B 00 00 00 00 00 00 00
(001.300885)  vcan0  00000170   [8]  29 00 00 00 00 00 00 00
(001.306134)  vcan0  00000170   [8]  68 00 00 00 00 00 00 00
(001.306366)  vcan0  0000017C   [8]  4B 00 00 00 00 00 00 00
(001.306579)  vcan0  0000014A   [8]  00 00 00 7B 65 D8 CC 78
(001.306789)  vcan0  00000309   [8]  08 2D 00 00 00 00 00 00
(001.311829)  vcan0  0000017C   [8]  4B 00 00 00 00 00 00 00
(001.312047)  vcan0  00000309   [8]  08 3E 00 00 00 00 00 00
(001.312260)  vcan0  00000170   [8]  6D 00 00 00 00 00 00 00
(001.312473)  vcan0  0000014A   [8]  00 00 00 7B 4A C5 F9 E4
(001.318577)  vcan0  00000170   [8]  83 00 00 00 00 00 00 00
(001.318815)  vcan0  0000017C   [8]  4B 00 00 00 00 00 00 00
(001.319028)  vcan0  0000014A   [8]  00 00 00 7B 30 C5 5D C0
(001.319238)  vcan0  00000309   [8]  08 43 00 00 00 00 00 00
(001.324017)  vcan0  0000014A   [8]  00 00 00 7B 14 E8 4E F4
(001.324236)  vcan0  00000309   [8]  08 54 00 00 00 00 00 00
(001.324447)  vcan0  00000170   [8]  86 00 00 00 00 00 00 00
(001.324668)  vcan0  0000017C   [8]  4B 00 00 00 00 00 00 00
(001.330155)  vcan0  00000309   [8]  08 59 00 00 00 00 00 00
(001.330368)  vcan0  00000170   [8]  AD 00 00 00 00 00 00 00
(001.330581)  vcan0  0000014A   [8]  00 00 00 7A FB 91 CA CE
(001.330800)  vcan0  0000017C   [8]  4B 00 00 00 00 00 00 00
(001.336243)  vcan0  0000014A   [8]  00 00 00 7A D8 D9 BC AE
(001.336454)  vcan0  00000170   [8]  5C 00 00 00 00 00 00 00
(001.336667)  vcan0  00000309   [8]  08 6A 00 00 00 00 00 00
(001.336886)  vcan0  0000017C   [8]  4B 00 00 00 00 00 00 00
(001.341921)  vcan0  00000170   [8]  F7 00 00 00 00 00 00 00
(001.342155)  vcan0  0000014A   [8]  00 00 00 7A C0 C2 4E D6
(001.342368)  vcan0  00000309   [8]  08 70 00 00 00 00 00 00
(001.342589)  vcan0  0000017C   [8]  4B 00 00 00 00 00 00 00
(001.348018)  vcan0  0000014A   [8]  00 00 00 7A A3 4A 65 1E
(001.348236)  vcan0  00000309   [8]  08 81 00 00 00 00 00 00
(001.348447)  vcan0  00000170   [8]  6F 00 00 00 00 00 00 00
(001.348673)  vcan0  0000017C   [8]  4B 00 00 00 00 00 00 00
(001.353909)  vcan0  00000170   [8]  17 00 00 00 00 00 00 00
(001.354142)  vcan0  0000014A   [8]  00 00 00 7A 88 7D F2 FA
(001.354357)  vcan0  00000309   [8]  08 87 00 00 00 00 00 00
(001.354580)  vcan0  0000017C   [8]  4B 00 00 00 00 00 00 00
(001.359928)  vcan0  00000170   [8]  37 00 00 00 00 00 00 00
(001.360158)  vcan0  0000017C   [8]  4B 00 00 00 00 00 00 00
(001.360371)  vcan0  0000014A   [8]  00 00 00 7A 68 16 0C 3C
(001.360581)  vcan0  00000309   [8]  08 98 00 00 00 00 00 00
(001.365932)  vcan0  0000017C   [8]  4B 00 00 00 00 00 00 00
(001.366154)  vcan0  00000309   [8]  08 9E 00 00 00 00 00 00
(001.366366)  vcan0  00000170   [8]  63 00 00 00 00 00 00 00
(001.366578)  vcan0  0000014A   [8]  00 00 00 7A 4F 9D 03 00
(001.371971)  vcan0  0000014A   [8]  00 00 00 7A 2F 20 77 00
(001.372188)  vcan0  00000309   [8]  08 B0 00 00 00 00 00 00
(001.372399)  vcan0  00000170   [8]  A4 00 00 00 00 00 00 00
(001.372621)  vcan0  0000017C   [8]  4B 00 00 00 00 00 00 00
(001.377770)  vcan0  0000014A   [8]  00 00 00 7A 12 C1 42 22
(001.377987)  vcan0  00000309   [8]  08 B6 00 00 00 00 00 00
(001.378209)  vcan0  0000017C   [8]  4B 00 00 00 00 00 00 00
(001.378418)  vcan0  00000170   [8]  B1 00 00 00 00 00 00 00
(001.384470)  vcan0  0000014A   [8]  00 00 00 79 FA 16 6B 18
(001.384699)  vcan0  0000017C   [8]  4B 00 00 00 00 00 00 00
(001.384911)  vcan0  00000309   [8]  08 C8 00 00 00 00 00 00
(001.385121)  vcan0  00000170   [8]  F8 00 00 00 00 00 00 00
(001.389776)  vcan0  0000017C   [8]  4B 00 00 00 00 00 00 00
(001.389993)  vcan0  00000309   [8]  08 CE 00 00 00 00 00 00
(001.390204)  vcan0  00000170   [8]  1B 00 00 00 00 00 00 00
(001.390416)  vcan0  0000014A   [8]  00 00 00 79 E0 E5 2C 58
(001.395918)  vcan0  0000017C   [8]  4B 00 00 00 00 00 00 00
(001.396137)  vcan0  00000309   [8]  08 E0 00 00 00 00 00 00
(001.396349)  vcan0  0000014A   [8]  00 00 00 79 C2 D8 AF 6C
(001.396559)  vcan0  00000170   [8]  E6 00 00 00 00 00 00 00
(001.402032)  vcan0  0000017C   [8]  4B 00 00 00 00 00 00 00
(001.402256)  vcan0  00000170   [8]  B9 00 00 00 00 00 00 00
(001.402486)  vcan0  0000014A   [8]  00 00 00 79 AC 32 0E 66
(001.402702)  vcan0  00000309   [8]  08 E6 00 00 00 00 00 00
(001.407785)  vcan0  00000170   [8]  5F 00 00 00 00 00 00 00
(001.408004)  vcan0  00000309   [8]  08 F8 00 00 00 00 00 00
(001.408225)  vcan0  0000017C   [8]  4B 00 00 00 00 00 00 00
(001.408435)  vcan0  0000014A   [8]  00 00 00 79 92 BA 45 4E
(001.414046)  vcan0  00000170   [8]  29 00 00 00 00 00 00 00
(001.414264)  vcan0  00000309   [8]  08 FF 00 00 00 00 00 00
(001.414475)  vcan0  0000014A   [8]  00 00 00 79 7B 72 1F E2
(001.414693)  vcan0  0000017C   [8]  4B 00 00 00 00 00 00 00
(001.420103)  vcan0  00000170   [8]  02 00 00 00 00 00 00 00
(001.420325)  vcan0  00000202   [8]  00 C6 00 00 00 00 00 00
(001.420560)  vcan0  00000309   [8]  09 11 00 00 00 00 00 00
(001.420785)  vcan0  0000014A   [8]  00 00 00 79 62 D2 78 AA
(001.421024)  vcan0  0000017C   [8]  4B 00 00 00 00 00 00 00
(001.426026)  vcan0  0000017C   [8]  4B 00 00 00 00 00 00 00
(001.426254)  vcan0  0000014A   [8]  00 00 00 79 4B ED 03 B4
(001.426478)  vcan0  00000309   [8]  09 18 00 00 00 00 00 00
(001.426693)  vcan0  00000170   [8]  26 00 00 00 00 00 00 00
(001.432212)  vcan0  00000170   [8]  B7 00 00 00 00 00 00 00
(001.432437)  vcan0  0000014A   [8]  00 00 00 79 33 DF 68 6E
(001.432659)  vcan0  0000017C   [8]  4B 00 00 00 00 00 00 00
(001.432870)  vcan0  00000309   [8]  09 29 00 00 00 00 00 00
(001.437823)  vcan0  00000170   [8]  C3 00 00 00 00 00 00 00
(001.438043)  vcan0  0000014A   [8]  00 00 00 79 24 68 50 56
(001.438265)  vcan0  0000017C   [8]  4B 00 00 00 00 00 00 00
(001.438476)  vcan0  00000309   [8]  09 30 00 00 00 00 00 00
(001.443785)  vcan0  0000017C   [8]  4B 00 00 00 00 00 00 00
(001.444000)  vcan0  00000170   [8]  23 00 00 00 00 00 00 00
(001.444214)  vcan0  00000309   [8]  09 42 00 00 00 00 00 00
(001.444425)  vcan0  0000014A   [8]  00 00 00 79 08 CD A3 D8
(001.449855)  vcan0  0000014A   [8]  00 00 00 78 F8 FC 0D 1C
(001.450071)  vcan0  00000309   [8]  09 49 00 00 00 00 00 00
(001.450281)  vcan0  00000170   [8]  E2 00 00 00 00 00 00 00
(001.450501)  vcan0  0000017C   [8]  4B 00 00 00 00 00 00 00
(001.455835)  vcan0  00000309   [8]  09 5B 00 00 00 00 00 00
(001.456049)  vcan0  0000014A   [8]  00 00 00 78 E3 F8 C0 FC
(001.456271)  vcan0  0000017C   [8]  4B 00 00 00 00 00 00 00
(001.456480)  vcan0  00000170   [8]  C2 00 00 00 00 00 00 00
(001.461646)  vcan0  0000014A   [8]  00 00 00 78 D2 3F 18 02
(001.461858)  vcan0  00000170   [8]  D5 00 00 00 00 00 00 00
(001.462073)  vcan0  00000309   [8]  09 62 00 00 00 00 00 00
(001.462294)  vcan0  0000017C   [8]  4B 00 00 00 00 00 00 00
(001.467741)  vcan0  0000017C   [8]  4B 00 00 00 00 00 00 00
(001.467962)  vcan0  00000309   [8]  09 74 00 00 00 00 00 00
(001.468172)  vcan0  00000170   [8]  F1 00 00 00 00 00 00 00
(001.468382)  vcan0  0000014A   [8]  00 00 00 78 BF 1D 0E 38
(001.473715)  vcan0  00000170   [8]  38 00 00 00 00 00 00 00
(001.473952)  vcan0  0000017C   [8]  4B 00 00 00 00 00 00 00
(001.474164)  vcan0  00000309   [8]  09 7B 00 00 00 00 00 00
(001.474375)  vcan0  0000014A   [8]  00 00 00 78 B1 DE 6E 98
(001.479791)  vcan0  00000309   [8]  09 8D 00 00 00 00 00 00
(001.480017)  vcan0  00000170   [8]  CD 00 00 00 00 00 00 00
(001.480245)  vcan0  0000014A   [8]  00 00 00 80 99 86 F8 EE
(001.480485)  vcan0  0000017C   [8]  39 CE 00 00 00 00 00 00
(001.486176)  vcan0  00000170   [8]  90 00 00 00 00 00 00 00
(001.486423)  vcan0  0000017C   [8]  32 17 00 00 00 00 00 00
(001.486638)  vcan0  0000014A   [8]  00 00 00 7B 0F 1B A6 36
(001.486951)  vcan0  00000309   [8]  09 94 00 00 00 00 00 00
(001.492493)  vcan0  0000014A   [8]  00 00 00 7A EF 1F 3B 64
(001.492726)  vcan0  00000309   [8]  09 A6 00 00 00 00 00 00
(001.492967)  vcan0  0000017C   [8]  20 3D 00 00 00 00 00 00
(001.493185)  vcan0  00000170   [8]  32 00 00 00 00 00 00 00
(001.498252)  vcan0  0000014A   [8]  00 00 00 7A CF BC 51 BA
(001.498466)  vcan0  00000170   [8]  B0 00 00 00 00 00 00 00
(001.498688)  vcan0  0000017C   [8]  18 EE 00 00 00 00 00 00
(001.498900)  vcan0  00000309   [8]  09 AD 00 00 00 00 00 00
(001.503901)  vcan0  00000170   [8]  B3 00 00 00 00 00 00 00
(001.504126)  vcan0  00000309   [8]  09 BE 00 00 00 00 00 00
(001.504340)  vcan0  0000014A   [8]  00 00 00 7A AF 36 50 48
(001.504559)  vcan0  0000017C   [8]  08 18 00 00 00 00 00 00
(001.510025)  vcan0  00000309   [8]  09 C3 00 00 00 00 00 00
(001.510242)  vcan0  0000014A   [8]  00 00 00 7A 8F 36 2A DC
(001.510452)  vcan0  00000170   [8]  E6 00 00 00 00 00 00 00
(001.510673)  vcan0  0000017C   [8]  01 DB 00 00 00 00 00 00
(001.516023)  vcan0  00000170   [8]  78 00 00 00 00 00 00 00
(001.516246)  vcan0  00000309   [8]  09 D2 00 00 00 00 00 00
(001.516467)  vcan0  0000017C   [8]  00 00 00 00 00 00 08 90
(001.516677)  vcan0  0000014A   [8]  00 00 00 7A 6F 69 D8 20
(001.522046)  vcan0  00000170   [8]  F5 00 00 00 00 00 00 00
(001.522269)  vcan0  00000309   [8]  09 D7 00 00 00 00 00 00
(001.522489)  vcan0  0000017C   [8]  00 00 00 00 00 00 0B 98
(001.522730)  vcan0  0000014A   [8]  00 00 00 7A 51 4E 5E 26
(001.527759)  vcan0  00000309   [8]  09 E3 00 00 00 00 00 00
(001.527976)  vcan0  0000014A   [8]  00 00 00 7A 30 9A 7C BA
(001.528196)  vcan0  0000017C   [8]  00 00 00 00 00 00 13 30
(001.528406)  vcan0  00000170   [8]  99 00 00 00 00 00 00 00
(001.534205)  vcan0  0000014A   [8]  00 00 00 7A 14 09 13 9C
(001.534424)  vcan0  00000309   [8]  09 E5 00 00 00 00 00 00
(001.534646)  vcan0  0000017C   [8]  00 00 00 00 00 00 13 30
(001.534889)  vcan0  00000170   [8]  E1 00 00 00 00 00 00 00
(001.539737)  vcan0  0000017C   [8]  00 00 00 00 00 00 13 30
(001.539953)  vcan0  0000014A   [8]  00 00 00 79 F4 D6 C4 6A
(001.540163)  vcan0  00000170   [8]  29 00 00 00 00 00 00 00
(001.540374)  vcan0  00000309   [8]  09 EE 00 00 00 00 00 00
(001.545637)  vcan0  0000017C   [8]  00 00 00 00 00 00 13 30
(001.545855)  vcan0  0000014A   [8]  00 00 00 79 D5 AC 7F 72
(001.546068)  vcan0  00000309   [8]  09 ED 00 00 00 00 00 00
(001.546278)  vcan0  00000170   [8]  92 00 00 00 00 00 00 00
(001.551752)  vcan0  00000309   [8]  09 F4 00 00 00 00 00 00
(001.551966)  vcan0  00000170   [8]  FB 00 00 00 00 00 00 00
(001.552189)  vcan0  0000017C   [8]  00 00 00 00 00 00 13 30
(001.552401)  vcan0  0000014A   [8]  00 00 00 79 BA 70 B6 2E
(001.557747)  vcan0  00000170   [8]  13 00 00 00 00 00 00 00
(001.557968)  vcan0  0000014A   [8]  00 00 00 79 A2 8A 57 36
(001.558189)  vcan0  0000017C   [8]  00 00 00 00 00 00 13 30
(001.558399)  vcan0  00000309   [8]  09 F0 00 00 00 00 00 00
(001.563687)  vcan0  00000309   [8]  09 F5 00 00 00 00 00 00
(001.563898)  vcan0  00000170   [8]  3C 00 00 00 00 00 00 00
(001.564118)  vcan0  0000017C   [8]  00 00 00 00 00 00 13 30
(001.564329)  vcan0  0000014A   [8]  00 00 00 79 83 38 C7 F6
(001.569650)  vcan0  00000170   [8]  7E 00 00 00 00 00 00 00
(001.569870)  vcan0  0000014A   [8]  00 00 00 79 68 44 33 00
(001.570090)  vcan0  0000017C   [8]  00 00 00 00 00 00 13 30
(001.570301)  vcan0  00000309   [8]  09 EF 00 00 00 00 00 00
(001.575637)  vcan0  00000309   [8]  09 F3 00 00 00 00 00 00
(001.575857)  vcan0  0000017C   [8]  00 00 00 00 00 00 13 30
(001.576067)  vcan0  0000014A   [8]  00 00 00 79 50 14 77 EA
(001.576275)  vcan0  00000170   [8]  84 00 00 00 00 00 00 00
(001.581656)  vcan0  0000017C   [8]  00 00 00 00 00 00 13 30
(001.581870)  vcan0  0000014A   [8]  00 00 00 79 38 C3 4F 26
(001.582079)  vcan0  00000170   [8]  A1 00 00 00 00 00 00 00
(001.582290)  vcan0  00000309   [8]  09 EC 00 00 00 00 00 00
(001.587663)  vcan0  0000014A   [8]  00 00 00 79 1D AF F7 DC
(001.587884)  vcan0  0000017C   [8]  00 00 00 00 00 00 13 30
(001.588093)  vcan0  00000170   [8]  7E 00 00 00 00 00 00 00
(001.588303)  vcan0  00000309   [8]  09 EF 00 00 00 00 00 00
(001.593689)  vcan0  0000014A   [8]  00 00 00 79 0A B4 C8 98
(001.593949)  vcan0  0000017C   [8]  00 00 00 00 00 00 13 30
(001.594164)  vcan0  00000170   [8]  6B 00 00 00 00 00 00 00
(001.594383)  vcan0  00000309   [8]  09 E7 00 00 00 00 00 00
(001.599830)  vcan0  0000014A   [8]  00 00 00 78 F2 99 EF 4E
(001.600051)  vcan0  00000309   [8]  09 E8 00 00 00 00 00 00
(001.600272)  vcan0  0000017C   [8]  00 00 00 00 00 00 13 30
(001.600483)  vcan0  00000170   [8]  D9 00 00 00 00 00 00 00
(001.605743)  vcan0  0000014A   [8]  00 00 00 78 DF EF EC 2C
(001.605962)  vcan0  00000309   [8]  09 DF 00 00 00 00 00 00
(001.606185)  vcan0  0000017C   [8]  00 00 00 00 00 00 12 18
(001.606394)  vcan0  00000170   [8]  DB 00 00 00 00 00 00 00
(001.612164)  vcan0  0000014A   [8]  00 00 00 78 CA EA 26 C0
(001.612382)  vcan0  00000170   [8]  D2 00 00 00 00 00 00 00
(001.612597)  vcan0  00000309   [8]  09 E0 00 00 00 00 00 00
(001.612821)  vcan0  0000017C   [8]  00 00 00 00 00 00 12 70
(001.618123)  vcan0  0000017C   [8]  00 00 00 00 00 00 0C 38
(001.618337)  vcan0  00000170   [8]  71 00 00 00 00 00 00 00
(001.618550)  vcan0  0000014A   [8]  00 00 00 78 B9 83 35 B8
(001.618761)  vcan0  00000309   [8]  09 D6 00 00 00 00 00 00
(001.624351)  vcan0  00000170   [8]  C3 00 00 00 00 00 00 00
(001.624592)  vcan0  0000014A   [8]  00 00 00 78 A6 BA 44 06
(001.624830)  vcan0  0000017C   [8]  00 00 00 00 00 00 0C 20
(001.625054)  vcan0  00000309   [8]  09 D6 00 00 00 00 00 00
(001.629869)  vcan0  00000170   [8]  1C 00 00 00 00 00 00 00
(001.630093)  vcan0  0000014A   [8]  00 00 00 78 95 1B F4 44
(001.630316)  vcan0  0000017C   [8]  00 00 00 00 00 00 05 C8
(001.630526)  vcan0  00000309   [8]  09 CC 00 00 00 00 00 00
(001.636115)  vcan0  0000014A   [8]  00 00 00 78 86 A7 A1 26
(001.636328)  vcan0  00000170   [8]  44 00 00 00 00 00 00 00
(001.636553)  vcan0  0000017C   [8]  00 00 00 00 00 00 05 B0
(001.636765)  vcan0  00000309   [8]  09 CC 00 00 00 00 00 00
(001.641900)  vcan0  00000309   [8]  09 C2 00 00 00 00 00 00
(001.642117)  vcan0  0000014A   [8]  00 00 00 78 75 F4 EC 2C
(001.642325)  vcan0  00000170   [8]  14 00 00 00 00 00 00 00
(001.642545)  vcan0  0000017C   [8]  00 FB 00 00 00 00 00 00
(001.648214)  vcan0  00000170   [8]  63 00 00 00 00 00 00 00
(001.648443)  vcan0  0000017C   [8]  01 1D 00 00 00 00 00 00
(001.648654)  vcan0  00000309   [8]  09 C2 00 00 00 00 00 00
(001.648864)  vcan0  0000014A   [8]  00 00 00 78 65 27 E5 12
(001.654467)  vcan0  0000014A   [8]  00 00 00 78 58 D7 4C B8
(001.654697)  vcan0  00000309   [8]  09 B9 00 00 00 00 00 00
(001.654914)  vcan0  00000170   [8]  58 00 00 00 00 00 00 00
(001.655152)  vcan0  0000017C   [8]  0A BE 00 00 00 00 00 00
(001.660300)  vcan0  00000309   [8]  09 B9 00 00 00 00 00 00
(001.660529)  vcan0  00000170   [8]  D4 00 00 00 00 00 00 00
(001.660753)  vcan0  0000014A   [8]  00 00 00 78 49 FF 8A 3A
(001.660975)  vcan0  0000017C   [8]  0A CD 00 00 00 00 00 00
(001.665975)  vcan0  00000170   [8]  A9 00 00 00 00 00 00 00
(001.666206)  vcan0  0000014A   [8]  00 00 00 78 38 B2 65 70
(001.666417)  vcan0  00000202   [8]  00 E0 00 00 00 00 00 00
(001.666641)  vcan0  0000017C   [8]  14 DA 00 00 00 00 00 00
(001.666854)  vcan0  00000309   [8]  09 AF 00 00 00 00 00 00
(001.671662)  vcan0  0000014A   [8]  00 00 00 78 2D FC A1 04
(001.671881)  vcan0  00000309   [8]  09 AF 00 00 00 00 00 00
(001.672101)  vcan0  0000017C   [8]  15 0E 00 00 00 00 00 00
(001.672311)  vcan0  00000170   [8]  4B 00 00 00 00 00 00 00
(001.677661)  vcan0  0000014A   [8]  00 00 00 78 24 E4 1E 2E
(001.677880)  vcan0  00000309   [8]  09 A5 00 00 00 00 00 00
(001.678101)  vcan0  0000017C   [8]  1F 2C 00 00 00 00 00 00
(001.678310)  vcan0  00000170   [8]  95 00 00 00 00 00 00 00
(001.683751)  vcan0  00000309   [8]  09 A5 00 00 00 00 00 00
(001.683975)  vcan0  0000017C   [8]  1F 3D 00 00 00 00 00 00
(001.684187)  vcan0  0000014A   [8]  00 00 00 78 17 5C A1 54
(001.684396)  vcan0  0000018F   [8]  00 00 56 00 00 00 00 00
(001.684609)  vcan0  000001A3   [8]  00 00 00 00 00 00 00 00
(001.684818)  vcan0  00000170   [8]  E0 00 00 00 00 00 00 00
(001.689884)  vcan0  00000170   [8]  2F 00 00 00 00 00 00 00
(001.690106)  vcan0  0000014A   [8]  00 00 00 78 10 F4 7E 30
(001.690318)  vcan0  00000309   [8]  09 9B 00 00 00 00 00 00
(001.690535)  vcan0  0000017C   [8]  29 1F 00 00 00 00 00 00
(001.696262)  vcan0  00000170   [8]  69 00 00 00 00 00 00 00
(001.696486)  vcan0  00000309   [8]  09 9C 00 00 00 00 00 00
(001.696708)  vcan0  0000017C   [8]  28 D1 00 00 00 00 00 00
(001.696919)  vcan0  0000014A   [8]  00 00 00 7D F9 86 98 28
(001.702406)  vcan0  00000170   [8]  4D 00 00 00 00 00 00 00
(001.702640)  vcan0  0000017C   [8]  32 33 00 00 00 00 00 00
(001.702853)  vcan0  00000309   [8]  09 92 00 00 00 00 00 00
(001.703064)  vcan0  0000014A   [8]  00 00 00 79 DF 6F 35 0A
(001.707856)  vcan0  00000170   [8]  D8 00 00 00 00 00 00 00
(001.708076)  vcan0  00000309   [8]  09 93 00 00 00 00 00 00
(001.708296)  vcan0  0000017C   [8]  31 51 00 00 00 00 00 00
(001.708506)  vcan0  0000014A   [8]  00 00 00 79 CB F1 7B 98
(001.713929)  vcan0  00000309   [8]  09 8B 00 00 00 00 00 00
(001.714147)  vcan0  0000014A   [8]  00 00 00 79 BC 63 14 0E
(001.714359)  vcan0  00000170   [8]  27 00 00 00 00 00 00 00
(001.714581)  vcan0  0000017C   [8]  39 F6 00 00 00 00 00 00
(001.719732)  vcan0  00000170   [8]  0B 00 00 00 00 00 00 00
(001.719953)  vcan0  00000309   [8]  09 8D 00 00 00 00 00 00
(001.720165)  vcan0  0000014A   [8]  00 00 00 79 A3 6F AD CA
(001.720384)  vcan0  0000017C   [8]  38 4F 00 00 00 00 00 00
(001.725778)  vcan0  0000017C   [8]  3F FF 00 00 00 00 00 00
(001.725990)  vcan0  00000170   [8]  44 00 00 00 00 00 00 00
(001.726203)  vcan0  00000309   [8]  09 85 00 00 00 00 00 00
(001.726413)  vcan0  0000014A   [8]  00 00 00 79 91 0A 71 50
(001.732173)  vcan0  00000170   [8]  23 00 00 00 00 00 00 00
(001.732399)  vcan0  0000014A   [8]  00 00 00 79 7A A1 FC 98
(001.732611)  vcan0  00000309   [8]  09 88 00 00 00 00 00 00
(001.732833)  vcan0  0000017C   [8]  3D 6B 00 00 00 00 00 00
(001.737629)  vcan0  0000017C   [8]  44 08 00 00 00 00 00 00
(001.737844)  vcan0  0000014A   [8]  00 00 00 79 69 93 21 36
(001.738056)  vcan0  00000309   [8]  09 81 00 00 00 00 00 00
(001.738266)  vcan0  00000170   [8]  CC 00 00 00 00 00 00 00
(001.743678)  vcan0  00000170   [8]  A5 00 00 00 00 00 00 00
(001.743903)  vcan0  0000014A   [8]  00 00 00 79 53 AD 4B A2
(001.744117)  vcan0  00000309   [8]  09 85 00 00 00 00 00 00
(001.744338)  vcan0  0000017C   [8]  40 6E 00 00 00 00 00 00
(001.749693)  vcan0  00000170   [8]  FC 00 00 00 00 00 00 00
(001.749915)  vcan0  00000309   [8]  09 80 00 00 00 00 00 00
(001.750128)  vcan0  0000014A   [8]  00 00 00 79 40 18 67 FC
(001.750348)  vcan0  0000017C   [8]  45 E9 00 00 00 00 00 00
(001.756007)  vcan0  0000017C   [8]  41 40 00 00 00 00 00 00
(001.756235)  vcan0  00000309   [8]  09 84 00 00 00 00 00 00
(001.756453)  vcan0  00000170   [8]  EC 00 00 00 00 00 00 00
(001.756675)  vcan0  0000014A   [8]  00 00 00 79 29 DC 8D 48
(001.761787)  vcan0  00000170   [8]  23 00 00 00 00 00 00 00
(001.762012)  vcan0  0000014A   [8]  00 00 00 79 18 4A A9 FE
(001.762226)  vcan0  00000309   [8]  09 80 00 00 00 00 00 00
(001.762446)  vcan0  0000017C   [8]  45 9C 00 00 00 00 00 00
(001.767766)  vcan0  00000309   [8]  09 86 00 00 00 00 00 00
(001.767992)  vcan0  0000017C   [8]  3F E9 00 00 00 00 00 00
(001.768203)  vcan0  00000170   [8]  2C 00 00 00 00 00 00 00
(001.768415)  vcan0  0000014A   [8]  00 00 00 79 06 B8 B4 12
(001.773769)  vcan0  00000309   [8]  09 82 00 00 00 00 00 00
(001.773987)  vcan0  0000014A   [8]  00 00 00 78 F3 21 E2 D4
(001.774206)  vcan0  0000017C   [8]  43 3C 00 00 00 00 00 00
(001.774415)  vcan0  00000170   [8]  13 00 00 00 00 00 00 00
(001.780601)  vcan0  00000170   [8]  74 00 00 00 00 00 00 00
(001.780837)  vcan0  0000017C   [8]  3C 97 00 00 00 00 00 00
(001.781049)  vcan0  00000309   [8]  09 89 00 00 00 00 00 00
(001.781261)  vcan0  0000014A   [8]  00 00 00 78 DF 39 75 B0
(001.786906)  vcan0  0000014A   [8]  00 00 00 78 CD 94 B0 D6
(001.787141)  vcan0  00000309   [8]  09 87 00 00 00 00 00 00
(001.787377)  vcan0  0000017C   [8]  3F 07 00 00 00 00 00 00
(001.787594)  vcan0  00000170   [8]  E6 00 00 00 00 00 00 00
(001.791928)  vcan0  00000309   [8]  09 8E 00 00 00 00 00 00
(001.792145)  vcan0  0000014A   [8]  00 00 00 78 B9 DC 46 D4
(001.792365)  vcan0  0000017C   [8]  37 9F 00 00 00 00 00 00
(001.792574)  vcan0  00000170   [8]  8F 00 00 00 00 00 00 00
(001.797997)  vcan0  0000014A   [8]  00 00 00 78 AB 4A 21 32
(001.798214)  vcan0  00000309   [8]  09 8C 00 00 00 00 00 00
(001.798423)  vcan0  00000170   [8]  14 00 00 00 00 00 00 00
(001.798644)  vcan0  0000017C   [8]  39 62 00 00 00 00 00 00
(001.803784)  vcan0  0000014A   [8]  00 00 00 78 9B 56 B9 D0
(001.804025)  vcan0  0000017C   [8]  31 72 00 00 00 00 00 00
(001.804248)  vcan0  00000309   [8]  09 94 00 00 00 00 00 00
(001.804459)  vcan0  00000170   [8]  87 00 00 00 00 00 00 00
(001.809891)  vcan0  00000309   [8]  09 93 00 00 00 00 00 00
(001.810107)  vcan0  0000014A   [8]  00 00 00 78 8C 29 B8 1C
(001.810327)  vcan0  0000017C   [8]  32 C5 00 00 00 00 00 00
(001.810535)  vcan0  00000170   [8]  05 00 00 00 00 00 00 00
(001.815742)  vcan0  0000017C   [8]  2A 90 00 00 00 00 00 00
(001.815956)  vcan0  00000309   [8]  09 9B 00 00 00 00 00 00
(001.816168)  vcan0  0000014A   [8]  00 00 00 78 7D 36 E4 94
(001.816376)  vcan0  00000170   [8]  A0 00 00 00 00 00 00 00
(001.821976)  vcan0  00000170   [8]  66 00 00 00 00 00 00 00
(001.822195)  vcan0  0000014A   [8]  00 00 00 78 6F 9E 64 A0
(001.822417)  vcan0  0000017C   [8]  2B B6 00 00 00 00 00 00
(001.822629)  vcan0  00000309   [8]  09 9A 00 00 00 00 00 00
(001.827791)  vcan0  00000170   [8]  E0 00 00 00 00 00 00 00
(001.828028)  vcan0  0000017C   [8]  23 81 00 00 00 00 00 00
(001.828242)  vcan0  00000309   [8]  09 A2 00 00 00 00 00 00
(001.828456)  vcan0  0000014A   [8]  00 00 00 78 5F 99 2F 96
(001.834035)  vcan0  00000170   [8]  C5 00 00 00 00 00 00 00
(001.834257)  vcan0  0000014A   [8]  00 00 00 78 55 82 CA 14
(001.834468)  vcan0  00000309   [8]  09 A0 00 00 00 00 00 00
(001.834687)  vcan0  0000017C   [8]  24 B9 00 00 00 00 00 00
(001.839971)  vcan0  0000017C   [8]  1C C4 00 00 00 00 00 00
(001.840183)  vcan0  00000170   [8]  99 00 00 00 00 00 00 00
(001.840394)  vcan0  00000309   [8]  09 A8 00 00 00 00 00 00
(001.840604)  vcan0  0000014A   [8]  00 00 00 78 46 BC 06 08
(001.845743)  vcan0  00000309   [8]  09 A7 00 00 00 00 00 00
(001.845953)  vcan0  00000170   [8]  9A 00 00 00 00 00 00 00
(001.846164)  vcan0  0000014A   [8]  00 00 00 78 3D 6E F9 BC
(001.846383)  vcan0  0000017C   [8]  1E 49 00 00 00 00 00 00
(001.851711)  vcan0  0000017C   [8]  16 CA 00 00 00 00 00 00
(001.851922)  vcan0  00000170   [8]  54 00 00 00 00 00 00 00
(001.852138)  vcan0  0000014A   [8]  00 00 00 78 2B 69 AD 66
(001.852347)  vcan0  00000309   [8]  09 AE 00 00 00 00 00 00
(001.857714)  vcan0  00000170   [8]  71 00 00 00 00 00 00 00
(001.857935)  vcan0  00000309   [8]  09 AC 00 00 00 00 00 00
(001.858155)  vcan0  0000014A   [8]  00 00 00 78 21 96 66 CA
(001.858373)  vcan0  0000017C   [8]  18 CC 00 00 00 00 00 00
(001.864191)  vcan0  00000170   [8]  CE 00 00 00 00 00 00 00
(001.864416)  vcan0  0000014A   [8]  00 00 00 78 18 6E CF A0
(001.864707)  vcan0  00000309   [8]  09 B3 00 00 00 00 00 00
(001.864933)  vcan0  0000017C   [8]  11 E9 00 00 00 00 00 00
(001.870290)  vcan0  00000170   [8]  4E 00 00 00 00 00 00 00
(001.870517)  vcan0  0000014A   [8]  00 00 00 78 0E 71 C0 C6
(001.870740)  vcan0  0000017C   [8]  14 8A 00 00 00 00 00 00
(001.870951)  vcan0  00000309   [8]  09 B0 00 00 00 00 00 00
(001.875967)  vcan0  0000014A   [8]  00 00 00 78 00 7A 2C B6
(001.876181)  vcan0  00000309   [8]  09 B6 00 00 00 00 00 00
(001.876474)  vcan0  00000170   [8]  57 00 00 00 00 00 00 00
(001.876694)  vcan0  0000017C   [8]  0E 5B 00 00 00 00 00 00
(001.882242)  vcan0  00000309   [8]  09 B3 00 00 00 00 00 00
(001.882474)  vcan0  0000014A   [8]  00 00 00 77 F8 45 DC 40
(001.882703)  vcan0  00000170   [8]  CF 00 00 00 00 00 00 00
(001.882940)  vcan0  0000017C   [8]  11 AD 00 00 00 00 00 00
(001.887864)  vcan0  00000170   [8]  A1 00 00 00 00 00 00 00
(001.888097)  vcan0  0000017C   [8]  0C 3A 00 00 00 00 00 00
(001.888309)  vcan0  00000309   [8]  09 B8 00 00 00 00 00 00
(001.888520)  vcan0  0000014A   [8]  00 00 00 77 EF 4F CB E0
(001.893937)  vcan0  0000017C   [8]  10 45 00 00 00 00 00 00
(001.894153)  vcan0  00000309   [8]  09 B4 00 00 00 00 00 00
(001.894365)  vcan0  00000170   [8]  0B 00 00 00 00 00 00 00
(001.894578)  vcan0  0000014A   [8]  00 00 00 77 E6 3B 8A B0
(001.900272)  vcan0  0000017C   [8]  0B 86 00 00 00 00 00 00
(001.900511)  vcan0  00000170   [8]  9D 00 00 00 00 00 00 00
(001.900738)  vcan0  00000309   [8]  09 B9 00 00 00 00 00 00
(001.900951)  vcan0  0000014A   [8]  00 00 00 77 E0 52 DA 1A
(001.906321)  vcan0  00000170   [8]  8C 00 00 00 00 00 00 00
(001.906556)  vcan0  00000309   [8]  09 B4 00 00 00 00 00 00
(001.906782)  vcan0  0000017C   [8]  10 43 00 00 00 00 00 00
(001.906994)  vcan0  0000014A   [8]  00 00 00 77 D4 99 6C 88
(001.911777)  vcan0  00000170   [8]  D8 00 00 00 00 00 00 00
(001.911987)  vcan0  00000202   [8]  00 59 00 00 00 00 00 00
(001.912207)  vcan0  0000014A   [8]  00 00 00 7B 1D 64 90 52
(001.912418)  vcan0  00000309   [8]  09 B8 00 00 00 00 00 00
(001.912636)  vcan0  0000017C   [8]  0C 28 00 00 00 00 00 00
(001.917898)  vcan0  0000014A   [8]  00 00 00 78 D2 74 63 E2
(001.918110)  vcan0  00000170   [8]  B2 00 00 00 00 00 00 00
(001.918331)  vcan0  0000017C   [8]  11 87 00 00 00 00 00 00
(001.918542)  vcan0  00000309   [8]  09 B3 00 00 00 00 00 00
(001.923918)  vcan0  0000017C   [8]  0D F6 00 00 00 00 00 00
(001.924133)  vcan0  0000014A   [8]  00 00 00 78 C6 38 D1 68
(001.924342)  vcan0  00000170   [8]  1F 00 00 00 00 00 00 00
(001.924552)  vcan0  00000309   [8]  09 B6 00 00 00 00 00 00
(001.929984)  vcan0  00000170   [8]  BD 00 00 00 00 00 00 00
(001.930216)  vcan0  0000017C   [8]  13 DF 00 00 00 00 00 00
(001.930428)  vcan0  00000309   [8]  09 B0 00 00 00 00 00 00
(001.930637)  vcan0  0000014A   [8]  00 00 00 78 BA 6C D9 96
(001.935951)  vcan0  0000017C   [8]  10 BD 00 00 00 00 00 00
(001.936167)  vcan0  0000014A   [8]  00 00 00 78 AF 22 C6 A2
(001.936379)  vcan0  00000309   [8]  09 B4 00 00 00 00 00 00
(001.936588)  vcan0  00000170   [8]  5E 00 00 00 00 00 00 00
(001.941791)  vcan0  00000309   [8]  09 AD 00 00 00 00 00 00
(001.942003)  vcan0  00000170   [8]  2A 00 00 00 00 00 00 00
(001.942216)  vcan0  0000014A   [8]  00 00 00 78 9F C6 72 C0
(001.942434)  vcan0  0000017C   [8]  17 13 00 00 00 00 00 00
(001.947901)  vcan0  00000170   [8]  09 00 00 00 00 00 00 00
(001.948121)  vcan0  0000014A   [8]  00 00 00 78 92 B5 30 B8
(001.948341)  vcan0  0000017C   [8]  14 3F 00 00 00 00 00 00
(001.948551)  vcan0  00000309   [8]  09 B0 00 00 00 00 00 00
(001.954047)  vcan0  0000014A   [8]  00 00 00 78 86 33 36 D4
(001.954274)  vcan0  0000017C   [8]  1A E1 00 00 00 00 00 00
(001.954484)  vcan0  00000170   [8]  7A 00 00 00 00 00 00 00
(001.954695)  vcan0  00000309   [8]  09 AA 00 00 00 00 00 00
(001.960028)  vcan0  00000309   [8]  09 AC 00 00 00 00 00 00
(001.960245)  vcan0  0000014A   [8]  00 00 00 78 78 B8 3C 90
(001.960466)  vcan0  0000017C   [8]  18 39 00 00 00 00 00 00
(001.960675)  vcan0  00000170   [8]  EE 00 00 00 00 00 00 00
(001.965849)  vcan0  0000017C   [8]  1F 01 00 00 00 00 00 00
(001.966064)  vcan0  00000170   [8]  8D 00 00 00 00 00 00 00
(001.966279)  vcan0  0000014A   [8]  00 00 00 78 6E 07 15 C0
(001.966492)  vcan0  00000309   [8]  09 A5 00 00 00 00 00 00
(001.971856)  vcan0  0000014A   [8]  00 00 00 78 5D 30 D2 42
(001.972071)  vcan0  00000309   [8]  09 A8 00 00 00 00 00 00
(001.972281)  vcan0  00000170   [8]  1E 00 00 00 00 00 00 00
(001.972501)  vcan0  0000017C   [8]  1C 65 00 00 00 00 00 00
(001.977700)  vcan0  00000309   [8]  09 A1 00 00 00 00 00 00
(001.977911)  vcan0  00000170   [8]  10 00 00 00 00 00 00 00
(001.978124)  vcan0  0000014A   [8]  00 00 00 78 54 20 FC A0
(001.978344)  vcan0  0000017C   [8]  23 31 00 00 00 00 00 00
(001.984468)  vcan0  0000017C   [8]  20 7F 00 00 00 00 00 00
(001.984688)  vcan0  0000014A   [8]  00 00 00 78 47 42 08 76
(001.984901)  vcan0  00000309   [8]  09 A4 00 00 00 00 00 00
(001.985112)  vcan0  00000170   [8]  7B 00 00 00 00 00 00 00
(001.990000)  vcan0  0000014A   [8]  00 00 00 78 3C CF 66 6E
(001.990215)  vcan0  00000170   [8]  11 00 00 00 00 00 00 00
(001.990430)  vcan0  00000309   [8]  09 9E 00 00 00 00 00 00
(001.990652)  vcan0  0000017C   [8]  27 2D 00 00 00 00 00 00
(001.996014)  vcan0  00000309   [8]  09 A0 00 00 00 00 00 00
(001.996241)  vcan0  0000017C   [8]  24 4B 00 00 00 00 00 00
(001.996452)  vcan0  00000170   [8]  85 00 00 00 00 00 00 00
(001.996769)  vcan0  0000014A   [8]  00 00 00 78 2F 50 3E 4E
(002.002252)  vcan0  0000014A   [8]  00 00 00 78 25 F3 A3 72
(002.002479)  vcan0  0000017C   [8]  2A BC 00 00 00 00 00 00
(002.002697)  vcan0  00000309   [8]  09 9A 00 00 00 00 00 00
(002.002909)  vcan0  00000170   [8]  64 00 00 00 00 00 00 00
(002.008189)  vcan0  00000309   [8]  09 9D 00 00 00 00 00 00
(002.008417)  vcan0  0000017C   [8]  27 92 00 00 00 00 00 00
(002.008630)  vcan0  0000014A   [8]  00 00 00 78 1C 41 33 30
(002.008840)  vcan0  00000170   [8]  FE 00 00 00 00 00 00 00
(002.014026)  vcan0  00000309   [8]  09 97 00 00 00 00 00 00
(002.014243)  vcan0  0000014A   [8]  00 00 00 78 10 2A 56 EC
(002.014455)  vcan0  00000170   [8]  F7 00 00 00 00 00 00 00
(002.014678)  vcan0  0000017C   [8]  2D AF 00 00 00 00 00 00
(002.020222)  vcan0  00000170   [8]  E3 00 00 00 00 00 00 00
(002.020458)  vcan0  0000017C   [8]  2A 29 00 00 00 00 00 00
(002.020671)  vcan0  00000309   [8]  09 9B 00 00 00 00 00 00
(002.020884)  vcan0  0000014A   [8]  00 00 00 78 08 78 97 A0
(002.026103)  vcan0  0000017C   [8]  2F E1 00 00 00 00 00 00
(002.026320)  vcan0  00000309   [8]  09 95 00 00 00 00 00 00
(002.026532)  vcan0  00000170   [8]  7D 00 00 00 00 00 00 00
(002.026745)  vcan0  0000014A   [8]  00 00 00 77 FB AF D2 32
(002.032317)  vcan0  00000309   [8]  09 99 00 00 00 00 00 00
(002.032537)  vcan0  0000014A   [8]  00 00 00 77 F4 E3 8B 3E
(002.032747)  vcan0  00000170   [8]  74 00 00 00 00 00 00 00
(002.032969)  vcan0  0000017C   [8]  2B F3 00 00 00 00 00 00
(002.038522)  vcan0  0000014A   [8]  00 00 00 77 EC C9 98 8A
(002.038752)  vcan0  0000017C   [8]  31 3B 00 00 00 00 00 00
(002.038963)  vcan0  00000170   [8]  B9 00 00 00 00 00 00 00
(002.039175)  vcan0  00000309   [8]  09 94 00 00 00 00 00 00
(002.044297)  vcan0  0000014A   [8]  00 00 00 77 E3 51 E3 52
(002.044528)  vcan0  0000017C   [8]  2C DF 00 00 00 00 00 00
(002.044855)  vcan0  00000170   [8]  FC 00 00 00 00 00 00 00
(002.045068)  vcan0  00000309   [8]  09 98 00 00 00 00 00 00
(002.050188)  vcan0  00000309   [8]  09 93 00 00 00 00 00 00
(002.050407)  vcan0  0000014A   [8]  00 00 00 77 DC DE 0F 24
(002.050617)  vcan0  00000170   [8]  81 00 00 00 00 00 00 00
(002.050952)  vcan0  0000017C   [8]  31 B3 00 00 00 00 00 00
(002.056335)  vcan0  0000017C   [8]  2C EA 00 00 00 00 00 00
(002.056568)  vcan0  0000014A   [8]  00 00 00 77 D2 AB 7A 36
(002.056793)  vcan0  00000309   [8]  09 98 00 00 00 00 00 00
(002.057011)  vcan0  00000170   [8]  9E 00 00 00 00 00 00 00
(002.062112)  vcan0  00000170   [8]  1A 00 00 00 00 00 00 00
(002.062365)  vcan0  0000017C   [8]  31 4E 00 00 00 00 00 00
(002.062592)  vcan0  0000014A   [8]  00 00 00 77 CE 4B 7C 14
(002.062814)  vcan0  00000309   [8]  09 94 00 00 00 00 00 00
(002.068495)  vcan0  0000017C   [8]  2C 1F 00 00 00 00 00 00
(002.068725)  vcan0  0000014A   [8]  00 00 00 77 C5 2F F4 D4
(002.068950)  vcan0  00000309   [8]  09 99 00 00 00 00 00 00
(002.069168)  vcan0  00000170   [8]  CA 00 00 00 00 00 00 00
(002.074210)  vcan0  0000017C   [8]  30 21 00 00 00 00 00 00
(002.074433)  vcan0  0000014A   [8]  00 00 00 77 C0 13 9E 62
(002.074643)  vcan0  00000170   [8]  1E 00 00 00 00 00 00 00
(002.074882)  vcan0  00000309   [8]  09 95 00 00 00 00 00 00
(002.080419)  vcan0  0000014A   [8]  00 00 00 77 B6 6E 0C 18
(002.080639)  vcan0  00000309   [8]  09 9B 00 00 00 00 00 00
(002.081139)  vcan0  0000017C   [8]  2A 9B 00 00 00 00 00 00
(002.081350)  vcan0  00000170   [8]  ED 00 00 00 00 00 00 00
(002.086349)  vcan0  00000309   [8]  09 97 00 00 00 00 00 00
(002.086579)  vcan0  0000014A   [8]  00 00 00 77 B1 A3 2A 8A
(002.086817)  vcan0  0000017C   [8]  2E 4B 00 00 00 00 00 00
(002.087035)  vcan0  00000170   [8]  15 00 00 00 00 00 00 00
(002.092054)  vcan0  00000170   [8]  FE 00 00 00 00 00 00 00
(002.092291)  vcan0  0000017C   [8]  28 83 00 00 00 00 00 00
(002.092505)  vcan0  0000014A   [8]  00 00 00 77 AD 8D E8 1A
(002.092717)  vcan0  00000309   [8]  09 9D 00 00 00 00 00 00
(002.098097)  vcan0  0000014A   [8]  00 00 00 77 A6 B0 27 E2
(002.098323)  vcan0  0000017C   [8]  2B F8 00 00 00 00 00 00
(002.098535)  vcan0  00000309   [8]  09 99 00 00 00 00 00 00
(002.098747)  vcan0  00000170   [8]  73 00 00 00 00 00 00 00
(002.104061)  vcan0  0000017C   [8]  26 06 00 00 00 00 00 00
(002.104276)  vcan0  00000309   [8]  09 9F 00 00 00 00 00 00
(002.104488)  vcan0  00000170   [8]  33 00 00 00 00 00 00 00
(002.104701)  vcan0  0000014A   [8]  00 00 00 77 A2 D7 64 2E
(002.109958)  vcan0  0000014A   [8]  00 00 00 77 9A FF B2 06
(002.110177)  vcan0  00000309   [8]  09 9C 00 00 00 00 00 00
(002.110387)  vcan0  00000170   [8]  3E 00 00 00 00 00 00 00
(002.110607)  vcan0  0000017C   [8]  29 57 00 00 00 00 00 00
(002.116154)  vcan0  00000309   [8]  09 A2 00 00 00 00 00 00
(002.116374)  vcan0  0000014A   [8]  00 00 00 77 97 64 FA 06
(002.116597)  vcan0  0000017C   [8]  23 54 00 00 00 00 00 00
(002.116808)  vcan0  00000170   [8]  83 00 00 00 00 00 00 00
(002.122005)  vcan0  00000170   [8]  02 00 00 00 00 00 00 00
(002.122242)  vcan0  0000017C   [8]  26 9B 00 00 00 00 00 00
(002.122455)  vcan0  00000309   [8]  09 9E 00 00 00 00 00 00
(002.122666)  vcan0  0000014A   [8]  00 00 00 77 93 23 85 C4
(002.127983)  vcan0  00000309   [8]  09 A4 00 00 00 00 00 00
(002.128202)  vcan0  0000014A   [8]  00 00 00 77 8F FA 46 4C
(002.128415)  vcan0  00000170   [8]  6D 00 00 00 00 00 00 00
(002.128640)  vcan0  0000017C   [8]  20 9E 00 00 00 00 00 00
(002.134166)  vcan0  00000309   [8]  09 A1 00 00 00 00 00 00
(002.134399)  vcan0  0000014A   [8]  00 00 00 00 5A 66 15 DE
(002.134618)  vcan0  00000170   [8]  B8 00 00 00 00 00 00 00
(002.134856)  vcan0  0000017C   [8]  23 F3 00 00 00 00 00 00
(002.140078)  vcan0  0000014A   [8]  00 00 00 4B CA 4F 23 7E
(002.140310)  vcan0  00000309   [8]  09 A6 00 00 00 00 00 00
(002.140550)  vcan0  0000017C   [8]  1E 94 00 00 00 00 00 00
(002.140768)  vcan0  00000170   [8]  4B 00 00 00 00 00 00 00
(002.146626)  vcan0  00000170   [8]  4C 00 00 00 00 00 00 00
(002.146862)  vcan0  0000014A   [8]  00 00 00 4C 5D 33 9D AC
(002.147100)  vcan0  0000017C   [8]  21 C6 00 00 00 00 00 00
(002.147324)  vcan0  00000309   [8]  09 A3 00 00 00 00 00 00
(002.152501)  vcan0  00000170   [8]  C8 00 00 00 00 00 00 00
(002.152737)  vcan0  00000309   [8]  09 A8 00 00 00 00 00 00
(002.152981)  vcan0  0000014A   [8]  00 00 00 4D 4D 38 34 70
(002.153208)  vcan0  0000017C   [8]  1C 6A 00 00 00 00 00 00
(002.158159)  vcan0  0000017C   [8]  20 0C 00 00 00 00 00 00
(002.158389)  vcan0  0000014A   [8]  00 00 00 4E 18 93 63 FA
(002.158606)  vcan0  00000170   [8]  D8 00 00 00 00 00 00 00
(002.158821)  vcan0  00000202   [8]  00 EA 00 00 00 00 00 00
(002.159044)  vcan0  00000309   [8]  09 A5 00 00 00 00 00 00
(002.163989)  vcan0  0000017C   [8]  1A C2 00 00 00 00 00 00
(002.164202)  vcan0  00000170   [8]  B0 00 00 00 00 00 00 00
(002.164416)  vcan0  00000309   [8]  09 AA 00 00 00 00 00 00
(002.164627)  vcan0  0000014A   [8]  00 00 00 4F 30 B4 AF 18
(002.169941)  vcan0  00000170   [8]  8D 00 00 00 00 00 00 00
(002.170166)  vcan0  0000014A   [8]  00 00 00 50 20 DC 32 90
(002.170389)  vcan0  0000017C   [8]  1E 9F 00 00 00 00 00 00
(002.170600)  vcan0  00000309   [8]  09 A6 00 00 00 00 00 00
(002.176164)  vcan0  00000170   [8]  FE 00 00 00 00 00 00 00
(002.176388)  vcan0  0000014A   [8]  00 00 00 51 50 96 48 30
(002.176609)  vcan0  0000017C   [8]  19 81 00 00 00 00 00 00
(002.176820)  vcan0  00000309   [8]  09 AB 00 00 00 00 00 00
(002.182366)  vcan0  00000170   [8]  CC 00 00 00 00 00 00 00
(002.182593)  vcan0  000001A3   [8]  00 00 00 00 00 00 00 00
(002.182808)  vcan0  00000309   [8]  09 A7 00 00 00 00 00 00
(002.183023)  vcan0  0000037B   [8]  00 00 00 00 00 00 00 00
(002.183242)  vcan0  0000017C   [8]  1D A3 00 00 00 00 00 00
(002.183451)  vcan0  0000014A   [8]  00 00 00 52 54 5C AE 1A
(002.183666)  vcan0  00000326   [8]  00 00 00 00 00 00 00 00
(002.183879)  vcan0  000001A4   [8]  00 67 00 00 00 00 00 00
(002.184086)  vcan0  0000018F   [8]  00 00 41 00 00 00 00 00
(002.184300)  vcan0  00000374   [8]  00 00 00 00 00 00 00 00
(002.187944)  vcan0  0000014A   [8]  00 00 00 53 8F A9 88 D6
(002.188160)  vcan0  00000309   [8]  09 AC 00 00 00 00 00 00
(002.188370)  vcan0  00000170   [8]  B4 00 00 00 00 00 00 00
(002.188590)  vcan0  0000017C   [8]  18 BC 00 00 00 00 00 00
(002.194031)  vcan0  00000309   [8]  09 A8 00 00 00 00 00 00
(002.194255)  vcan0  0000017C   [8]  1D 21 00 00 00 00 00 00
(002.194465)  vcan0  00000170   [8]  D9 00 00 00 00 00 00 00
(002.194676)  vcan0  0000014A   [8]  00 00 00 54 AA FB 0B 7E
(002.200126)  vcan0  00000170   [8]  DD 00 00 00 00 00 00 00
(002.200351)  vcan0  0000014A   [8]  00 00 00 55 F7 49 1A D2
(002.200570)  vcan0  00000309   [8]  09 AC 00 00 00 00 00 00
(002.200789)  vcan0  0000017C   [8]  18 74 00 00 00 00 00 00
(002.205824)  vcan0  0000017C   [8]  1D 1A 00 00 00 00 00 00
(002.206037)  vcan0  00000170   [8]  79 00 00 00 00 00 00 00
(002.206250)  vcan0  00000309   [8]  09 A8 00 00 00 00 00 00
(002.206460)  vcan0  0000014A   [8]  00 00 00 57 0E 62 47 EC
(002.211797)  vcan0  00000309   [8]  09 AC 00 00 00 00 00 00
(002.212009)  vcan0  00000170   [8]  DD 00 00 00 00 00 00 00
(002.212228)  vcan0  0000017C   [8]  18 A5 00 00 00 00 00 00
(002.212438)  vcan0  0000014A   [8]  00 00 00 58 58 5D 75 60
(002.218307)  vcan0  00000309   [8]  09 A7 00 00 00 00 00 00
(002.218530)  vcan0  00000170   [8]  85 00 00 00 00 00 00 00
(002.218767)  vcan0  0000017C   [8]  1D 86 00 00 00 00 00 00
(002.218990)  vcan0  0000014A   [8]  00 00 00 59 6C 71 0E 0C
(002.224553)  vcan0  00000170   [8]  24 00 00 00 00 00 00 00
(002.224777)  vcan0  00000309   [8]  09 AB 00 00 00 00 00 00
(002.224997)  vcan0  0000017C   [8]  19 42 00 00 00 00 00 00
(002.225207)  vcan0  0000014A   [8]  00 00 00 5A A9 25 32 32
(002.230216)  vcan0  00000309   [8]  09 A6 00 00 00 00 00 00
(002.230438)  vcan0  0000017C   [8]  1E 55 00 00 00 00 00 00
(002.230647)  vcan0  00000170   [8]  4A 00 00 00 00 00 00 00
(002.230857)  vcan0  0000014A   [8]  00 00 00 5B B2 EA 17 FA
(002.236692)  vcan0  0000014A   [8]  00 00 00 5C E1 8A 4E BC
(002.236907)  vcan0  00000309   [8]  09 AA 00 00 00 00 00 00
(002.237116)  vcan0  00000170   [8]  D0 00 00 00 00 00 00 00
(002.237335)  vcan0  0000017C   [8]  1A 3A 00 00 00 00 00 00
(002.241825)  vcan0  00000170   [8]  DD 00 00 00 00 00 00 00
(002.242044)  vcan0  00000309   [8]  09 A5 00 00 00 00 00 00
(002.242264)  vcan0  0000017C   [8]  1F 76 00 00 00 00 00 00
(002.242475)  vcan0  0000014A   [8]  00 00 00 5D DE 2D B6 74
(002.247988)  vcan0  0000017C   [8]  1B 78 00 00 00 00 00 00
(002.248200)  vcan0  00000170   [8]  AD 00 00 00 00 00 00 00
(002.248412)  vcan0  00000309   [8]  09 A9 00 00 00 00 00 00
(002.248624)  vcan0  0000014A   [8]  00 00 00 5E FD 17 C6 F8
(002.254202)  vcan0  0000014A   [8]  00 00 00 5F ED DE 7D 1C
(002.254434)  vcan0  0000017C   [8]  20 D0 00 00 00 00 00 00
(002.254647)  vcan0  00000309   [8]  09 A4 00 00 00 00 00 00
(002.254858)  vcan0  00000170   [8]  B8 00 00 00 00 00 00 00
(002.260024)  vcan0  0000014A   [8]  00 00 00 60 FB 2E D7 FE
(002.260241)  vcan0  00000170   [8]  5E 00 00 00 00 00 00 00
(002.260453)  vcan0  00000309   [8]  09 A8 00 00 00 00 00 00
(002.260672)  vcan0  0000017C   [8]  1C E4 00 00 00 00 00 00
(002.265765)  vcan0  00000170   [8]  0A 00 00 00 00 00 00 00
(002.265997)  vcan0  0000017C   [8]  22 4B 00 00 00 00 00 00
(002.266211)  vcan0  0000014A   [8]  00 00 00 61 DC 9F 28 4E
(002.266423)  vcan0  00000309   [8]  09 A2 00 00 00 00 00 00
(002.271860)  vcan0  0000017C   [8]  1E 64 00 00 00 00 00 00
(002.272073)  vcan0  00000170   [8]  B5 00 00 00 00 00 00 00
(002.272287)  vcan0  0000014A   [8]  00 00 00 62 D6 70 59 DE
(002.272497)  vcan0  00000309   [8]  09 A6 00 00 00 00 00 00
(002.277759)  vcan0  00000309   [8]  09 A1 00 00 00 00 00 00
(002.277977)  vcan0  00000170   [8]  CA 00 00 00 00 00 00 00
(002.278192)  vcan0  0000014A   [8]  00 00 00 63 A8 11 57 30
(002.278412)  vcan0  0000017C   [8]  23 CF 00 00 00 00 00 00
(002.284172)  vcan0  0000017C   [8]  1F E1 00 00 00 00 00 00
(002.284403)  vcan0  00000170   [8]  A1 00 00 00 00 00 00 00
(002.284639)  vcan0  00000309   [8]  09 A5 00 00 00 00 00 00
(002.284855)  vcan0  0000014A   [8]  00 00 00 64 92 D9 42 F6
(002.289893)  vcan0  00000170   [8]  E1 00 00 00 00 00 00 00
(002.290123)  vcan0  0000014A   [8]  00 00 00 65 55 EB 24 4E
(002.290338)  vcan0  00000309   [8]  09 A0 00 00 00 00 00 00
(002.290558)  vcan0  0000017C   [8]  25 42 00 00 00 00 00 00
(002.295972)  vcan0  0000017C   [8]  21 43 00 00 00 00 00 00
(002.296185)  vcan0  00000170   [8]  18 00 00 00 00 00 00 00
(002.296397)  vcan0  00000309   [8]  09 A4 00 00 00 00 00 00
(002.296607)  vcan0  0000014A   [8]  00 00 00 66 2E 86 F6 04
(002.302157)  vcan0  0000014A   [8]  00 00 00 66 E3 BB 8E 6E
(002.302371)  vcan0  00000170   [8]  01 00 00 00 00 00 00 00
(002.302593)  vcan0  0000017C   [8]  26 8F 00 00 00 00 00 00
(002.302805)  vcan0  00000309   [8]  09 9E 00 00 00 00 00 00
(002.307929)  vcan0  00000309   [8]  09 A2 00 00 00 00 00 00
(002.308154)  vcan0  0000017C   [8]  22 76 00 00 00 00 00 00
(002.308367)  vcan0  0000014A   [8]  00 00 00 67 AC 1F 91 94
(002.308577)  vcan0  00000170   [8]  2D 00 00 00 00 00 00 00
(002.314026)  vcan0  0000014A   [8]  00 00 00 68 4F 2F 7B D4
(002.314241)  vcan0  00000309   [8]  09 9D 00 00 00 00 00 00
(002.314451)  vcan0  00000170   [8]  2D 00 00 00 00 00 00 00
(002.314670)  vcan0  0000017C   [8]  27 A4 00 00 00 00 00 00
(002.319965)  vcan0  00000309   [8]  09 A1 00 00 00 00 00 00
(002.320177)  vcan0  00000170   [8]  38 00 00 00 00 00 00 00
(002.320393)  vcan0  0000014A   [8]  00 00 00 69 08 38 83 AE
(002.320613)  vcan0  0000017C   [8]  23 69 00 00 00 00 00 00
(002.326376)  vcan0  00000170   [8]  95 00 00 00 00 00 00 00
(002.326614)  vcan0  0000014A   [8]  00 00 00 69 A3 AC 95 34
(002.326839)  vcan0  00000309   [8]  09 9C 00 00 00 00 00 00
(002.327093)  vcan0  0000017C   [8]  28 73 00 00 00 00 00 00
(002.331984)  vcan0  0000017C   [8]  24 13 00 00 00 00 00 00
(002.332201)  vcan0  00000170   [8]  F9 00 00 00 00 00 00 00
(002.332420)  vcan0  0000014A   [8]  00 00 00 6A 4B 55 2A 6E
(002.332635)  vcan0  00000309   [8]  09 A1 00 00 00 00 00 00
(002.338263)  vcan0  00000170   [8]  D7 00 00 00 00 00 00 00
(002.338492)  vcan0  00000309   [8]  09 9C 00 00 00 00 00 00
(002.338706)  vcan0  0000014A   [8]  00 00 00 6A D8 11 61 2A
(002.338929)  vcan0  0000017C   [8]  28 F5 00 00 00 00 00 00
(002.343913)  vcan0  00000309   [8]  09 A0 00 00 00 00 00 00
(002.344127)  vcan0  00000170   [8]  4E 00 00 00 00 00 00 00
(002.344348)  vcan0  0000017C   [8]  24 6C 00 00 00 00 00 00
(002.344559)  vcan0  0000014A   [8]  00 00 00 6B 73 7F A0 92
(002.349859)  vcan0  00000309   [8]  09 9C 00 00 00 00 00 00
(002.350073)  vcan0  00000170   [8]  0B 00 00 00 00 00 00 00
(002.350297)  vcan0  0000017C   [8]  29 24 00 00 00 00 00 00
(002.350508)  vcan0  0000014A   [8]  00 00 00 6B F6 29 18 9C
(002.355805)  vcan0  0000017C   [8]  24 74 00 00 00 00 00 00
(002.356029)  vcan0  00000309   [8]  09 A0 00 00 00 00 00 00
(002.356241)  vcan0  00000170   [8]  FC 00 00 00 00 00 00 00
(002.356453)  vcan0  0000014A   [8]  00 00 00 6C 80 A7 4F 44
(002.361831)  vcan0  0000014A   [8]  00 00 00 6C F9 FC 02 46
(002.362047)  vcan0  00000309   [8]  09 9C 00 00 00 00 00 00
(002.362257)  vcan0  00000170   [8]  26 00 00 00 00 00 00 00
(002.362476)  vcan0  0000017C   [8]  29 05 00 00 00 00 00 00
(002.367831)  vcan0  00000170   [8]  73 00 00 00 00 00 00 00
(002.368061)  vcan0  0000017C   [8]  24 30 00 00 00 00 00 00
(002.368275)  vcan0  00000309   [8]  09 A1 00 00 00 00 00 00
(002.368485)  vcan0  0000014A   [8]  00 00 00 6D 7C EC 20 9A
(002.373832)  vcan0  00000309   [8]  09 9C 00 00 00 00 00 00
(002.374055)  vcan0  00000170   [8]  F1 00 00 00 00 00 00 00
(002.374281)  vcan0  0000017C   [8]  28 9D 00 00 00 00 00 00
(002.374507)  vcan0  0000014A   [8]  00 00 00 6D E6 90 B7 5E
(002.379975)  vcan0  0000014A   [8]  01 FF FF F6 B0 FC AC 30
(002.380190)  vcan0  00000309   [8]  09 A1 00 00 00 00 00 00
(002.380409)  vcan0  0000017C   [8]  23 AA 00 00 00 00 00 00
(002.380618)  vcan0  00000170   [8]  00 00 00 00 00 00 00 00
(002.386229)  vcan0  00000309   [8]  09 9D 00 00 00 00 00 00
(002.386445)  vcan0  0000014A   [8]  00 00 00 01 68 2E 0E A2
(002.386654)  vcan0  00000170   [8]  2B 00 00 00 00 00 00 00
(002.386873)  vcan0  0000017C   [8]  28 00 00 00 00 00 00 00
(002.392049)  vcan0  00000170   [8]  22 00 00 00 00 00 00 00
(002.392271)  vcan0  0000014A   [8]  00 00 00 02 26 3E 6C 4A
(002.392489)  vcan0  0000017C   [8]  23 72 00 00 00 00 00 00
(002.392700)  vcan0  00000309   [8]  09 A1 00 00 00 00 00 00
(002.398139)  vcan0  00000170   [8]  28 00 00 00 00 00 00 00
(002.398360)  vcan0  0000014A   [8]  00 00 00 03 1E C8 A2 94
(002.398579)  vcan0  0000017C   [8]  27 8D 00 00 00 00 00 00
(002.398790)  vcan0  00000309   [8]  09 9D 00 00 00 00 00 00
(002.403824)  vcan0  00000309   [8]  09 A1 00 00 00 00 00 00
(002.404038)  vcan0  0000014A   [8]  00 00 00 05 3F A4 3C 28
(002.404246)  vcan0  00000170   [8]  A4 00 00 00 00 00 00 00
(002.404456)  vcan0  00000202   [8]  00 EA 00 00 00 00 00 00
(002.404676)  vcan0  0000017C   [8]  24 0B 00 00 00 00 00 00
(002.410485)  vcan0  00000170   [8]  DD 00 00 00 00 00 00 00
(002.410719)  vcan0  0000014A   [8]  00 00 00 07 3C 00 EC 5A
(002.410959)  vcan0  0000017C   [8]  27 D5 00 00 00 00 00 00
(002.411180)  vcan0  00000309   [8]  09 9D 00 00 00 00 00 00
(002.416297)  vcan0  00000170   [8]  45 00 00 00 00 00 00 00
(002.416527)  vcan0  00000309   [8]  09 A1 00 00 00 00 00 00
(002.416749)  vcan0  0000017C   [8]  24 1C 00 00 00 00 00 00
(002.416960)  vcan0  0000014A   [8]  00 00 00 0A 0A E7 93 C6
(002.421947)  vcan0  00000170   [8]  38 00 00 00 00 00 00 00
(002.422168)  vcan0  0000014A   [8]  00 00 00 0C 6F 60 63 A8
(002.422389)  vcan0  0000017C   [8]  28 18 00 00 00 00 00 00
(002.422600)  vcan0  00000309   [8]  09 9D 00 00 00 00 00 00
(002.427918)  vcan0  00000170   [8]  D1 00 00 00 00 00 00 00
(002.428147)  vcan0  00000309   [8]  09 A1 00 00 00 00 00 00
(002.428449)  vcan0  0000014A   [8]  00 00 00 0F 8C E7 D5 A0
(002.428669)  vcan0  0000017C   [8]  23 B8 00 00 00 00 00 00
(002.434154)  vcan0  00000309   [8]  09 9D 00 00 00 00 00 00
(002.434369)  vcan0  00000170   [8]  4D 00 00 00 00 00 00 00
(002.434635)  vcan0  0000014A   [8]  00 00 00 12 2C 59 F7 B0
(002.434854)  vcan0  0000017C   [8]  27 B9 00 00 00 00 00 00
(002.440246)  vcan0  00000170   [8]  C6 00 00 00 00 00 00 00
(002.440476)  vcan0  0000017C   [8]  22 EE 00 00 00 00 00 00
(002.440688)  vcan0  0000014A   [8]  00 00 00 15 8F D3 40 DC
(002.440897)  vcan0  00000309   [8]  09 A2 00 00 00 00 00 00
(002.445883)  vcan0  0000014A   [8]  00 00 00 18 74 50 B9 88
(002.446099)  vcan0  00000309   [8]  09 9E 00 00 00 00 00 00
(002.446320)  vcan0  0000017C   [8]  26 E9 00 00 00 00 00 00
(002.446530)  vcan0  00000170   [8]  92 00 00 00 00 00 00 00
(002.451786)  vcan0  0000014A   [8]  00 00 00 1B E4 CA 53 1C
(002.452004)  vcan0  00000309   [8]  09 A3 00 00 00 00 00 00
(002.452217)  vcan0  00000170   [8]  B4 00 00 00 00 00 00 00
(002.452437)  vcan0  0000017C   [8]  21 DD 00 00 00 00 00 00
(002.457819)  vcan0  00000170   [8]  01 00 00 00 00 00 00 00
(002.458041)  vcan0  0000014A   [8]  00 00 00 1E D1 9D B0 58
(002.458253)  vcan0  00000309   [8]  09 9F 00 00 00 00 00 00
(002.458472)  vcan0  0000017C   [8]  25 D3 00 00 00 00 00 00
(002.463830)  vcan0  00000309   [8]  09 A4 00 00 00 00 00 00
(002.464046)  vcan0  0000014A   [8]  00 00 00 22 36 78 E0 96
(002.464265)  vcan0  0000017C   [8]  20 A7 00 00 00 00 00 00
(002.464474)  vcan0  00000170   [8]  A4 00 00 00 00 00 00 00
(002.470452)  vcan0  00000170   [8]  18 00 00 00 00 00 00 00
(002.470691)  vcan0  00000309   [8]  09 A0 00 00 00 00 00 00
(002.470907)  vcan0  0000014A   [8]  00 00 00 25 16 E0 F0 66
(002.471126)  vcan0  0000017C   [8]  24 9C 00 00 00 00 00 00
(002.476088)  vcan0  00000309   [8]  09 A5 00 00 00 00 00 00
(002.476301)  vcan0  00000170   [8]  02 00 00 00 00 00 00 00
(002.476521)  vcan0  0000017C   [8]  1F 67 00 00 00 00 00 00
(002.476731)  vcan0  0000014A   [8]  00 00 00 28 67 0B 3A F8
(002.482383)  vcan0  00000170   [8]  5F 00 00 00 00 00 00 00
(002.482611)  vcan0  0000014A   [8]  00 00 00 2B 33 30 68 4E
(002.482833)  vcan0  0000017C   [8]  23 66 00 00 00 00 00 00
(002.483044)  vcan0  00000309   [8]  09 A1 00 00 00 00 00 00
(002.488114)  vcan0  0000014A   [8]  00 00 00 2E 5F 49 82 2E
(002.488338)  vcan0  0000017C   [8]  1E 3A 00 00 00 00 00 00
(002.488552)  vcan0  00000170   [8]  19 00 00 00 00 00 00 00
(002.488764)  vcan0  00000309   [8]  09 A7 00 00 00 00 00 00
(002.494469)  vcan0  00000170   [8]  4D 00 00 00 00 00 00 00
(002.494693)  vcan0  00000309   [8]  09 A3 00 00 00 00 00 00
(002.494903)  vcan0  0000014A   [8]  00 00 00 31 0D 56 51 D4
(002.495122)  vcan0  0000017C   [8]  22 4C 00 00 00 00 00 00
(002.499863)  vcan0  00000170   [8]  B1 00 00 00 00 00 00 00
(002.500085)  vcan0  00000309   [8]  09 A8 00 00 00 00 00 00
(002.500308)  vcan0  0000014A   [8]  00 00 00 34 13 DA 46 C4
(002.500527)  vcan0  0000017C   [8]  1D 34 00 00 00 00 00 00
(002.506224)  vcan0  0000017C   [8]  21 62 00 00 00 00 00 00
(002.506434)  vcan0  00000170   [8]  D5 00 00 00 00 00 00 00
(002.506644)  vcan0  0000014A   [8]  00 00 00 36 A1 72 86 AA
(002.506853)  vcan0  00000309   [8]  09 A3 00 00 00 00 00 00
(002.511836)  vcan0  0000017C   [8]  1C 68 00 00 00 00 00 00
(002.512046)  vcan0  00000170   [8]  3F 00 00 00 00 00 00 00
(002.512257)  vcan0  0000014A   [8]  00 00 00 39 75 78 04 3A
(002.512467)  vcan0  00000309   [8]  09 A8 00 00 00 00 00 00
(002.518034)  vcan0  0000017C   [8]  20 B7 00 00 00 00 00 00
(002.518247)  vcan0  0000014A   [8]  00 00 00 3B E0 26 30 52
(002.518455)  vcan0  00000170   [8]  44 00 00 00 00 00 00 00
(002.518664)  vcan0  00000309   [8]  09 A4 00 00 00 00 00 00
(002.524202)  vcan0  0000014A   [8]  00 00 00 3E 8A 55 2D B8
(002.524431)  vcan0  00000309   [8]  09 A9 00 00 00 00 00 00
(002.524658)  vcan0  00000170   [8]  B5 00 00 00 00 00 00 00
(002.524922)  vcan0  0000017C   [8]  1B DF 00 00 00 00 00 00
(002.530148)  vcan0  00000309   [8]  09 A4 00 00 00 00 00 00
(002.530451)  vcan0  0000017C   [8]  20 53 00 00 00 00 00 00
(002.530660)  vcan0  00000170   [8]  D4 00 00 00 00 00 00 00
(002.530871)  vcan0  0000014A   [8]  00 00 00 40 C8 C1 3A CA
(002.536097)  vcan0  0000017C   [8]  1B 9F 00 00 00 00 00 00
(002.536311)  vcan0  00000170   [8]  8B 00 00 00 00 00 00 00
(002.536525)  vcan0  0000014A   [8]  00 00 00 43 48 FA DE 68
(002.536736)  vcan0  00000309   [8]  09 A9 00 00 00 00 00 00
(002.541991)  vcan0  00000309   [8]  09 A5 00 00 00 00 00 00
(002.542213)  vcan0  0000014A   [8]  00 00 00 45 61 27 CF 26
(002.542423)  vcan0  00000170   [8]  BB 00 00 00 00 00 00 00
(002.542643)  vcan0  0000017C   [8]  20 37 00 00 00 00 00 00
(002.547865)  vcan0  0000014A   [8]  00 00 00 47 B0 D0 95 3E
(002.548077)  vcan0  00000170   [8]  7D 00 00 00 00 00 00 00
(002.548296)  vcan0  0000017C   [8]  1B A6 00 00 00 00 00 00
(002.548507)  vcan0  00000309   [8]  09 A9 00 00 00 00 00 00
(002.553888)  vcan0  0000014A   [8]  00 00 00 49 A2 AD 88 52
(002.554102)  vcan0  00000309   [8]  09 A4 00 00 00 00 00 00
(002.554310)  vcan0  00000170   [8]  25 00 00 00 00 00 00 00
(002.554528)  vcan0  0000017C   [8]  20 61 00 00 00 00 00 00
(002.560115)  vcan0  0000014A   [8]  00 00 00 4B C6 C2 39 DC
(002.560331)  vcan0  00000309   [8]  09 A9 00 00 00 00 00 00
(002.560550)  vcan0  00000170   [8]  F2 00 00 00 00 00 00 00
(002.560770)  vcan0  0000017C   [8]  1B EE 00 00 00 00 00 00
(002.566244)  vcan0  00000309   [8]  09 A4 00 00 00 00 00 00
(002.566471)  vcan0  0000017C   [8]  20 C9 00 00 00 00 00 00
(002.566680)  vcan0  00000170   [8]  41 00 00 00 00 00 00 00
(002.566891)  vcan0  0000014A   [8]  00 00 00 4D 8F EB 21 92
(002.571947)  vcan0  0000014A   [8]  00 00 00 4F 8D C1 4B CC
(002.572163)  vcan0  00000309   [8]  09 A8 00 00 00 00 00 00
(002.572382)  vcan0  0000017C   [8]  1C 6F 00 00 00 00 00 00
(002.572608)  vcan0  00000170   [8]  4A 00 00 00 00 00 00 00
(002.577928)  vcan0  0000014A   [8]  00 00 00 51 33 DF 3C 8A
(002.578154)  vcan0  0000017C   [8]  21 63 00 00 00 00 00 00
(002.578367)  vcan0  00000309   [8]  09 A3 00 00 00 00 00 00
(002.578575)  vcan0  00000170   [8]  4A 00 00 00 00 00 00 00
(002.584021)  vcan0  0000017C   [8]  1D 1C 00 00 00 00 00 00
(002.584237)  vcan0  00000309   [8]  09 A8 00 00 00 00 00 00
(002.584448)  vcan0  0000014A   [8]  00 00 00 53 06 66 E1 1A
(002.584656)  vcan0  00000170   [8]  20 00 00 00 00 00 00 00
(002.590094)  vcan0  0000017C   [8]  22 22 00 00 00 00 00 00
(002.590325)  vcan0  0000014A   [8]  00 00 00 54 8B 56 B8 A6
(002.590549)  vcan0  00000309   [8]  09 A3 00 00 00 00 00 00
(002.590766)  vcan0  00000170   [8]  AC 00 00 00 00 00 00 00
(002.595928)  vcan0  0000014A   [8]  00 00 00 56 38 BD A2 98
(002.596144)  vcan0  00000309   [8]  09 A7 00 00 00 00 00 00
