(000.000000)  vcan0  1FFFFFFF   [8]  00 00 00 00 00 00 00 00
(000.002732)  vcan0  00000202   [8]  00 06 00 00 00 00 00 00
(000.002980)  vcan0  0000037B   [8]  00 00 00 00 00 00 00 00
(000.003188)  vcan0  00000170   [8]  F1 00 00 00 00 00 00 00
(000.003396)  vcan0  0000018F   [8]  00 00 D7 00 00 00 00 00
(000.003610)  vcan0  000001A3   [8]  00 00 00 00 00 00 00 00
(000.003824)  vcan0  00000309   [8]  00 6A 00 00 00 00 00 00
(000.004039)  vcan0  00000374   [8]  00 00 00 00 00 00 00 00
(000.004252)  vcan0  00000326   [8]  00 00 00 00 00 00 00 00
(000.004471)  vcan0  0000017C   [8]  4B 00 00 00 00 00 00 00
(000.004682)  vcan0  0000014A   [8]  00 00 00 EE 6B 28 1D CE
(000.004896)  vcan0  000001A4   [8]  00 67 00 00 00 00 00 00
(000.008633)  vcan0  00000309   [8]  00 87 00 00 00 00 00 00
(000.008867)  vcan0  0000014A   [8]  00 00 01 65 A0 BC 3B 9A
(000.009086)  vcan0  00000170   [8]  F2 00 00 00 00 00 00 00
(000.009329)  vcan0  0000017C   [8]  4B 00 00 00 00 00 00 00
(000.013849)  vcan0  00000170   [8]  E0 00 00 00 00 00 00 00
(000.014075)  vcan0  0000014A   [8]  00 00 01 DC D6 50 EE 6C
(000.014296)  vcan0  0000017C   [8]  4B 00 00 00 00 00 00 00
(000.014505)  vcan0  00000309   [8]  00 A3 00 00 00 00 00 00
(000.019813)  vcan0  00000170   [8]  85 00 00 00 00 00 00 00
(000.020036)  vcan0  0000014A   [8]  00 00 02 54 0B E4 77 36
(000.020247)  vcan0  00000309   [8]  00 BF 00 00 00 00 00 00
(000.020466)  vcan0  0000017C   [8]  4B 00 00 00 00 00 00 00
(000.025496)  vcan0  0000014A   [8]  00 00 02 CB 41 78 00 00
(000.025718)  vcan0  0000017C   [8]  4B 00 00 00 00 00 00 00
(000.025928)  vcan0  00000309   [8]  00 DB 00 00 00 00 00 00
(000.026137)  vcan0  00000170   [8]  51 00 00 00 00 00 00 00
(000.031919)  vcan0  00000170   [8]  D0 00 00 00 00 00 00 00
(000.032139)  vcan0  00000309   [8]  00 F7 00 00 00 00 00 00
(000.032357)  vcan0  0000017C   [8]  4B 00 00 00 00 00 00 00
(000.032565)  vcan0  0000014A   [8]  00 00 03 42 77 0D DC D6
(000.037650)  vcan0  00000170   [8]  2A 00 00 00 00 00 00 00
(000.037903)  vcan0  0000017C   [8]  4B 00 00 00 00 00 00 00
(000.038126)  vcan0  00000309   [8]  01 14 00 00 00 00 00 00
(000.038347)  vcan0  0000014A   [8]  00 00 03 48 BA 62 59 04
(000.043777)  vcan0  0000017C   [8]  4B 00 00 00 00 00 00 00
(000.044012)  vcan0  00000170   [8]  0F 00 00 00 00 00 00 00
(000.044235)  vcan0  0000014A   [8]  00 00 03 49 A5 16 9F A6
(000.044447)  vcan0  00000309   [8]  01 30 00 00 00 00 00 00
(000.049539)  vcan0  00000309   [8]  01 4C 00 00 00 00 00 00
(000.049752)  vcan0  00000170   [8]  BD 00 00 00 00 00 00 00
(000.049977)  vcan0  0000017C   [8]  4B 00 00 00 00 00 00 00
(000.050187)  vcan0  0000014A   [8]  00 00 03 4A 8F CA E6 48
(000.055172)  vcan0  0000017C   [8]  4B 00 00 00 00 00 00 00
(000.055390)  vcan0  00000309   [8]  01 68 00 00 00 00 00 00
(000.055601)  vcan0  0000014A   [8]  00 00 03 4B 7A 7F 2C EA
(000.055810)  vcan0  00000170   [8]  EF 00 00 00 00 00 00 00
(000.061421)  vcan0  00000170   [8]  1F 00 00 00 00 00 00 00
(000.061645)  vcan0  0000014A   [8]  00 00 03 4B 7A 7F 2C EA
(000.061861)  vcan0  00000309   [8]  01 85 00 00 00 00 00 00
(000.062081)  vcan0  0000017C   [8]  4B 00 00 00 00 00 00 00
(000.067378)  vcan0  0000014A   [8]  00 00 03 4B 7A 7F 2C EA
(000.067593)  vcan0  00000309   [8]  01 A1 00 00 00 00 00 00
(000.067812)  vcan0  0000017C   [8]  4B 00 00 00 00 00 00 00
(000.068021)  vcan0  00000170   [8]  B1 00 00 00 00 00 00 00
(000.073390)  vcan0  00000309   [8]  01 BD 00 00 00 00 00 00
(000.073620)  vcan0  0000017C   [8]  4B 00 00 00 00 00 00 00
(000.073832)  vcan0  0000014A   [8]  00 00 03 4B 7A 7F 2C EA
(000.074042)  vcan0  00000170   [8]  5E 00 00 00 00 00 00 00
(000.079279)  vcan0  00000170   [8]  DA 00 00 00 00 00 00 00
(000.079515)  vcan0  0000014A   [8]  00 00 03 4B 7A 7F 2C EA
(000.079730)  vcan0  00000309   [8]  01 D9 00 00 00 00 00 00
(000.079950)  vcan0  0000017C   [8]  4B 00 00 00 00 00 00 00
(000.085442)  vcan0  0000014A   [8]  00 00 03 4B 7A 7F 2C EA
(000.085658)  vcan0  00000309   [8]  01 F5 00 00 00 00 00 00
(000.085877)  vcan0  0000017C   [8]  4B 00 00 00 00 00 00 00
(000.086086)  vcan0  00000170   [8]  AF 00 00 00 00 00 00 00
(000.091127)  vcan0  00000170   [8]  93 00 00 00 00 00 00 00
(000.091358)  vcan0  0000017C   [8]  4B 00 00 00 00 00 00 00
(000.091572)  vcan0  00000309   [8]  02 12 00 00 00 00 00 00
(000.091783)  vcan0  0000014A   [8]  00 00 03 4B 7A 7F 2C EA
(000.097383)  vcan0  00000170   [8]  B1 00 00 00 00 00 00 00
(000.097605)  vcan0  00000309   [8]  02 2E 00 00 00 00 00 00
(000.097816)  vcan0  0000014A   [8]  00 00 03 4B 7A 7F 2C EA
(000.098036)  vcan0  0000017C   [8]  4B 00 00 00 00 00 00 00
(000.103407)  vcan0  0000017C   [8]  4B 00 00 00 00 00 00 00
(000.103637)  vcan0  00000309   [8]  02 4A 00 00 00 00 00 00
(000.103861)  vcan0  0000014A   [8]  00 00 03 4B 7A 7F 2C EA
(000.104088)  vcan0  00000170   [8]  C0 00 00 00 00 00 00 00
(000.109337)  vcan0  00000170   [8]  74 00 00 00 00 00 00 00
(000.109576)  vcan0  0000017C   [8]  4B 00 00 00 00 00 00 00
(000.109789)  vcan0  0000014A   [8]  00 00 03 4B 7A 7F 2C EA
(000.109999)  vcan0  00000309   [8]  02 66 00 00 00 00 00 00
(000.115562)  vcan0  00000309   [8]  02 83 00 00 00 00 00 00
(000.115777)  vcan0  00000170   [8]  FA 00 00 00 00 00 00 00
(000.115991)  vcan0  0000014A   [8]  00 00 03 4B 7A 7F 2C EA
(000.116212)  vcan0  0000017C   [8]  4B 00 00 00 00 00 00 00
(000.121491)  vcan0  0000014A   [8]  00 00 03 4B 7A 7F 2C EA
(000.121720)  vcan0  00000309   [8]  02 9F 00 00 00 00 00 00
(000.121937)  vcan0  00000170   [8]  8A 00 00 00 00 00 00 00
(000.122173)  vcan0  0000017C   [8]  4B 00 00 00 00 00 00 00
(000.127725)  vcan0  00000170   [8]  90 00 00 00 00 00 00 00
(000.127958)  vcan0  0000014A   [8]  00 00 03 4B 7A 7F 2C EA
(000.128195)  vcan0  00000309   [8]  02 BB 00 00 00 00 00 00
(000.128418)  vcan0  0000017C   [8]  4B 00 00 00 00 00 00 00
(000.133359)  vcan0  00000309   [8]  02 D7 00 00 00 00 00 00
(000.133573)  vcan0  00000170   [8]  2A 00 00 00 00 00 00 00
(000.133797)  vcan0  0000017C   [8]  4B 00 00 00 00 00 00 00
(000.134010)  vcan0  0000014A   [8]  00 00 03 4B 7A 7F 2C EA
(000.139403)  vcan0  0000014A   [8]  00 00 03 4B 7A 7F 2C EA
(000.139618)  vcan0  00000309   [8]  02 F3 00 00 00 00 00 00
(000.139828)  vcan0  00000170   [8]  4A 00 00 00 00 00 00 00
(000.140047)  vcan0  0000017C   [8]  4B 00 00 00 00 00 00 00
(000.145320)  vcan0  00000309   [8]  03 10 00 00 00 00 00 00
(000.145532)  vcan0  0000014A   [8]  00 00 03 4B 7A 7F 2C EA
(000.145741)  vcan0  00000170   [8]  3D 00 00 00 00 00 00 00
(000.145959)  vcan0  0000017C   [8]  4B 00 00 00 00 00 00 00
(000.151294)  vcan0  0000014A   [8]  00 00 03 4B 7A 7F 2C EA
(000.151509)  vcan0  00000309   [8]  03 2C 00 00 00 00 00 00
(000.151727)  vcan0  0000017C   [8]  4B 00 00 00 00 00 00 00
(000.151935)  vcan0  00000170   [8]  61 00 00 00 00 00 00 00
(000.157634)  vcan0  0000017C   [8]  4B 00 00 00 00 00 00 00
(000.157847)  vcan0  0000014A   [8]  00 00 03 4B 7A 7F 2C EA
(000.158056)  vcan0  00000170   [8]  F0 00 00 00 00 00 00 00
(000.158266)  vcan0  00000309   [8]  03 48 00 00 00 00 00 00
(000.163180)  vcan0  00000170   [8]  04 00 00 00 00 00 00 00
(000.163411)  vcan0  0000017C   [8]  4B 00 00 00 00 00 00 00
(000.163622)  vcan0  0000014A   [8]  00 00 03 4B 7A 7F 2C EA
(000.163832)  vcan0  00000309   [8]  03 64 00 00 00 00 00 00
(000.169069)  vcan0  00000309   [8]  03 81 00 00 00 00 00 00
(000.169279)  vcan0  00000170   [8]  9F 00 00 00 00 00 00 00
(000.169491)  vcan0  0000014A   [8]  00 00 03 4B 7A 7F 2C EA
(000.169709)  vcan0  0000017C   [8]  4B 00 00 00 00 00 00 00
(000.175444)  vcan0  0000017C   [8]  4B 00 00 00 00 00 00 00
(000.175656)  vcan0  00000170   [8]  4A 00 00 00 00 00 00 00
(000.175868)  vcan0  0000014A   [8]  00 00 03 4B 7A 7F 2C EA
(000.176078)  vcan0  00000309   [8]  03 9D 00 00 00 00 00 00
(000.181314)  vcan0  00000170   [8]  48 00 00 00 00 00 00 00
(000.181531)  vcan0  00000309   [8]  03 B9 00 00 00 00 00 00
(000.181742)  vcan0  0000014A   [8]  00 00 03 4B 7A 7F 2C EA
(000.181959)  vcan0  0000017C   [8]  4B 00 00 00 00 00 00 00
(000.187068)  vcan0  00000170   [8]  9F 00 00 00 00 00 00 00
(000.187286)  vcan0  0000014A   [8]  00 00 03 4B 7A 7F 2C EA
(000.187497)  vcan0  00000309   [8]  03 D5 00 00 00 00 00 00
(000.187714)  vcan0  0000017C   [8]  4B 00 00 00 00 00 00 00
(000.193119)  vcan0  0000017C   [8]  4B 00 00 00 00 00 00 00
(000.193331)  vcan0  00000309   [8]  03 F2 00 00 00 00 00 00
(000.193539)  vcan0  00000170   [8]  E7 00 00 00 00 00 00 00
(000.193748)  vcan0  0000014A   [8]  00 00 03 4B 7A 7F 2C EA
(000.199140)  vcan0  00000309   [8]  04 0E 00 00 00 00 00 00
(000.199389)  vcan0  0000017C   [8]  4B 00 00 00 00 00 00 00
(000.199605)  vcan0  0000014A   [8]  00 00 03 4B 7A 7F 2C EA
(000.199814)  vcan0  00000170   [8]  E3 00 00 00 00 00 00 00
(000.205689)  vcan0  0000017C   [8]  4B 00 00 00 00 00 00 00
(000.205903)  vcan0  00000309   [8]  04 2A 00 00 00 00 00 00
(000.206114)  vcan0  0000014A   [8]  00 00 03 4B 7A 7F 2C EA
(000.206322)  vcan0  00000170   [8]  CA 00 00 00 00 00 00 00
(000.212305)  vcan0  0000017C   [8]  4B 00 00 00 00 00 00 00
(000.212528)  vcan0  00000170   [8]  17 00 00 00 00 00 00 00
(000.212767)  vcan0  00000309   [8]  04 12 00 00 00 00 00 00
(000.212989)  vcan0  0000014A   [8]  00 00 03 4B 7A 7F 2C EA
(000.217606)  vcan0  0000014A   [8]  00 00 03 4B 7A 7F 2C EA
(000.217831)  vcan0  0000017C   [8]  4B 00 00 00 00 00 00 00
(000.218042)  vcan0  00000309   [8]  03 8C 00 00 00 00 00 00
(000.218250)  vcan0  00000170   [8]  C3 00 00 00 00 00 00 00
(000.223501)  vcan0  0000014A   [8]  00 00 03 4B 7A 7F 2C EA
(000.223715)  vcan0  00000309   [8]  03 18 00 00 00 00 00 00
(000.223924)  vcan0  00000170   [8]  64 00 00 00 00 00 00 00
(000.224142)  vcan0  0000017C   [8]  4B 00 00 00 00 00 00 00
(000.229448)  vcan0  00000309   [8]  02 AF 00 00 00 00 00 00
(000.229663)  vcan0  0000014A   [8]  00 00 03 4B 7A 7F 2C EA
(000.229883)  vcan0  0000017C   [8]  4B 00 00 00 00 00 00 00
(000.230091)  vcan0  00000170   [8]  DA 00 00 00 00 00 00 00
(000.235311)  vcan0  0000014A   [8]  00 00 03 4B 7A 7F 2C EA
(000.235522)  vcan0  00000170   [8]  0E 00 00 00 00 00 00 00
(000.235735)  vcan0  00000309   [8]  02 51 00 00 00 00 00 00
(000.235953)  vcan0  0000017C   [8]  4B 00 00 00 00 00 00 00
(000.241260)  vcan0  00000309   [8]  01 FE 00 00 00 00 00 00
(000.241475)  vcan0  0000014A   [8]  00 00 03 4B 7A 7F 2C EA
(000.241684)  vcan0  00000170   [8]  0E 00 00 00 00 00 00 00
(000.241903)  vcan0  0000017C   [8]  4B 00 00 00 00 00 00 00
(000.247354)  vcan0  00000202   [8]  00 F3 00 00 00 00 00 00
(000.247578)  vcan0  0000014A   [8]  00 00 03 4B 7A 7F 2C EA
(000.247789)  vcan0  00000309   [8]  01 B3 00 00 00 00 00 00
(000.248008)  vcan0  0000017C   [8]  4B 00 00 00 00 00 00 00
(000.248214)  vcan0  00000170   [8]  2C 00 00 00 00 00 00 00
(000.253442)  vcan0  00000309   [8]  01 70 00 00 00 00 00 00
(000.253658)  vcan0  0000014A   [8]  00 00 03 4B 7A 7F 2C EA
(000.253877)  vcan0  0000017C   [8]  4B 00 00 00 00 00 00 00
(000.254086)  vcan0  00000170   [8]  A0 00 00 00 00 00 00 00
(000.259740)  vcan0  00000309   [8]  01 35 00 00 00 00 00 00
(000.259973)  vcan0  0000014A   [8]  00 00 03 4B 7A 7F 2C EA
(000.260189)  vcan0  00000170   [8]  60 00 00 00 00 00 00 00
(000.260425)  vcan0  0000017C   [8]  4B 00 00 00 00 00 00 00
(000.265676)  vcan0  00000309   [8]  01 00 00 00 00 00 00 00
(000.265891)  vcan0  00000170   [8]  0D 00 00 00 00 00 00 00
(000.266105)  vcan0  0000014A   [8]  00 00 03 4B 7A 7F 2C EA
(000.266323)  vcan0  0000017C   [8]  4B 00 00 00 00 00 00 00
(000.271608)  vcan0  0000017C   [8]  4B 00 00 00 00 00 00 00
(000.271823)  vcan0  00000309   [8]  00 D2 00 00 00 00 00 00
(000.272032)  vcan0  00000170   [8]  F7 00 00 00 00 00 00 00
(000.272242)  vcan0  0000014A   [8]  00 00 03 4B 7A 7F 2C EA
(000.277656)  vcan0  00000309   [8]  00 A8 00 00 00 00 00 00
(000.277868)  vcan0  00000170   [8]  C4 00 00 00 00 00 00 00
(000.278086)  vcan0  0000017C   [8]  4B 00 00 00 00 00 00 00
(000.278296)  vcan0  0000014A   [8]  00 00 03 4B 7A 7F 2C EA
(000.283335)  vcan0  00000170   [8]  FB 00 00 00 00 00 00 00
(000.283557)  vcan0  0000014A   [8]  00 00 03 4B 7A 7F 2C EA
(000.283769)  vcan0  00000309   [8]  00 84 00 00 00 00 00 00
(000.283987)  vcan0  0000017C   [8]  4B 00 00 00 00 00 00 00
(000.289399)  vcan0  0000017C   [8]  4B 00 00 00 00 00 00 00
(000.289613)  vcan0  0000014A   [8]  00 00 03 4B 7A 7F 2C EA
(000.289823)  vcan0  00000309   [8]  00 64 00 00 00 00 00 00
(000.290031)  vcan0  00000170   [8]  13 00 00 00 00 00 00 00
(000.295458)  vcan0  0000014A   [8]  00 00 03 4B 7A 7F 2C EA
(000.295669)  vcan0  00000170   [8]  32 00 00 00 00 00 00 00
(000.295881)  vcan0  00000309   [8]  00 48 00 00 00 00 00 00
(000.296099)  vcan0  0000017C   [8]  4B 00 00 00 00 00 00 00
(000.301836)  vcan0  0000014A   [8]  00 00 03 4B 7A 7F 2C EA
(000.302060)  vcan0  0000017C   [8]  4B 00 00 00 00 00 00 00
(000.302270)  vcan0  00000170   [8]  DE 00 00 00 00 00 00 00
(000.302480)  vcan0  00000309   [8]  00 2F 00 00 00 00 00 00
(000.307346)  vcan0  00000170   [8]  A5 00 00 00 00 00 00 00
(000.307569)  vcan0  00000309   [8]  00 1A 00 00 00 00 00 00
(000.307781)  vcan0  0000014A   [8]  00 00 03 4B 7A 7F 2C EA
(000.307999)  vcan0  0000017C   [8]  4B 00 00 00 00 00 00 00
(000.313434)  vcan0  00000309   [8]  00 07 00 00 00 00 00 00
(000.313650)  vcan0  0000014A   [8]  00 00 03 4B 7A 7F 2C EA
(000.313874)  vcan0  0000017C   [8]  4B 00 00 00 00 00 00 00
(000.314083)  vcan0  00000170   [8]  39 00 00 00 00 00 00 00
(000.319411)  vcan0  00000309   [8]  00 09 00 00 00 00 00 00
(000.319633)  vcan0  00000170   [8]  C5 00 00 00 00 00 00 00
(000.319871)  vcan0  0000017C   [8]  4B 00 00 00 00 00 00 00
(000.320094)  vcan0  0000014A   [8]  00 00 03 4B 7A 7F 2C EA
(000.325378)  vcan0  00000309   [8]  00 17 00 00 00 00 00 00
(000.325658)  vcan0  0000014A   [8]  00 00 03 4B 7A 7F 2C EA
(000.325899)  vcan0  0000017C   [8]  4B 00 00 00 00 00 00 00
(000.326110)  vcan0  00000170   [8]  DE 00 00 00 00 00 00 00
(000.331313)  vcan0  0000014A   [8]  00 00 03 4B 7A 7F 2C EA
(000.331526)  vcan0  00000170   [8]  1B 00 00 00 00 00 00 00
(000.331748)  vcan0  0000017C   [8]  4B 00 00 00 00 00 00 00
(000.331958)  vcan0  00000309   [8]  00 22 00 00 00 00 00 00
(000.337335)  vcan0  00000170   [8]  4F 00 00 00 00 00 00 00
(000.337930)  vcan0  0000017C   [8]  4B 00 00 00 00 00 00 00
(000.338145)  vcan0  0000014A   [8]  00 00 03 4B 7A 7F 2C EA
(000.338355)  vcan0  00000309   [8]  00 2C 00 00 00 00 00 00
(000.343626)  vcan0  00000170   [8]  01 00 00 00 00 00 00 00
(000.343852)  vcan0  0000014A   [8]  00 00 03 4B 7A 7F 2C EA
(000.344065)  vcan0  00000309   [8]  00 35 00 00 00 00 00 00
(000.344284)  vcan0  0000017C   [8]  4B 00 00 00 00 00 00 00
(000.349402)  vcan0  0000014A   [8]  00 00 03 4B 7A 7F 2C EA
(000.349695)  vcan0  0000017C   [8]  4B 00 00 00 00 00 00 00
(000.349905)  vcan0  00000170   [8]  60 00 00 00 00 00 00 00
(000.350117)  vcan0  00000309   [8]  00 3B 00 00 00 00 00 00
(000.355338)  vcan0  0000017C   [8]  4B 00 00 00 00 00 00 00
(000.355556)  vcan0  0000014A   [8]  00 00 03 4B 7A 7F 2C EA
(000.355767)  vcan0  00000309   [8]  00 41 00 00 00 00 00 00
(000.355976)  vcan0  00000170   [8]  62 00 00 00 00 00 00 00
(000.361172)  vcan0  00000170   [8]  AF 00 00 00 00 00 00 00
(000.361394)  vcan0  00000309   [8]  00 46 00 00 00 00 00 00
(000.361614)  vcan0  0000017C   [8]  4B 00 00 00 00 00 00 00
(000.361825)  vcan0  0000014A   [8]  00 00 03 4B 7A 7F 2C EA
(000.367915)  vcan0  0000017C   [8]  4B 00 00 00 00 00 00 00
(000.368131)  vcan0  00000170   [8]  37 00 00 00 00 00 00 00
(000.368344)  vcan0  00000309   [8]  00 49 00 00 00 00 00 00
(000.368558)  vcan0  0000014A   [8]  00 00 03 4B 7A 7F 2C EA
(000.374107)  vcan0  0000014A   [8]  00 00 03 4B 7A 7F 2C EA
(000.374323)  vcan0  00000170   [8]  F3 00 00 00 00 00 00 00
(000.374545)  vcan0  0000017C   [8]  4B 00 00 00 00 00 00 00
(000.374756)  vcan0  00000309   [8]  00 4C 00 00 00 00 00 00
(000.379352)  vcan0  00000170   [8]  56 00 00 00 00 00 00 00
(000.379572)  vcan0  00000309   [8]  00 4E 00 00 00 00 00 00
(000.379784)  vcan0  0000014A   [8]  00 00 03 4B 7A 7F 2C EA
(000.380001)  vcan0  0000017C   [8]  4B 00 00 00 00 00 00 00
(000.385261)  vcan0  0000014A   [8]  00 00 03 4B 7A 7F 2C EA
(000.385478)  vcan0  00000309   [8]  00 4F 00 00 00 00 00 00
(000.385688)  vcan0  00000170   [8]  6D 00 00 00 00 00 00 00
(000.385908)  vcan0  0000017C   [8]  4B 00 00 00 00 00 00 00
(000.391284)  vcan0  00000309   [8]  00 50 00 00 00 00 00 00
(000.391500)  vcan0  0000014A   [8]  00 00 03 4B 74 4B 45 3C
(000.391721)  vcan0  0000017C   [8]  4B 00 00 00 00 00 00 00
(000.391932)  vcan0  00000170   [8]  D2 00 00 00 00 00 00 00
(000.397694)  vcan0  0000014A   [8]  00 00 03 48 49 4C 2F 7C
(000.397919)  vcan0  00000170   [8]  69 00 00 00 00 00 00 00
(000.398164)  vcan0  0000017C   [8]  4B 00 00 00 00 00 00 00
(000.398390)  vcan0  00000309   [8]  00 6D 00 00 00 00 00 00
(000.403714)  vcan0  00000170   [8]  E6 00 00 00 00 00 00 00
(000.403942)  vcan0  00000309   [8]  00 8E 00 00 00 00 00 00
(000.404156)  vcan0  0000014A   [8]  00 00 03 46 CC 99 EF 46
(000.404375)  vcan0  0000017C   [8]  4B 00 00 00 00 00 00 00
(000.409479)  vcan0  00000170   [8]  7C 00 00 00 00 00 00 00
(000.409703)  vcan0  00000309   [8]  00 C9 00 00 00 00 00 00
(000.409917)  vcan0  0000014A   [8]  00 00 03 42 9F 9E 1B FE
(000.410137)  vcan0  0000017C   [8]  4B 00 00 00 00 00 00 00
(000.415358)  vcan0  00000170   [8]  96 00 00 00 00 00 00 00
(000.415579)  vcan0  00000309   [8]  00 FC 00 00 00 00 00 00
(000.415799)  vcan0  0000017C   [8]  4B 00 00 00 00 00 00 00
(000.416010)  vcan0  0000014A   [8]  00 00 03 3E 67 19 FD D0
(000.421123)  vcan0  0000017C   [8]  4B 00 00 00 00 00 00 00
(000.421336)  vcan0  00000309   [8]  01 10 00 00 00 00 00 00
(000.421547)  vcan0  0000014A   [8]  00 00 03 3A C5 C7 A3 C8
(000.421755)  vcan0  00000170   [8]  47 00 00 00 00 00 00 00
(000.427218)  vcan0  00000309   [8]  01 49 00 00 00 00 00 00
(000.427433)  vcan0  0000014A   [8]  00 00 03 35 EA AE B7 4E
(000.427643)  vcan0  00000170   [8]  B7 00 00 00 00 00 00 00
(000.427863)  vcan0  0000017C   [8]  4B 00 00 00 00 00 00 00
(000.433265)  vcan0  00000309   [8]  01 78 00 00 00 00 00 00
(000.433490)  vcan0  0000017C   [8]  4B 00 00 00 00 00 00 00
(000.433701)  vcan0  0000014A   [8]  00 00 03 30 B3 8B 54 C6
(000.433910)  vcan0  00000170   [8]  21 00 00 00 00 00 00 00
(000.439312)  vcan0  0000017C   [8]  4B 00 00 00 00 00 00 00
(000.439543)  vcan0  0000014A   [8]  00 00 03 2C 3C 79 1F 20
(000.439760)  vcan0  00000170   [8]  52 00 00 00 00 00 00 00
(000.440010)  vcan0  00000309   [8]  01 9A 00 00 00 00 00 00
(000.445238)  vcan0  0000014A   [8]  00 00 03 26 25 12 5B 4A
(000.445455)  vcan0  00000309   [8]  01 C6 00 00 00 00 00 00
(000.445676)  vcan0  0000017C   [8]  4B 00 00 00 00 00 00 00
(000.445885)  vcan0  00000170   [8]  11 00 00 00 00 00 00 00
(000.451188)  vcan0  00000170   [8]  86 00 00 00 00 00 00 00
(000.451410)  vcan0  0000014A   [8]  00 00 03 20 9C FD 0B 60
(000.451630)  vcan0  0000017C   [8]  4B 00 00 00 00 00 00 00
(000.451840)  vcan0  00000309   [8]  01 E8 00 00 00 00 00 00
(000.457280)  vcan0  00000170   [8]  5C 00 00 00 00 00 00 00
(000.457516)  vcan0  0000017C   [8]  4B 00 00 00 00 00 00 00
(000.457730)  vcan0  0000014A   [8]  00 00 03 1A 4F 29 B1 98
(000.457940)  vcan0  00000309   [8]  02 0A 00 00 00 00 00 00
(000.463300)  vcan0  00000309   [8]  02 29 00 00 00 00 00 00
(000.463515)  vcan0  0000014A   [8]  00 00 03 14 3C 4F 14 FA
(000.463735)  vcan0  0000017C   [8]  4B 00 00 00 00 00 00 00
(000.463944)  vcan0  00000170   [8]  2E 00 00 00 00 00 00 00
(000.469272)  vcan0  00000309   [8]  02 49 00 00 00 00 00 00
(000.469487)  vcan0  0000014A   [8]  00 00 03 0D 82 32 EA 30
(000.469696)  vcan0  00000170   [8]  4A 00 00 00 00 00 00 00
(000.469914)  vcan0  0000017C   [8]  4B 00 00 00 00 00 00 00
(000.487682)  vcan0  0000017C   [8]  4B 00 00 00 00 00 00 00
(000.487900)  vcan0  00000309   [8]  02 64 00 00 00 00 00 00
(000.488111)  vcan0  0000014A   [8]  00 00 03 06 EE FA 96 02
(000.488321)  vcan0  00000170   [8]  C4 00 00 00 00 00 00 00
(000.490005)  vcan0  00000309   [8]  02 81 00 00 00 00 00 00
(000.490218)  vcan0  0000014A   [8]  00 00 02 FF ED 90 7F 12
(000.490436)  vcan0  0000017C   [8]  4B 00 00 00 00 00 00 00
(000.490645)  vcan0  00000170   [8]  1E 00 00 00 00 00 00 00
(000.495753)  vcan0  00000170   [8]  EA 00 00 00 00 00 00 00
(000.495976)  vcan0  00000309   [8]  02 9B 00 00 00 00 00 00
(000.496188)  vcan0  0000014A   [8]  00 00 02 F8 FD 1A 5E B6
(000.496408)  vcan0  0000017C   [8]  4B 00 00 00 00 00 00 00
(000.501670)  vcan0  0000014A   [8]  00 00 02 F1 AA 7D 29 14
(000.501884)  vcan0  00000309   [8]  02 B4 00 00 00 00 00 00
(000.502094)  vcan0  00000170   [8]  FB 00 00 00 00 00 00 00
(000.502312)  vcan0  0000017C   [8]  4B 00 00 00 00 00 00 00
(000.502518)  vcan0  00000202   [8]  00 D1 00 00 00 00 00 00
(000.507647)  vcan0  0000017C   [8]  4B 00 00 00 00 00 00 00
(000.507858)  vcan0  00000170   [8]  73 00 00 00 00 00 00 00
(000.508065)  vcan0  0000018F   [8]  00 00 47 00 00 00 00 00
(000.508277)  vcan0  00000309   [8]  02 CC 00 00 00 00 00 00
(000.508486)  vcan0  0000014A   [8]  00 00 02 EA 65 CE EA 9E
(000.508699)  vcan0  000001A3   [8]  00 00 00 00 00 00 00 00
(000.513813)  vcan0  00000170   [8]  FE 00 00 00 00 00 00 00
(000.514039)  vcan0  00000309   [8]  02 E4 00 00 00 00 00 00
(000.514261)  vcan0  0000017C   [8]  4B 00 00 00 00 00 00 00
(000.514472)  vcan0  0000014A   [8]  00 00 02 E2 DA D7 85 34
(000.519632)  vcan0  00000309   [8]  02 FB 00 00 00 00 00 00
(000.519855)  vcan0  0000017C   [8]  4B 00 00 00 00 00 00 00
(000.520065)  vcan0  00000170   [8]  0E 00 00 00 00 00 00 00
(000.520277)  vcan0  0000014A   [8]  00 00 02 DB 48 7D 8A 12
(000.525808)  vcan0  0000014A   [8]  00 00 02 D3 91 D0 4D 6C
(000.526021)  vcan0  00000170   [8]  38 00 00 00 00 00 00 00
(000.526243)  vcan0  0000017C   [8]  4B 00 00 00 00 00 00 00
(000.526453)  vcan0  00000309   [8]  03 11 00 00 00 00 00 00
(000.531765)  vcan0  0000014A   [8]  00 00 02 CB C8 3C D8 44
(000.531991)  vcan0  0000017C   [8]  4B 00 00 00 00 00 00 00
(000.532203)  vcan0  00000309   [8]  03 26 00 00 00 00 00 00
(000.532411)  vcan0  00000170   [8]  EA 00 00 00 00 00 00 00
(000.537737)  vcan0  00000309   [8]  03 3B 00 00 00 00 00 00
(000.537951)  vcan0  0000014A   [8]  00 00 02 C3 E8 F3 B8 3A
(000.538170)  vcan0  0000017C   [8]  4B 00 00 00 00 00 00 00
(000.538378)  vcan0  00000170   [8]  10 00 00 00 00 00 00 00
(000.543931)  vcan0  00000309   [8]  03 4F 00 00 00 00 00 00
(000.544144)  vcan0  0000014A   [8]  00 00 02 BB F3 74 DE C6
(000.544353)  vcan0  00000170   [8]  48 00 00 00 00 00 00 00
(000.544571)  vcan0  0000017C   [8]  4B 00 00 00 00 00 00 00
(000.550025)  vcan0  00000309   [8]  03 63 00 00 00 00 00 00
(000.550250)  vcan0  0000017C   [8]  4B 00 00 00 00 00 00 00
(000.550460)  vcan0  00000170   [8]  5C 00 00 00 00 00 00 00
(000.550671)  vcan0  0000014A   [8]  00 00 02 B3 F5 EB CC 42
(000.556180)  vcan0  0000014A   [8]  00 00 02 AB DA 2C 17 70
(000.556393)  vcan0  00000170   [8]  B9 00 00 00 00 00 00 00
(000.556615)  vcan0  0000017C   [8]  4B 00 00 00 00 00 00 00
(000.556826)  vcan0  00000309   [8]  03 77 00 00 00 00 00 00
(000.562653)  vcan0  0000017C   [8]  4B 00 00 00 00 00 00 00
(000.562868)  vcan0  00000309   [8]  03 89 00 00 00 00 00 00
(000.563079)  vcan0  0000014A   [8]  00 00 02 A3 C7 DD 2A D6
(000.563288)  vcan0  00000170   [8]  71 00 00 00 00 00 00 00
(000.568438)  vcan0  00000170   [8]  9E 00 00 00 00 00 00 00
(000.568673)  vcan0  0000017C   [8]  4B 00 00 00 00 00 00 00
(000.568887)  vcan0  0000014A   [8]  00 00 02 9B 91 28 5C 58
(000.569097)  vcan0  00000309   [8]  03 9C 00 00 00 00 00 00
(000.573931)  vcan0  00000170   [8]  6D 00 00 00 00 00 00 00
(000.574157)  vcan0  0000014A   [8]  00 00 02 93 6B 77 D0 C2
(000.574370)  vcan0  00000309   [8]  03 AE 00 00 00 00 00 00
(000.574590)  vcan0  0000017C   [8]  4B 00 00 00 00 00 00 00
(000.579828)  vcan0  0000017C   [8]  4B 00 00 00 00 00 00 00
(000.580045)  vcan0  0000014A   [8]  00 00 02 8B 26 F2 4F B8
(000.580259)  vcan0  00000309   [8]  03 C0 00 00 00 00 00 00
(000.580468)  vcan0  00000170   [8]  2F 00 00 00 00 00 00 00
(000.585894)  vcan0  00000309   [8]  03 D2 00 00 00 00 00 00
(000.586110)  vcan0  0000014A   [8]  00 00 02 82 F3 24 3C 0C
(000.586320)  vcan0  00000170   [8]  4B 00 00 00 00 00 00 00
(000.586540)  vcan0  0000017C   [8]  4B 00 00 00 00 00 00 00
(000.591746)  vcan0  00000309   [8]  03 E3 00 00 00 00 00 00
(000.591973)  vcan0  0000017C   [8]  4B 00 00 00 00 00 00 00
(000.592185)  vcan0  0000014A   [8]  00 00 02 7A A9 45 AF B0
(000.592394)  vcan0  00000170   [8]  2E 00 00 00 00 00 00 00
(000.597942)  vcan0  00000170   [8]  D5 00 00 00 00 00 00 00
(000.598165)  vcan0  0000014A   [8]  00 00 02 72 6E 7B 78 58
(000.598386)  vcan0  0000017C   [8]  4B 00 00 00 00 00 00 00
(000.598596)  vcan0  00000309   [8]  03 F4 00 00 00 00 00 00
(000.603841)  vcan0  0000014A   [8]  00 00 02 6A 1D 99 CC 2E
(000.604068)  vcan0  0000017C   [8]  4B 00 00 00 00 00 00 00
(000.604277)  vcan0  00000170   [8]  2A 00 00 00 00 00 00 00
(000.604488)  vcan0  00000309   [8]  04 05 00 00 00 00 00 00
(000.609778)  vcan0  00000170   [8]  8F 00 00 00 00 00 00 00
(000.609998)  vcan0  0000014A   [8]  00 00 02 61 EA D0 7D B6
(000.610210)  vcan0  00000309   [8]  04 16 00 00 00 00 00 00
(000.610428)  vcan0  0000017C   [8]  4B 00 00 00 00 00 00 00
(000.615759)  vcan0  0000017C   [8]  4B 00 00 00 00 00 00 00
(000.615975)  vcan0  00000170   [8]  FE 00 00 00 00 00 00 00
(000.616188)  vcan0  0000014A   [8]  00 00 02 59 98 8F 3E 88
(000.616398)  vcan0  00000309   [8]  04 26 00 00 00 00 00 00
(000.621975)  vcan0  00000170   [8]  D6 00 00 00 00 00 00 00
(000.622198)  vcan0  0000014A   [8]  00 00 02 51 69 80 8B 1C
(000.622410)  vcan0  00000309   [8]  04 36 00 00 00 00 00 00
(000.622629)  vcan0  0000017C   [8]  4B 00 00 00 00 00 00 00
(000.628179)  vcan0  00000309   [8]  04 47 00 00 00 00 00 00
(000.628390)  vcan0  00000170   [8]  C0 00 00 00 00 00 00 00
(000.628602)  vcan0  0000014A   [8]  00 00 02 49 24 68 5B 24
(000.628820)  vcan0  0000017C   [8]  4B 00 00 00 00 00 00 00
(000.634192)  vcan0  0000014A   [8]  00 00 02 40 FD 99 6D D8
(000.634416)  vcan0  0000017C   [8]  4B 00 00 00 00 00 00 00
(000.634627)  vcan0  00000309   [8]  04 56 00 00 00 00 00 00
(000.634836)  vcan0  00000170   [8]  79 00 00 00 00 00 00 00
(000.639863)  vcan0  00000170   [8]  A2 00 00 00 00 00 00 00
(000.640087)  vcan0  00000309   [8]  04 66 00 00 00 00 00 00
(000.640345)  vcan0  0000017C   [8]  4B 00 00 00 00 00 00 00
(000.640556)  vcan0  0000014A   [8]  00 00 02 38 C4 72 4E DC
(000.645870)  vcan0  00000309   [8]  04 76 00 00 00 00 00 00
(000.646092)  vcan0  0000017C   [8]  4B 00 00 00 00 00 00 00
(000.646302)  vcan0  0000014A   [8]  00 00 02 30 A5 1F 93 CA
(000.646512)  vcan0  00000170   [8]  33 00 00 00 00 00 00 00
(000.652056)  vcan0  00000170   [8]  B0 00 00 00 00 00 00 00
(000.652290)  vcan0  0000017C   [8]  4B 00 00 00 00 00 00 00
(000.652504)  vcan0  00000309   [8]  04 85 00 00 00 00 00 00
(000.652716)  vcan0  0000014A   [8]  00 00 02 28 86 A5 61 0A
(000.657992)  vcan0  0000014A   [8]  00 00 02 20 7A 0A 4D 8E
(000.658205)  vcan0  00000170   [8]  06 00 00 00 00 00 00 00
(000.658427)  vcan0  0000017C   [8]  4B 00 00 00 00 00 00 00
(000.658639)  vcan0  00000309   [8]  04 94 00 00 00 00 00 00
(000.663771)  vcan0  00000309   [8]  04 A4 00 00 00 00 00 00
(000.663985)  vcan0  00000170   [8]  A8 00 00 00 00 00 00 00
(000.664199)  vcan0  0000014A   [8]  00 00 02 18 73 6F E8 BA
(000.664420)  vcan0  0000017C   [8]  4B 00 00 00 00 00 00 00
(000.669944)  vcan0  00000170   [8]  D7 00 00 00 00 00 00 00
(000.670262)  vcan0  0000014A   [8]  00 00 02 10 7C 54 F3 0C
(000.670474)  vcan0  00000309   [8]  04 B3 00 00 00 00 00 00
(000.670692)  vcan0  0000017C   [8]  4B 00 00 00 00 00 00 00
(000.676050)  vcan0  0000014A   [8]  00 00 02 08 91 16 19 F0
(000.676273)  vcan0  0000017C   [8]  4B 00 00 00 00 00 00 00
(000.676484)  vcan0  00000309   [8]  04 C1 00 00 00 00 00 00
(000.676693)  vcan0  00000170   [8]  C4 00 00 00 00 00 00 00
(000.681937)  vcan0  00000170   [8]  4B 00 00 00 00 00 00 00
(000.682162)  vcan0  00000309   [8]  04 D0 00 00 00 00 00 00
(000.682374)  vcan0  0000014A   [8]  00 00 02 00 B8 5B AF 64
(000.682593)  vcan0  0000017C   [8]  4B 00 00 00 00 00 00 00
(000.687760)  vcan0  00000309   [8]  04 DF 00 00 00 00 00 00
(000.687989)  vcan0  0000017C   [8]  4B 00 00 00 00 00 00 00
(000.688201)  vcan0  0000014A   [8]  00 00 01 F8 EB 94 A9 E2
(000.688411)  vcan0  00000170   [8]  62 00 00 00 00 00 00 00
(000.693922)  vcan0  0000017C   [8]  4B 00 00 00 00 00 00 00
(000.694136)  vcan0  00000170   [8]  DD 00 00 00 00 00 00 00
(000.694350)  vcan0  00000309   [8]  04 EE 00 00 00 00 00 00
(000.694560)  vcan0  0000014A   [8]  00 00 01 F1 2E 4D 13 84
(000.700178)  vcan0  00000170   [8]  99 00 00 00 00 00 00 00
(000.700402)  vcan0  0000014A   [8]  00 00 01 E9 86 FA 05 48
(000.700614)  vcan0  00000309   [8]  04 FC 00 00 00 00 00 00
(000.700832)  vcan0  0000017C   [8]  4B 00 00 00 00 00 00 00
(000.706079)  vcan0  00000309   [8]  05 0A 00 00 00 00 00 00
(000.706292)  vcan0  00000170   [8]  9A 00 00 00 00 00 00 00
(000.706505)  vcan0  0000014A   [8]  00 00 01 E1 EC 0C 72 58
(000.706723)  vcan0  0000017C   [8]  4B 00 00 00 00 00 00 00
(000.712044)  vcan0  0000017C   [8]  4B 00 00 00 00 00 00 00
(000.712260)  vcan0  0000014A   [8]  00 00 01 DA 68 FE AD 58
(000.712468)  vcan0  00000170   [8]  B1 00 00 00 00 00 00 00
(000.712678)  vcan0  00000309   [8]  05 19 00 00 00 00 00 00
(000.717832)  vcan0  0000014A   [8]  00 00 01 D2 F1 92 CF BE
(000.718044)  vcan0  00000170   [8]  A9 00 00 00 00 00 00 00
(000.718257)  vcan0  00000309   [8]  05 27 00 00 00 00 00 00
(000.718477)  vcan0  0000017C   [8]  4B 00 00 00 00 00 00 00
(000.723886)  vcan0  0000014A   [8]  00 00 01 CB 91 C0 E6 AC
(000.724111)  vcan0  0000017C   [8]  4B 00 00 00 00 00 00 00
(000.724322)  vcan0  00000309   [8]  05 35 00 00 00 00 00 00
(000.724531)  vcan0  00000170   [8]  41 00 00 00 00 00 00 00
(000.729724)  vcan0  0000014A   [8]  00 00 01 C4 43 F5 B1 AA
(000.729935)  vcan0  00000170   [8]  4E 00 00 00 00 00 00 00
(000.730147)  vcan0  00000309   [8]  05 43 00 00 00 00 00 00
(000.730364)  vcan0  0000017C   [8]  4B 00 00 00 00 00 00 00
(000.735891)  vcan0  00000170   [8]  8D 00 00 00 00 00 00 00
(000.736111)  vcan0  00000309   [8]  05 51 00 00 00 00 00 00
(000.736322)  vcan0  0000014A   [8]  00 00 01 BD 0A 1C 76 84
(000.736541)  vcan0  0000017C   [8]  4B 00 00 00 00 00 00 00
(000.741760)  vcan0  00000170   [8]  1F 00 00 00 00 00 00 00
(000.741987)  vcan0  0000017C   [8]  4B 00 00 00 00 00 00 00
(000.742197)  vcan0  00000309   [8]  05 5F 00 00 00 00 00 00
(000.742406)  vcan0  0000014A   [8]  00 00 01 B5 E8 D8 A4 EA
(000.748523)  vcan0  0000014A   [8]  00 00 01 AE D2 01 10 8C
(000.748737)  vcan0  00000170   [8]  C3 00 00 00 00 00 00 00
(000.748943)  vcan0  00000202   [8]  00 36 00 00 00 00 00 00
(000.749164)  vcan0  0000017C   [8]  4B 00 00 00 00 00 00 00
(000.749374)  vcan0  00000309   [8]  05 6D 00 00 00 00 00 00
(000.753806)  vcan0  00000170   [8]  B0 00 00 00 00 00 00 00
(000.754036)  vcan0  0000017C   [8]  4B 00 00 00 00 00 00 00
(000.754248)  vcan0  0000014A   [8]  00 00 01 A7 DB 05 8A E2
(000.754459)  vcan0  00000309   [8]  05 7B 00 00 00 00 00 00
(000.759855)  vcan0  0000014A   [8]  00 00 01 A0 F6 0E 65 3C
(000.760068)  vcan0  00000170   [8]  70 00 00 00 00 00 00 00
(000.760288)  vcan0  0000017C   [8]  4B 00 00 00 00 00 00 00
(000.760498)  vcan0  00000309   [8]  05 89 00 00 00 00 00 00
(000.766483)  vcan0  0000017C   [8]  4B 00 00 00 00 00 00 00
(000.766697)  vcan0  00000170   [8]  CE 00 00 00 00 00 00 00
(000.766910)  vcan0  0000014A   [8]  00 00 01 9A 25 60 89 2E
(000.767119)  vcan0  00000309   [8]  05 97 00 00 00 00 00 00
(000.772838)  vcan0  0000014A   [8]  00 00 01 93 6C EE 72 E4
(000.773052)  vcan0  00000309   [8]  05 A4 00 00 00 00 00 00
(000.773270)  vcan0  0000017C   [8]  4B 00 00 00 00 00 00 00
(000.773477)  vcan0  00000170   [8]  D2 00 00 00 00 00 00 00
(000.778306)  vcan0  0000014A   [8]  00 00 01 8C CE DE C7 5A
(000.778520)  vcan0  00000309   [8]  05 B2 00 00 00 00 00 00
(000.778737)  vcan0  0000017C   [8]  4B 00 00 00 00 00 00 00
(000.778946)  vcan0  00000170   [8]  68 00 00 00 00 00 00 00
(000.783792)  vcan0  00000309   [8]  05 C0 00 00 00 00 00 00
(000.784025)  vcan0  0000014A   [8]  00 00 01 86 3C AD 8C 6C
(000.784236)  vcan0  00000170   [8]  A0 00 00 00 00 00 00 00
(000.784456)  vcan0  0000017C   [8]  4B 00 00 00 00 00 00 00
(000.789854)  vcan0  00000309   [8]  05 CD 00 00 00 00 00 00
(000.790067)  vcan0  00000170   [8]  69 00 00 00 00 00 00 00
(000.790287)  vcan0  0000017C   [8]  4B 00 00 00 00 00 00 00
(000.790498)  vcan0  0000014A   [8]  00 00 01 7F CA 30 CB 68
(000.795670)  vcan0  00000170   [8]  D1 00 00 00 00 00 00 00
(000.795892)  vcan0  0000014A   [8]  00 00 01 79 6E 18 54 C0
(000.796104)  vcan0  00000309   [8]  05 DB 00 00 00 00 00 00
(000.796323)  vcan0  0000017C   [8]  4B 00 00 00 00 00 00 00
(000.801623)  vcan0  00000309   [8]  05 E8 00 00 00 00 00 00
(000.801837)  vcan0  00000170   [8]  4A 00 00 00 00 00 00 00
(000.802058)  vcan0  0000017C   [8]  4B 00 00 00 00 00 00 00
(000.802270)  vcan0  0000014A   [8]  00 00 01 73 29 07 23 B2
(000.808212)  vcan0  0000017C   [8]  4B 00 00 00 00 00 00 00
(000.808429)  vcan0  0000014A   [8]  00 00 01 6C F9 25 BC D8
(000.808640)  vcan0  00000170   [8]  B8 00 00 00 00 00 00 00
(000.808852)  vcan0  00000309   [8]  05 F6 00 00 00 00 00 00
(000.814047)  vcan0  0000014A   [8]  00 00 01 66 E4 27 F9 50
(000.814262)  vcan0  00000309   [8]  06 03 00 00 00 00 00 00
(000.814482)  vcan0  0000017C   [8]  4B 00 00 00 00 00 00 00
(000.814690)  vcan0  00000170   [8]  54 00 00 00 00 00 00 00
(000.819911)  vcan0  0000014A   [8]  00 00 01 60 E5 B2 96 DA
(000.820138)  vcan0  0000017C   [8]  4B 00 00 00 00 00 00 00
(000.820349)  vcan0  00000309   [8]  06 11 00 00 00 00 00 00
(000.820558)  vcan0  00000170   [8]  19 00 00 00 00 00 00 00
(000.825878)  vcan0  0000017C   [8]  4B 00 00 00 00 00 00 00
(000.826094)  vcan0  0000014A   [8]  00 00 01 5A FE 4E F4 36
(000.826306)  vcan0  00000309   [8]  06 1E 00 00 00 00 00 00
(000.826514)  vcan0  00000170   [8]  30 00 00 00 00 00 00 00
(000.831751)  vcan0  00000309   [8]  06 2C 00 00 00 00 00 00
(000.831967)  vcan0  0000014A   [8]  00 00 01 55 32 ED 56 9C
(000.832185)  vcan0  0000017C   [8]  4B 00 00 00 00 00 00 00
(000.832392)  vcan0  00000170   [8]  5F 00 00 00 00 00 00 00
(000.837825)  vcan0  00000170   [8]  F2 00 00 00 00 00 00 00
(000.838056)  vcan0  0000017C   [8]  4B 00 00 00 00 00 00 00
(000.838268)  vcan0  0000014A   [8]  00 00 01 4F 7C 9F 92 A4
(000.838478)  vcan0  00000309   [8]  06 39 00 00 00 00 00 00
(000.844281)  vcan0  00000309   [8]  06 46 00 00 00 00 00 00
(000.844491)  vcan0  00000170   [8]  DE 00 00 00 00 00 00 00
(000.844710)  vcan0  0000017C   [8]  4B 00 00 00 00 00 00 00
(000.844919)  vcan0  0000014A   [8]  00 00 01 49 E1 8C C1 C0
(000.849994)  vcan0  00000170   [8]  1B 00 00 00 00 00 00 00
(000.850213)  vcan0  00000309   [8]  06 53 00 00 00 00 00 00
(000.850425)  vcan0  0000014A   [8]  00 00 01 44 56 87 66 D4
(000.850643)  vcan0  0000017C   [8]  4B 00 00 00 00 00 00 00
(000.855983)  vcan0  00000309   [8]  06 61 00 00 00 00 00 00
(000.856193)  vcan0  00000170   [8]  53 00 00 00 00 00 00 00
(000.856405)  vcan0  0000014A   [8]  00 00 01 3E EC FA 36 D6
(000.856622)  vcan0  0000017C   [8]  4B 00 00 00 00 00 00 00
(000.862094)  vcan0  0000017C   [8]  4B 00 00 00 00 00 00 00
(000.862306)  vcan0  00000170   [8]  FD 00 00 00 00 00 00 00
(000.862518)  vcan0  00000309   [8]  06 6E 00 00 00 00 00 00
(000.862728)  vcan0  0000014A   [8]  00 00 01 39 98 04 50 02
(000.867853)  vcan0  0000014A   [8]  00 00 01 34 59 67 0F 4C
(000.868076)  vcan0  0000017C   [8]  4B 00 00 00 00 00 00 00
(000.868285)  vcan0  00000170   [8]  D9 00 00 00 00 00 00 00
(000.868495)  vcan0  00000309   [8]  06 7B 00 00 00 00 00 00
(000.874033)  vcan0  00000170   [8]  E5 00 00 00 00 00 00 00
(000.874310)  vcan0  0000014A   [8]  00 00 01 2F 3B 79 BD 84
(000.874530)  vcan0  0000017C   [8]  4B 00 00 00 00 00 00 00
(000.874741)  vcan0  00000309   [8]  06 88 00 00 00 00 00 00
(000.880714)  vcan0  00000170   [8]  BC 00 00 00 00 00 00 00
(000.880951)  vcan0  00000309   [8]  06 95 00 00 00 00 00 00
(000.881176)  vcan0  0000014A   [8]  00 00 01 2A 2E A5 A3 10
(000.881413)  vcan0  0000017C   [8]  4B 00 00 00 00 00 00 00
(000.886032)  vcan0  00000309   [8]  06 A2 00 00 00 00 00 00
(000.886331)  vcan0  00000170   [8]  8F 00 00 00 00 00 00 00
(000.886553)  vcan0  0000017C   [8]  4B 00 00 00 00 00 00 00
(000.886764)  vcan0  0000014A   [8]  00 00 01 25 3C 60 30 3C
(000.891840)  vcan0  00000309   [8]  06 AF 00 00 00 00 00 00
(000.892052)  vcan0  00000170   [8]  61 00 00 00 00 00 00 00
(000.892265)  vcan0  0000014A   [8]  00 00 01 20 62 54 2F 1E
(000.892485)  vcan0  0000017C   [8]  4B 00 00 00 00 00 00 00
(000.897916)  vcan0  0000017C   [8]  4B 00 00 00 00 00 00 00
(000.898132)  vcan0  00000309   [8]  06 BD 00 00 00 00 00 00
(000.898341)  vcan0  00000170   [8]  A7 00 00 00 00 00 00 00
(000.898551)  vcan0  0000014A   [8]  00 00 01 1B 9D AA 07 34
(000.904025)  vcan0  00000309   [8]  06 CA 00 00 00 00 00 00
(000.904243)  vcan0  0000014A   [8]  00 00 01 16 F6 9E 00 8C
(000.904453)  vcan0  00000170   [8]  CF 00 00 00 00 00 00 00
(000.904673)  vcan0  0000017C   [8]  4B 00 00 00 00 00 00 00
(000.910478)  vcan0  0000017C   [8]  4B 00 00 00 00 00 00 00
(000.910695)  vcan0  0000014A   [8]  00 00 01 12 66 DD EE DE
(000.910905)  vcan0  00000309   [8]  06 D7 00 00 00 00 00 00
(000.911113)  vcan0  00000170   [8]  08 00 00 00 00 00 00 00
(000.916020)  vcan0  0000017C   [8]  4B 00 00 00 00 00 00 00
(000.916287)  vcan0  0000014A   [8]  00 00 01 0D EC DF 2C 48
(000.916496)  vcan0  00000170   [8]  33 00 00 00 00 00 00 00
(000.916706)  vcan0  00000309   [8]  06 E4 00 00 00 00 00 00
(000.922018)  vcan0  0000014A   [8]  00 00 01 09 89 EC 57 68
(000.922241)  vcan0  00000170   [8]  23 00 00 00 00 00 00 00
(000.922479)  vcan0  0000017C   [8]  4B 00 00 00 00 00 00 00
(000.922702)  vcan0  00000309   [8]  06 F1 00 00 00 00 00 00
(000.927798)  vcan0  0000017C   [8]  4B 00 00 00 00 00 00 00
(000.928018)  vcan0  0000014A   [8]  00 00 01 05 39 79 DE 02
(000.928228)  vcan0  00000309   [8]  06 FD 00 00 00 00 00 00
(000.928437)  vcan0  00000170   [8]  96 00 00 00 00 00 00 00
(000.933684)  vcan0  00000170   [8]  CE 00 00 00 00 00 00 00
(000.933907)  vcan0  0000014A   [8]  00 00 01 01 09 92 12 CE
(000.934120)  vcan0  00000309   [8]  07 0A 00 00 00 00 00 00
(000.934339)  vcan0  0000017C   [8]  4B 00 00 00 00 00 00 00
(000.939794)  vcan0  00000170   [8]  10 00 00 00 00 00 00 00
(000.940018)  vcan0  00000309   [8]  07 17 00 00 00 00 00 00
(000.940231)  vcan0  0000014A   [8]  00 00 00 FC EB DA E4 7E
(000.940451)  vcan0  0000017C   [8]  4B 00 00 00 00 00 00 00
(000.945741)  vcan0  00000309   [8]  07 24 00 00 00 00 00 00
(000.945954)  vcan0  00000170   [8]  40 00 00 00 00 00 00 00
(000.946166)  vcan0  0000014A   [8]  00 00 00 F8 F1 86 91 E8
(000.946385)  vcan0  0000017C   [8]  4B 00 00 00 00 00 00 00
(000.951777)  vcan0  0000014A   [8]  00 00 00 F5 0B B1 AA FE
(000.951990)  vcan0  00000309   [8]  07 31 00 00 00 00 00 00
(000.952199)  vcan0  00000170   [8]  3D 00 00 00 00 00 00 00
(000.952419)  vcan0  0000017C   [8]  4B 00 00 00 00 00 00 00
(000.957819)  vcan0  0000014A   [8]  00 00 00 F1 43 5A 4C B0
(000.958033)  vcan0  00000170   [8]  E7 00 00 00 00 00 00 00
(000.958246)  vcan0  00000309   [8]  07 3E 00 00 00 00 00 00
(000.958465)  vcan0  0000017C   [8]  4B 00 00 00 00 00 00 00
(000.963739)  vcan0  00000309   [8]  07 4B 00 00 00 00 00 00
(000.963954)  vcan0  0000014A   [8]  00 00 00 ED 84 4E 75 DA
(000.964174)  vcan0  0000017C   [8]  4B 00 00 00 00 00 00 00
(000.964383)  vcan0  00000170   [8]  4D 00 00 00 00 00 00 00
(000.969770)  vcan0  0000017C   [8]  4B 00 00 00 00 00 00 00
(000.969986)  vcan0  0000014A   [8]  00 00 00 E9 EF 14 C1 9A
(000.970199)  vcan0  00000309   [8]  07 57 00 00 00 00 00 00
(000.970407)  vcan0  00000170   [8]  A1 00 00 00 00 00 00 00
(000.975639)  vcan0  0000014A   [8]  00 00 00 E6 45 65 86 DC
(000.975854)  vcan0  00000309   [8]  07 64 00 00 00 00 00 00
(000.976063)  vcan0  00000170   [8]  E1 00 00 00 00 00 00 00
(000.976283)  vcan0  0000017C   [8]  4B 00 00 00 00 00 00 00
(000.981723)  vcan0  00000309   [8]  07 70 00 00 00 00 00 00
(000.981935)  vcan0  00000170   [8]  DB 00 00 00 00 00 00 00
(000.982150)  vcan0  0000014A   [8]  00 00 00 E3 14 20 7E 12
(000.982368)  vcan0  0000017C   [8]  4B 00 00 00 00 00 00 00
(000.988235)  vcan0  00000309   [8]  07 7D 00 00 00 00 00 00
(000.988478)  vcan0  0000017C   [8]  4B 00 00 00 00 00 00 00
(000.988694)  vcan0  00000170   [8]  23 00 00 00 00 00 00 00
(000.988916)  vcan0  0000014A   [8]  00 00 00 DF 14 1E B9 7C
(000.993847)  vcan0  0000017C   [8]  4B 00 00 00 00 00 00 00
(000.994064)  vcan0  0000014A   [8]  00 00 00 DC A6 E4 55 E2
(000.994273)  vcan0  00000170   [8]  6C 00 00 00 00 00 00 00
(000.994480)  vcan0  00000202   [8]  00 32 00 00 00 00 00 00
(000.994690)  vcan0  00000309   [8]  07 7F 00 00 00 00 00 00
(001.000208)  vcan0  00000309   [8]  07 89 00 00 00 00 00 00
(001.000425)  vcan0  0000014A   [8]  00 00 00 D8 88 F9 59 8A
(001.000646)  vcan0  0000017C   [8]  4B 00 00 00 00 00 00 00
(001.000855)  vcan0  00000170   [8]  0D 00 00 00 00 00 00 00
(001.005923)  vcan0  00000374   [8]  00 00 00 00 00 00 00 00
(001.006140)  vcan0  000001A3   [8]  00 00 00 00 00 00 00 00
(001.006352)  vcan0  00000309   [8]  07 82 00 00 00 00 00 00
(001.006566)  vcan0  0000037B   [8]  00 00 00 00 00 00 00 00
(001.006780)  vcan0  00000326   [8]  00 00 00 00 00 00 00 00
(001.006996)  vcan0  0000017C   [8]  4B 00 00 00 00 00 00 00
(001.007206)  vcan0  0000014A   [8]  00 00 00 D5 C3 80 91 48
(001.007414)  vcan0  0000018F   [8]  00 00 9B 00 00 00 00 00
(001.007620)  vcan0  00000170   [8]  3F 00 00 00 00 00 00 00
(001.007835)  vcan0  000001A4   [8]  00 67 00 00 00 00 00 00
(001.012107)  vcan0  0000017C   [8]  4B 00 00 00 00 00 00 00
(001.012321)  vcan0  00000170   [8]  6B 00 00 00 00 00 00 00
(001.012534)  vcan0  0000014A   [8]  00 00 00 D2 BB C9 90 B8
(001.012744)  vcan0  00000309   [8]  07 8D 00 00 00 00 00 00
(001.017748)  vcan0  00000170   [8]  2A 00 00 00 00 00 00 00
(001.017970)  vcan0  00000309   [8]  07 8D 00 00 00 00 00 00
(001.018181)  vcan0  0000014A   [8]  00 00 00 D0 0A AE 71 76
(001.018400)  vcan0  0000017C   [8]  4B 00 00 00 00 00 00 00
(001.023921)  vcan0  0000017C   [8]  4B 00 00 00 00 00 00 00
(001.024134)  vcan0  00000170   [8]  90 00 00 00 00 00 00 00
(001.024347)  vcan0  0000014A   [8]  00 00 00 CC 94 53 02 DA
(001.024558)  vcan0  00000309   [8]  07 98 00 00 00 00 00 00
(001.029938)  vcan0  00000170   [8]  6D 00 00 00 00 00 00 00
(001.030173)  vcan0  00000309   [8]  07 97 00 00 00 00 00 00
(001.030396)  vcan0  0000017C   [8]  4B 00 00 00 00 00 00 00
(001.030607)  vcan0  0000014A   [8]  00 00 00 CA 01 AF 22 30
(001.036013)  vcan0  0000017C   [8]  4B 00 00 00 00 00 00 00
(001.036231)  vcan0  0000014A   [8]  00 00 00 C7 28 CA D5 C0
(001.036440)  vcan0  00000170   [8]  1F 00 00 00 00 00 00 00
(001.036650)  vcan0  00000309   [8]  07 A3 00 00 00 00 00 00
(001.042176)  vcan0  00000170   [8]  0C 00 00 00 00 00 00 00
(001.042397)  vcan0  0000014A   [8]  00 00 00 C4 BD 40 58 C2
(001.042611)  vcan0  00000309   [8]  07 A4 00 00 00 00 00 00
(001.042832)  vcan0  0000017C   [8]  4B 00 00 00 00 00 00 00
(001.047851)  vcan0  00000309   [8]  07 B0 00 00 00 00 00 00
(001.048066)  vcan0  0000014A   [8]  00 00 00 C1 B4 D1 B3 08
(001.048276)  vcan0  00000170   [8]  E2 00 00 00 00 00 00 00
(001.048495)  vcan0  0000017C   [8]  4B 00 00 00 00 00 00 00
(001.054169)  vcan0  0000017C   [8]  4B 00 00 00 00 00 00 00
(001.054400)  vcan0  00000309   [8]  07 B1 00 00 00 00 00 00
(001.054618)  vcan0  00000170   [8]  B9 00 00 00 00 00 00 00
(001.054841)  vcan0  0000014A   [8]  00 00 00 BF 68 5A BE 40
(001.059947)  vcan0  00000309   [8]  07 BF 00 00 00 00 00 00
(001.060161)  vcan0  00000170   [8]  EA 00 00 00 00 00 00 00
(001.060382)  vcan0  0000017C   [8]  4B 00 00 00 00 00 00 00
(001.060593)  vcan0  0000014A   [8]  00 00 00 BC D5 2B 2A CE
(001.065805)  vcan0  0000014A   [8]  00 00 00 BA A2 A0 77 68
(001.066019)  vcan0  00000170   [8]  DD 00 00 00 00 00 00 00
(001.066241)  vcan0  0000017C   [8]  4B 00 00 00 00 00 00 00
(001.066452)  vcan0  00000309   [8]  07 C1 00 00 00 00 00 00
(001.071895)  vcan0  00000309   [8]  07 CF 00 00 00 00 00 00
(001.072120)  vcan0  0000017C   [8]  4B 00 00 00 00 00 00 00
(001.072332)  vcan0  0000014A   [8]  00 00 00 B7 FF 5B 47 D0
(001.072541)  vcan0  00000170   [8]  80 00 00 00 00 00 00 00
(001.077843)  vcan0  0000014A   [8]  00 00 00 B5 EB 72 9B 5E
(001.078071)  vcan0  0000017C   [8]  4B 00 00 00 00 00 00 00
(001.078282)  vcan0  00000309   [8]  07 D1 00 00 00 00 00 00
(001.078492)  vcan0  00000170   [8]  EF 00 00 00 00 00 00 00
(001.084144)  vcan0  0000014A   [8]  00 00 00 B3 A3 D7 D6 E8
(001.084369)  vcan0  0000017C   [8]  4B 00 00 00 00 00 00 00
(001.084579)  vcan0  00000309   [8]  07 E0 00 00 00 00 00 00
(001.084788)  vcan0  00000170   [8]  2C 00 00 00 00 00 00 00
(001.090225)  vcan0  00000309   [8]  07 E3 00 00 00 00 00 00
(001.090450)  vcan0  0000017C   [8]  4B 00 00 00 00 00 00 00
(001.090659)  vcan0  00000170   [8]  01 00 00 00 00 00 00 00
(001.090871)  vcan0  0000014A   [8]  00 00 00 B1 AC 72 68 12
(001.096876)  vcan0  0000014A   [8]  00 00 00 AF 56 7A F3 C2
(001.097125)  vcan0  0000017C   [8]  4B 00 00 00 00 00 00 00
(001.097347)  vcan0  00000170   [8]  21 00 00 00 00 00 00 00
(001.097574)  vcan0  00000309   [8]  07 F2 00 00 00 00 00 00
(001.102134)  vcan0  0000017C   [8]  4B 00 00 00 00 00 00 00
(001.102352)  vcan0  00000309   [8]  07 F6 00 00 00 00 00 00
(001.102561)  vcan0  00000170   [8]  54 00 00 00 00 00 00 00
(001.102772)  vcan0  0000014A   [8]  00 00 00 AD 7F 7B 3C E0
(001.107811)  vcan0  00000170   [8]  4D 00 00 00 00 00 00 00
(001.108037)  vcan0  00000309   [8]  08 05 00 00 00 00 00 00
(001.108259)  vcan0  0000017C   [8]  4B 00 00 00 00 00 00 00
(001.108470)  vcan0  0000014A   [8]  00 00 00 AB 7D 02 CC FC
(001.113916)  vcan0  00000170   [8]  61 00 00 00 00 00 00 00
(001.114146)  vcan0  0000017C   [8]  4B 00 00 00 00 00 00 00
(001.114358)  vcan0  00000309   [8]  08 09 00 00 00 00 00 00
(001.114568)  vcan0  0000014A   [8]  00 00 00 A9 BE 97 55 A0
(001.120317)  vcan0  00000170   [8]  A2 00 00 00 00 00 00 00
(001.120545)  vcan0  0000014A   [8]  00 00 00 A7 AD 29 FF 5A
(001.120758)  vcan0  00000309   [8]  08 19 00 00 00 00 00 00
(001.120983)  vcan0  0000017C   [8]  4B 00 00 00 00 00 00 00
(001.126427)  vcan0  00000170   [8]  FB 00 00 00 00 00 00 00
(001.126653)  vcan0  0000014A   [8]  00 00 00 A6 07 A6 4E AE
(001.126874)  vcan0  0000017C   [8]  4B 00 00 00 00 00 00 00
(001.127084)  vcan0  00000309   [8]  08 1E 00 00 00 00 00 00
(001.131861)  vcan0  00000309   [8]  08 2E 00 00 00 00 00 00
(001.132086)  vcan0  0000017C   [8]  4B 00 00 00 00 00 00 00
(001.132296)  vcan0  00000170   [8]  27 00 00 00 00 00 00 00
(001.132507)  vcan0  0000014A   [8]  00 00 00 A4 48 AD 65 80
(001.137692)  vcan0  00000309   [8]  08 33 00 00 00 00 00 00
(001.137917)  vcan0  0000017C   [8]  4B 00 00 00 00 00 00 00
(001.138127)  vcan0  00000170   [8]  6D 00 00 00 00 00 00 00
(001.138338)  vcan0  0000014A   [8]  00 00 00 A2 B2 8E A7 F4
(001.144091)  vcan0  0000014A   [8]  00 00 00 A0 E6 BD 03 2A
(001.144306)  vcan0  00000309   [8]  08 43 00 00 00 00 00 00
(001.144516)  vcan0  00000170   [8]  A8 00 00 00 00 00 00 00
(001.144736)  vcan0  0000017C   [8]  4B 00 00 00 00 00 00 00
(001.149972)  vcan0  0000014A   [8]  00 00 00 9F 78 98 0D 46
(001.150192)  vcan0  00000309   [8]  08 49 00 00 00 00 00 00
(001.150415)  vcan0  0000017C   [8]  4B 00 00 00 00 00 00 00
(001.150625)  vcan0  00000170   [8]  2C 00 00 00 00 00 00 00
(001.155929)  vcan0  0000017C   [8]  4B 00 00 00 00 00 00 00
(001.156148)  vcan0  0000014A   [8]  00 00 00 9D E0 DF 3D 0A
(001.156357)  vcan0  00000170   [8]  8A 00 00 00 00 00 00 00
(001.156568)  vcan0  00000309   [8]  08 59 00 00 00 00 00 00
(001.161714)  vcan0  00000309   [8]  08 5F 00 00 00 00 00 00
(001.161938)  vcan0  0000017C   [8]  4B 00 00 00 00 00 00 00
(001.162147)  vcan0  00000170   [8]  2F 00 00 00 00 00 00 00
(001.162357)  vcan0  0000014A   [8]  00 00 00 9C 82 A3 5B E6
(001.167764)  vcan0  00000170   [8]  5F 00 00 00 00 00 00 00
(001.167984)  vcan0  00000309   [8]  08 70 00 00 00 00 00 00
(001.168204)  vcan0  0000017C   [8]  4B 00 00 00 00 00 00 00
(001.168414)  vcan0  0000014A   [8]  00 00 00 9A EB A0 97 0E
(001.173818)  vcan0  00000309   [8]  08 76 00 00 00 00 00 00
(001.174032)  vcan0  0000014A   [8]  00 00 00 99 AD 5B FA EA
(001.174241)  vcan0  00000170   [8]  4C 00 00 00 00 00 00 00
(001.174461)  vcan0  0000017C   [8]  4B 00 00 00 00 00 00 00
(001.179742)  vcan0  0000014A   [8]  00 00 00 98 46 EA 83 5A
(001.179955)  vcan0  00000170   [8]  96 00 00 00 00 00 00 00
(001.180167)  vcan0  00000309   [8]  08 87 00 00 00 00 00 00
(001.180386)  vcan0  0000017C   [8]  4B 00 00 00 00 00 00 00
(001.185712)  vcan0  00000170   [8]  8D 00 00 00 00 00 00 00
(001.185936)  vcan0  0000014A   [8]  00 00 00 97 14 4C 2C 34
(001.186148)  vcan0  00000309   [8]  08 8D 00 00 00 00 00 00
(001.186367)  vcan0  0000017C   [8]  4B 00 00 00 00 00 00 00
(001.191668)  vcan0  00000309   [8]  08 9E 00 00 00 00 00 00
(001.191883)  vcan0  0000014A   [8]  00 00 00 95 B0 64 03 18
(001.192104)  vcan0  0000017C   [8]  4B 00 00 00 00 00 00 00
(001.192314)  vcan0  00000170   [8]  2A 00 00 00 00 00 00 00
(001.197796)  vcan0  0000014A   [8]  00 00 00 94 8F 61 DA E2
(001.198022)  vcan0  0000017C   [8]  4B 00 00 00 00 00 00 00
(001.198233)  vcan0  00000170   [8]  F6 00 00 00 00 00 00 00
(001.198444)  vcan0  00000309   [8]  08 A4 00 00 00 00 00 00
(001.203897)  vcan0  00000170   [8]  77 00 00 00 00 00 00 00
(001.204119)  vcan0  0000014A   [8]  00 00 00 93 61 51 69 FE
(001.204331)  vcan0  00000309   [8]  08 B6 00 00 00 00 00 00
(001.204550)  vcan0  0000017C   [8]  4B 00 00 00 00 00 00 00
(001.209937)  vcan0  0000017C   [8]  4B 00 00 00 00 00 00 00
(001.210189)  vcan0  00000170   [8]  2A 00 00 00 00 00 00 00
(001.210404)  vcan0  00000309   [8]  08 BC 00 00 00 00 00 00
(001.210614)  vcan0  0000014A   [8]  00 00 00 92 4D 2B 56 34
(001.216246)  vcan0  00000170   [8]  1F 00 00 00 00 00 00 00
(001.216478)  vcan0  0000017C   [8]  4B 00 00 00 00 00 00 00
(001.216690)  vcan0  0000014A   [8]  00 00 00 91 1C E8 C1 5A
(001.216901)  vcan0  00000309   [8]  08 CE 00 00 00 00 00 00
(001.221885)  vcan0  0000017C   [8]  4B 00 00 00 00 00 00 00
(001.222099)  vcan0  00000170   [8]  81 00 00 00 00 00 00 00
(001.222311)  vcan0  00000309   [8]  08 D4 00 00 00 00 00 00
(001.222522)  vcan0  0000014A   [8]  00 00 00 90 1F 16 61 18
(001.227741)  vcan0  00000170   [8]  58 00 00 00 00 00 00 00
(001.227976)  vcan0  0000017C   [8]  4B 00 00 00 00 00 00 00
(001.228190)  vcan0  0000014A   [8]  00 00 00 8F 19 9B 91 B8
(001.228401)  vcan0  00000309   [8]  08 E6 00 00 00 00 00 00
(001.233729)  vcan0  0000014A   [8]  00 00 00 8E 26 B3 98 F4
(001.233944)  vcan0  00000170   [8]  06 00 00 00 00 00 00 00
(001.234168)  vcan0  0000017C   [8]  4B 00 00 00 00 00 00 00
(001.234378)  vcan0  00000309   [8]  08 ED 00 00 00 00 00 00
(001.239798)  vcan0  00000309   [8]  08 FE 00 00 00 00 00 00
(001.240009)  vcan0  00000170   [8]  F3 00 00 00 00 00 00 00
(001.240229)  vcan0  0000017C   [8]  4B 00 00 00 00 00 00 00
(001.240439)  vcan0  0000014A   [8]  00 00 00 8D 16 C0 53 1A
(001.240646)  vcan0  00000202   [8]  00 67 00 00 00 00 00 00
(001.245747)  vcan0  0000014A   [8]  00 00 00 8C 44 E1 C7 CE
(001.245965)  vcan0  00000309   [8]  09 05 00 00 00 00 00 00
(001.246185)  vcan0  0000017C   [8]  4B 00 00 00 00 00 00 00
(001.246394)  vcan0  00000170   [8]  59 00 00 00 00 00 00 00
(001.252060)  vcan0  0000017C   [8]  4B 00 00 00 00 00 00 00
(001.252276)  vcan0  00000309   [8]  09 17 00 00 00 00 00 00
(001.252487)  vcan0  0000014A   [8]  00 00 00 8B 5C 70 AB BA
(001.252695)  vcan0  00000170   [8]  93 00 00 00 00 00 00 00
(001.257827)  vcan0  0000014A   [8]  00 00 00 8A 8A F4 5A 24
(001.258049)  vcan0  0000017C   [8]  4B 00 00 00 00 00 00 00
(001.258258)  vcan0  00000170   [8]  11 00 00 00 00 00 00 00
(001.258469)  vcan0  00000309   [8]  09 1E 00 00 00 00 00 00
(001.263912)  vcan0  0000014A   [8]  00 00 00 89 A6 3D 44 18
(001.264125)  vcan0  00000170   [8]  4B 00 00 00 00 00 00 00
(001.264347)  vcan0  0000017C   [8]  4B 00 00 00 00 00 00 00
(001.264558)  vcan0  00000309   [8]  09 2F 00 00 00 00 00 00
(001.269843)  vcan0  0000014A   [8]  00 00 00 88 E7 B7 AF 3A
(001.270056)  vcan0  00000170   [8]  C6 00 00 00 00 00 00 00
(001.270271)  vcan0  00000309   [8]  09 37 00 00 00 00 00 00
(001.270490)  vcan0  0000017C   [8]  4B 00 00 00 00 00 00 00
(001.275823)  vcan0  0000017C   [8]  4B 00 00 00 00 00 00 00
(001.276041)  vcan0  00000309   [8]  09 48 00 00 00 00 00 00
(001.276251)  vcan0  00000170   [8]  4C 00 00 00 00 00 00 00
(001.276463)  vcan0  0000014A   [8]  00 00 00 88 22 31 AB BA
(001.281885)  vcan0  0000014A   [8]  00 00 00 87 71 05 AD EA
(001.282112)  vcan0  0000017C   [8]  4B 00 00 00 00 00 00 00
(001.282322)  vcan0  00000170   [8]  88 00 00 00 00 00 00 00
(001.282534)  vcan0  00000309   [8]  09 4F 00 00 00 00 00 00
(001.287901)  vcan0  0000014A   [8]  00 00 00 86 A7 E4 6B 60
(001.288114)  vcan0  00000170   [8]  93 00 00 00 00 00 00 00
(001.288338)  vcan0  0000017C   [8]  4B 00 00 00 00 00 00 00
(001.288549)  vcan0  00000309   [8]  09 61 00 00 00 00 00 00
(001.293805)  vcan0  0000014A   [8]  00 00 00 86 08 0E 65 F8
(001.294030)  vcan0  0000017C   [8]  4B 00 00 00 00 00 00 00
(001.294240)  vcan0  00000170   [8]  10 00 00 00 00 00 00 00
(001.294451)  vcan0  00000309   [8]  09 68 00 00 00 00 00 00
(001.299684)  vcan0  0000014A   [8]  00 00 00 85 5B 34 C9 FA
(001.299896)  vcan0  00000170   [8]  A4 00 00 00 00 00 00 00
(001.300115)  vcan0  0000017C   [8]  4B 00 00 00 00 00 00 00
(001.300326)  vcan0  00000309   [8]  09 7A 00 00 00 00 00 00
(001.305707)  vcan0  0000017C   [8]  4B 00 00 00 00 00 00 00
(001.305918)  vcan0  00000170   [8]  24 00 00 00 00 00 00 00
(001.306130)  vcan0  0000014A   [8]  00 00 00 84 C2 9A 47 E2
(001.306340)  vcan0  00000309   [8]  09 82 00 00 00 00 00 00
(001.311743)  vcan0  0000017C   [8]  4B 00 00 00 00 00 00 00
(001.311954)  vcan0  00000170   [8]  29 00 00 00 00 00 00 00
(001.312167)  vcan0  0000014A   [8]  00 00 00 0D 8D 06 17 74
(001.312377)  vcan0  00000309   [8]  09 93 00 00 00 00 00 00
(001.317840)  vcan0  0000017C   [8]  4B 00 00 00 00 00 00 00
(001.318055)  vcan0  00000309   [8]  09 9B 00 00 00 00 00 00
(001.318264)  vcan0  00000170   [8]  12 00 00 00 00 00 00 00
(001.318475)  vcan0  0000014A   [8]  01 FF FF D4 FD 5A B2 00
(001.324078)  vcan0  0000017C   [8]  4B 00 00 00 00 00 00 00
(001.324291)  vcan0  00000170   [8]  21 00 00 00 00 00 00 00
(001.324503)  vcan0  0000014A   [8]  01 FF FF D4 B5 FE CD 92
(001.324713)  vcan0  00000309   [8]  09 AB 00 00 00 00 00 00
(001.329864)  vcan0  00000309   [8]  09 B3 00 00 00 00 00 00
(001.330077)  vcan0  00000170   [8]  C9 00 00 00 00 00 00 00
(001.330300)  vcan0  0000017C   [8]  4B 00 00 00 00 00 00 00
(001.330511)  vcan0  0000014A   [8]  01 FF FF D5 07 BA 20 FA
(001.335630)  vcan0  0000017C   [8]  4B 00 00 00 00 00 00 00
(001.335842)  vcan0  00000170   [8]  DA 00 00 00 00 00 00 00
(001.336056)  vcan0  0000014A   [8]  01 FF FF D6 4D 82 10 BC
(001.336265)  vcan0  00000309   [8]  09 C3 00 00 00 00 00 00
(001.341675)  vcan0  0000017C   [8]  4B 00 00 00 00 00 00 00
(001.341891)  vcan0  0000014A   [8]  01 FF FF D8 1A 02 0A 80
(001.342102)  vcan0  00000309   [8]  09 CB 00 00 00 00 00 00
(001.342310)  vcan0  00000170   [8]  DB 00 00 00 00 00 00 00
(001.347915)  vcan0  00000309   [8]  09 DA 00 00 00 00 00 00
(001.348165)  vcan0  0000017C   [8]  4B 00 00 00 00 00 00 00
(001.348376)  vcan0  00000170   [8]  7D 00 00 00 00 00 00 00
(001.348587)  vcan0  0000014A   [8]  01 FF FF DB 12 F0 F6 94
(001.354553)  vcan0  00000309   [8]  09 E2 00 00 00 00 00 00
(001.354777)  vcan0  0000017C   [8]  4B 00 00 00 00 00 00 00
(001.354987)  vcan0  00000170   [8]  2D 00 00 00 00 00 00 00
(001.355198)  vcan0  0000014A   [8]  01 FF FF DE 29 E7 F4 06
(001.360388)  vcan0  00000170   [8]  87 00 00 00 00 00 00 00
(001.360621)  vcan0  0000017C   [8]  4B 00 00 00 00 00 00 00
(001.360834)  vcan0  00000309   [8]  09 F2 00 00 00 00 00 00
(001.361044)  vcan0  0000014A   [8]  01 FF FF E1 FA 8B 51 B2
(001.365742)  vcan0  00000309   [8]  09 FA 00 00 00 00 00 00
(001.365959)  vcan0  0000014A   [8]  01 FF FF E5 9E 6F 6A DA
(001.366181)  vcan0  0000017C   [8]  4B 00 00 00 00 00 00 00
(001.366391)  vcan0  00000170   [8]  00 00 00 00 00 00 00 00
(001.371777)  vcan0  00000309   [8]  0A 0A 00 00 00 00 00 00
(001.371993)  vcan0  0000014A   [8]  01 FF FF EA 1A 37 1B 8C
(001.372213)  vcan0  0000017C   [8]  4B 00 00 00 00 00 00 00
(001.372423)  vcan0  00000170   [8]  DD 00 00 00 00 00 00 00
(001.377915)  vcan0  00000170   [8]  7D 00 00 00 00 00 00 00
(001.378139)  vcan0  0000014A   [8]  01 FF FF EE 4E 9D AA B4
(001.378360)  vcan0  0000017C   [8]  4B 00 00 00 00 00 00 00
(001.378570)  vcan0  00000309   [8]  0A 11 00 00 00 00 00 00
(001.383929)  vcan0  00000170   [8]  80 00 00 00 00 00 00 00
(001.384151)  vcan0  00000309   [8]  0A 22 00 00 00 00 00 00
(001.384364)  vcan0  0000014A   [8]  01 FF FF F2 FE E5 81 86
(001.384582)  vcan0  0000017C   [8]  4B 00 00 00 00 00 00 00
(001.389821)  vcan0  0000014A   [8]  01 FF FF F7 5B 47 E1 E0
(001.390047)  vcan0  0000017C   [8]  4B 00 00 00 00 00 00 00
(001.390259)  vcan0  00000309   [8]  0A 2A 00 00 00 00 00 00
(001.390468)  vcan0  00000170   [8]  CF 00 00 00 00 00 00 00
(001.395810)  vcan0  0000014A   [8]  01 FF FF FC 20 6A 87 32
(001.396052)  vcan0  0000017C   [8]  4B 00 00 00 00 00 00 00
(001.396264)  vcan0  00000170   [8]  8D 00 00 00 00 00 00 00
(001.396477)  vcan0  00000309   [8]  0A 3B 00 00 00 00 00 00
(001.401805)  vcan0  00000170   [8]  2A 00 00 00 00 00 00 00
(001.402026)  vcan0  0000014A   [8]  00 00 00 00 80 77 36 46
(001.402248)  vcan0  0000017C   [8]  4B 00 00 00 00 00 00 00
(001.402460)  vcan0  00000309   [8]  0A 42 00 00 00 00 00 00
(001.407854)  vcan0  00000170   [8]  B5 00 00 00 00 00 00 00
(001.408077)  vcan0  0000014A   [8]  00 00 00 05 43 46 F9 BA
(001.408289)  vcan0  00000309   [8]  0A 54 00 00 00 00 00 00
(001.408507)  vcan0  0000017C   [8]  3B 43 00 00 00 00 00 00
(001.413672)  vcan0  0000014A   [8]  00 00 00 09 8A 21 16 1E
(001.413887)  vcan0  00000309   [8]  0A 5B 00 00 00 00 00 00
(001.414106)  vcan0  0000017C   [8]  33 30 00 00 00 00 00 00
(001.414315)  vcan0  00000170   [8]  D2 00 00 00 00 00 00 00
(001.419928)  vcan0  0000014A   [8]  00 00 00 0E 2B EE D8 00
(001.420144)  vcan0  00000309   [8]  0A 6C 00 00 00 00 00 00
(001.420363)  vcan0  0000017C   [8]  21 E1 00 00 00 00 00 00
(001.420572)  vcan0  00000170   [8]  ED 00 00 00 00 00 00 00
(001.425794)  vcan0  0000017C   [8]  1A 37 00 00 00 00 00 00
(001.426102)  vcan0  00000170   [8]  42 00 00 00 00 00 00 00
(001.426315)  vcan0  00000309   [8]  0A 74 00 00 00 00 00 00
(001.426525)  vcan0  0000014A   [8]  00 00 00 12 5C 4C CC 90
(001.431644)  vcan0  0000017C   [8]  09 E6 00 00 00 00 00 00
(001.431860)  vcan0  0000014A   [8]  00 00 00 16 CC 64 9D 92
(001.432069)  vcan0  00000170   [8]  83 00 00 00 00 00 00 00
(001.432279)  vcan0  00000309   [8]  0A 84 00 00 00 00 00 00
(001.437922)  vcan0  0000014A   [8]  00 00 00 1A C3 57 63 E4
(001.438134)  vcan0  00000170   [8]  02 00 00 00 00 00 00 00
(001.438354)  vcan0  0000017C   [8]  03 52 00 00 00 00 00 00
(001.438565)  vcan0  00000309   [8]  0A 8A 00 00 00 00 00 00
(001.444714)  vcan0  00000170   [8]  FC 00 00 00 00 00 00 00
(001.444942)  vcan0  00000309   [8]  0A 98 00 00 00 00 00 00
(001.445155)  vcan0  0000014A   [8]  00 00 00 1F 01 D9 47 AC
(001.445376)  vcan0  0000017C   [8]  00 00 00 00 00 00 07 40
(001.450939)  vcan0  00000170   [8]  46 00 00 00 00 00 00 00
(001.451166)  vcan0  00000309   [8]  0A 9D 00 00 00 00 00 00
(001.451388)  vcan0  0000017C   [8]  00 00 00 00 00 00 0A 78
(001.451599)  vcan0  0000014A   [8]  00 00 00 22 C8 7D 41 4A
(001.456178)  vcan0  0000014A   [8]  00 00 00 26 C5 27 5E CE
(001.456404)  vcan0  0000017C   [8]  00 00 00 00 00 00 12 38
(001.456614)  vcan0  00000170   [8]  A6 00 00 00 00 00 00 00
(001.456825)  vcan0  00000309   [8]  0A A9 00 00 00 00 00 00
(001.461843)  vcan0  00000170   [8]  26 00 00 00 00 00 00 00
(001.462069)  vcan0  0000017C   [8]  00 00 00 00 00 00 13 30
(001.462280)  vcan0  00000309   [8]  0A AB 00 00 00 00 00 00
(001.462489)  vcan0  0000014A   [8]  00 00 00 2A 53 08 62 8C
(001.467746)  vcan0  00000170   [8]  68 00 00 00 00 00 00 00
(001.467970)  vcan0  00000309   [8]  0A B3 00 00 00 00 00 00
(001.468194)  vcan0  0000017C   [8]  00 00 00 00 00 00 13 30
(001.468406)  vcan0  0000014A   [8]  01 FF FF B3 1D 74 44 BE
(001.473885)  vcan0  0000014A   [8]  01 FF FF B5 59 8E E4 78
(001.474097)  vcan0  00000170   [8]  6E 00 00 00 00 00 00 00
(001.474318)  vcan0  0000017C   [8]  00 00 00 00 00 00 13 30
(001.474528)  vcan0  00000309   [8]  0A B2 00 00 00 00 00 00
(001.479792)  vcan0  0000014A   [8]  01 FF FF B9 26 6A D8 D8
(001.480032)  vcan0  0000017C   [8]  00 00 00 00 00 00 13 30
(001.480246)  vcan0  00000170   [8]  81 00 00 00 00 00 00 00
(001.480457)  vcan0  00000309   [8]  0A B7 00 00 00 00 00 00
(001.486045)  vcan0  00000309   [8]  0A B4 00 00 00 00 00 00
(001.486257)  vcan0  00000170   [8]  FE 00 00 00 00 00 00 00
(001.486478)  vcan0  0000017C   [8]  00 00 00 00 00 00 13 30
(001.486688)  vcan0  0000014A   [8]  01 FF FF BC E5 90 E1 34
(001.486895)  vcan0  00000202   [8]  00 BD 00 00 00 00 00 00
(001.491768)  vcan0  00000309   [8]  0A B5 00 00 00 00 00 00
(001.491985)  vcan0  0000014A   [8]  01 FF FF C2 0E 19 01 24
(001.492193)  vcan0  00000170   [8]  AA 00 00 00 00 00 00 00
(001.492412)  vcan0  0000017C   [8]  00 00 00 00 00 00 13 30
(001.497773)  vcan0  0000017C   [8]  00 00 00 00 00 00 13 30
(001.497986)  vcan0  00000170   [8]  8D 00 00 00 00 00 00 00
(001.498199)  vcan0  0000014A   [8]  01 FF FF C6 BE 07 C9 2E
(001.498409)  vcan0  00000309   [8]  0A B0 00 00 00 00 00 00
(001.504198)  vcan0  0000017C   [8]  00 00 00 00 00 00 13 30
(001.504415)  vcan0  0000014A   [8]  01 FF FF CC 85 15 20 AC
(001.504624)  vcan0  00000170   [8]  37 00 00 00 00 00 00 00
(001.504838)  vcan0  000001A3   [8]  00 00 00 00 00 00 00 00
(001.505047)  vcan0  00000309   [8]  0A B1 00 00 00 00 00 00
(001.505256)  vcan0  0000018F   [8]  00 00 6A 00 00 00 00 00
(001.509971)  vcan0  0000014A   [8]  01 FF FF D1 84 64 34 16
(001.510195)  vcan0  0000017C   [8]  00 00 00 00 00 00 13 30
(001.510405)  vcan0  00000309   [8]  0A AA 00 00 00 00 00 00
(001.510613)  vcan0  00000170   [8]  01 00 00 00 00 00 00 00
(001.515931)  vcan0  0000014A   [8]  01 FF FF D7 73 87 8E 4C
(001.516143)  vcan0  00000170   [8]  02 00 00 00 00 00 00 00
(001.516364)  vcan0  0000017C   [8]  00 00 00 00 00 00 13 30
(001.516574)  vcan0  00000309   [8]  0A AB 00 00 00 00 00 00
(001.521929)  vcan0  0000017C   [8]  00 00 00 00 00 00 0F 38
(001.522143)  vcan0  0000014A   [8]  01 FF FF DC 88 FE 62 DA
(001.522353)  vcan0  00000170   [8]  79 00 00 00 00 00 00 00
(001.522564)  vcan0  00000309   [8]  0A A3 00 00 00 00 00 00
(001.528153)  vcan0  00000309   [8]  0A A3 00 00 00 00 00 00
(001.528374)  vcan0  0000017C   [8]  00 00 00 00 00 00 0F 10
(001.528584)  vcan0  0000014A   [8]  01 FF FF E2 98 B1 A8 5E
(001.528792)  vcan0  00000170   [8]  C6 00 00 00 00 00 00 00
(001.534047)  vcan0  00000170   [8]  A7 00 00 00 00 00 00 00
(001.534269)  vcan0  0000014A   [8]  01 FF FF E7 DF 21 D6 08
(001.534480)  vcan0  00000309   [8]  0A 9A 00 00 00 00 00 00
(001.534698)  vcan0  0000017C   [8]  00 00 00 00 00 00 09 B0
(001.539750)  vcan0  0000017C   [8]  00 00 00 00 00 00 09 70
(001.539966)  vcan0  00000170   [8]  F5 00 00 00 00 00 00 00
(001.540179)  vcan0  0000014A   [8]  01 FF FF ED CA FD 40 7E
(001.540388)  vcan0  00000309   [8]  0A 9A 00 00 00 00 00 00
(001.545772)  vcan0  00000170   [8]  DC 00 00 00 00 00 00 00
(001.546000)  vcan0  0000017C   [8]  00 00 00 00 00 00 03 F0
(001.546213)  vcan0  0000014A   [8]  01 FF FF F2 E7 97 CD 82
(001.546422)  vcan0  00000309   [8]  0A 91 00 00 00 00 00 00
(001.551711)  vcan0  00000170   [8]  70 00 00 00 00 00 00 00
(001.551930)  vcan0  00000309   [8]  0A 91 00 00 00 00 00 00
(001.552141)  vcan0  0000014A   [8]  01 FF FF F8 A5 1A C0 48
(001.552358)  vcan0  0000017C   [8]  00 00 00 00 00 00 03 A8
(001.557787)  vcan0  00000309   [8]  0A 89 00 00 00 00 00 00
(001.557999)  vcan0  00000170   [8]  8C 00 00 00 00 00 00 00
(001.558212)  vcan0  0000014A   [8]  01 FF FF FD 92 D9 DE 00
(001.558429)  vcan0  0000017C   [8]  02 FF 00 00 00 00 00 00
(001.563763)  vcan0  00000170   [8]  6F 00 00 00 00 00 00 00
(001.563981)  vcan0  0000014A   [8]  00 00 00 03 03 6B 57 D4
(001.564199)  vcan0  0000017C   [8]  03 62 00 00 00 00 00 00
(001.564409)  vcan0  00000309   [8]  0A 88 00 00 00 00 00 00
(001.570009)  vcan0  00000170   [8]  6E 00 00 00 00 00 00 00
(001.570229)  vcan0  00000309   [8]  0A 80 00 00 00 00 00 00
(001.570441)  vcan0  0000014A   [8]  00 00 00 07 B2 4C 0A 7A
(001.570659)  vcan0  0000017C   [8]  0C 34 00 00 00 00 00 00
(001.576426)  vcan0  0000017C   [8]  0C A3 00 00 00 00 00 00
(001.576639)  vcan0  0000014A   [8]  00 00 00 0C D5 EE 5F 66
(001.576847)  vcan0  00000170   [8]  0E 00 00 00 00 00 00 00
(001.577057)  vcan0  00000309   [8]  0A 7F 00 00 00 00 00 00
(001.582053)  vcan0  0000014A   [8]  00 00 00 11 3F F4 A0 6A
(001.582264)  vcan0  00000170   [8]  9D 00 00 00 00 00 00 00
(001.582477)  vcan0  00000309   [8]  0A 76 00 00 00 00 00 00
(001.582694)  vcan0  0000017C   [8]  15 ED 00 00 00 00 00 00
(001.587762)  vcan0  0000014A   [8]  00 00 00 16 11 26 9B 54
(001.587987)  vcan0  0000017C   [8]  16 76 00 00 00 00 00 00
(001.588196)  vcan0  00000170   [8]  E4 00 00 00 00 00 00 00
(001.588406)  vcan0  00000309   [8]  0A 76 00 00 00 00 00 00
(001.593874)  vcan0  00000170   [8]  0A 00 00 00 00 00 00 00
(001.594093)  vcan0  00000309   [8]  0A 6C 00 00 00 00 00 00
(001.594304)  vcan0  0000014A   [8]  00 00 00 1A 28 65 C7 9A
(001.594521)  vcan0  0000017C   [8]  1F D2 00 00 00 00 00 00
(001.599843)  vcan0  0000017C   [8]  20 31 00 00 00 00 00 00
(001.600056)  vcan0  00000309   [8]  0A 6C 00 00 00 00 00 00
(001.600264)  vcan0  00000170   [8]  EB 00 00 00 00 00 00 00
(001.600474)  vcan0  0000014A   [8]  00 00 00 1E A3 F7 56 36
(001.605823)  vcan0  0000014A   [8]  00 00 00 22 7A 62 57 68
(001.606034)  vcan0  00000170   [8]  E6 00 00 00 00 00 00 00
(001.606247)  vcan0  00000309   [8]  0A 63 00 00 00 00 00 00
(001.606465)  vcan0  0000017C   [8]  29 4F 00 00 00 00 00 00
(001.611724)  vcan0  0000014A   [8]  00 00 00 26 9E 1A C9 62
(001.611939)  vcan0  00000309   [8]  0A 63 00 00 00 00 00 00
(001.612148)  vcan0  00000170   [8]  D3 00 00 00 00 00 00 00
(001.612368)  vcan0  0000017C   [8]  29 49 00 00 00 00 00 00
(001.618032)  vcan0  00000309   [8]  0A 5B 00 00 00 00 00 00
(001.618243)  vcan0  00000170   [8]  90 00 00 00 00 00 00 00
(001.618461)  vcan0  0000017C   [8]  31 E2 00 00 00 00 00 00
(001.618671)  vcan0  0000014A   [8]  00 00 00 2A 26 C8 97 90
(001.623734)  vcan0  00000170   [8]  0C 00 00 00 00 00 00 00
(001.623961)  vcan0  0000017C   [8]  31 3E 00 00 00 00 00 00
(001.624172)  vcan0  0000014A   [8]  00 00 00 2D F5 1E E5 7E
(001.624381)  vcan0  00000309   [8]  0A 5C 00 00 00 00 00 00
(001.629673)  vcan0  00000309   [8]  0A 54 00 00 00 00 00 00
(001.629893)  vcan0  0000017C   [8]  39 16 00 00 00 00 00 00
(001.630103)  vcan0  0000014A   [8]  00 00 00 31 3B ED F1 46
(001.630310)  vcan0  00000170   [8]  31 00 00 00 00 00 00 00
(001.635713)  vcan0  0000014A   [8]  00 00 00 34 BE 83 7D D4
(001.635935)  vcan0  0000017C   [8]  37 A8 00 00 00 00 00 00
(001.636145)  vcan0  00000309   [8]  0A 55 00 00 00 00 00 00
(001.636353)  vcan0  00000170   [8]  9C 00 00 00 00 00 00 00
(001.641630)  vcan0  00000309   [8]  0A 4F 00 00 00 00 00 00
(001.641842)  vcan0  0000014A   [8]  00 00 00 37 BA 1D 7B 08
(001.642060)  vcan0  0000017C   [8]  3E 94 00 00 00 00 00 00
(001.642268)  vcan0  00000170   [8]  ED 00 00 00 00 00 00 00
(001.647616)  vcan0  0000014A   [8]  00 00 00 3A F5 0D 36 AE
(001.647829)  vcan0  00000309   [8]  0A 51 00 00 00 00 00 00
(001.648036)  vcan0  00000170   [8]  B2 00 00 00 00 00 00 00
(001.648253)  vcan0  0000017C   [8]  3C 3A 00 00 00 00 00 00
(001.653697)  vcan0  00000309   [8]  0A 4B 00 00 00 00 00 00
(001.653907)  vcan0  00000170   [8]  C7 00 00 00 00 00 00 00
(001.654125)  vcan0  0000017C   [8]  42 20 00 00 00 00 00 00
(001.654335)  vcan0  0000014A   [8]  00 00 00 3D B6 52 06 FA
(001.659638)  vcan0  00000170   [8]  C9 00 00 00 00 00 00 00
(001.659859)  vcan0  00000309   [8]  0A 4F 00 00 00 00 00 00
(001.660079)  vcan0  0000017C   [8]  3E C7 00 00 00 00 00 00
(001.660288)  vcan0  0000014A   [8]  00 00 00 40 A6 46 09 B2
(001.665672)  vcan0  00000170   [8]  A1 00 00 00 00 00 00 00
(001.665899)  vcan0  0000017C   [8]  43 9B 00 00 00 00 00 00
(001.666110)  vcan0  0000014A   [8]  00 00 00 43 2C E4 2F 76
(001.666319)  vcan0  00000309   [8]  0A 4A 00 00 00 00 00 00
(001.671926)  vcan0  0000014A   [8]  00 00 00 45 D7 8D 1E CA
(001.672140)  vcan0  00000309   [8]  0A 4E 00 00 00 00 00 00
(001.672349)  vcan0  00000170   [8]  10 00 00 00 00 00 00 00
(001.672566)  vcan0  0000017C   [8]  3F 3E 00 00 00 00 00 00
(001.677889)  vcan0  00000309   [8]  0A 4A 00 00 00 00 00 00
(001.678103)  vcan0  0000014A   [8]  01 FF FF CE A1 F9 00 FE
(001.678320)  vcan0  0000017C   [8]  43 08 00 00 00 00 00 00
(001.678528)  vcan0  00000170   [8]  66 00 00 00 00 00 00 00
(001.683778)  vcan0  00000309   [8]  0A 50 00 00 00 00 00 00
(001.683994)  vcan0  0000014A   [8]  01 FF FF EC BF 7D 1A 5E
(001.684203)  vcan0  00000170   [8]  23 00 00 00 00 00 00 00
(001.684422)  vcan0  0000017C   [8]  3D DD 00 00 00 00 00 00
(001.689745)  vcan0  00000309   [8]  0A 4D 00 00 00 00 00 00
(001.689958)  vcan0  0000014A   [8]  01 FF FF EF 1F 62 31 E0
(001.690175)  vcan0  0000017C   [8]  40 DB 00 00 00 00 00 00
(001.690383)  vcan0  00000170   [8]  BC 00 00 00 00 00 00 00
(001.695642)  vcan0  0000014A   [8]  01 FF FF F2 A1 1E 56 98
(001.695852)  vcan0  00000170   [8]  07 00 00 00 00 00 00 00
(001.696062)  vcan0  00000309   [8]  0A 52 00 00 00 00 00 00
(001.696279)  vcan0  0000017C   [8]  3B CE 00 00 00 00 00 00
(001.701776)  vcan0  00000170   [8]  0A 00 00 00 00 00 00 00
(001.701992)  vcan0  00000309   [8]  0A 50 00 00 00 00 00 00
(001.702209)  vcan0  0000017C   [8]  3D C2 00 00 00 00 00 00
(001.702418)  vcan0  0000014A   [8]  01 FF FF F5 F3 C3 17 D2
(001.707756)  vcan0  00000309   [8]  0A 56 00 00 00 00 00 00
(001.707980)  vcan0  0000017C   [8]  38 09 00 00 00 00 00 00
(001.708190)  vcan0  0000014A   [8]  01 FF FF FA 03 E3 C8 BC
(001.708397)  vcan0  00000170   [8]  BD 00 00 00 00 00 00 00
(001.714163)  vcan0  0000014A   [8]  01 FF FF FD A1 B5 BC E2
(001.714384)  vcan0  00000170   [8]  F3 00 00 00 00 00 00 00
(001.714624)  vcan0  0000017C   [8]  39 72 00 00 00 00 00 00
(001.714846)  vcan0  00000309   [8]  0A 54 00 00 00 00 00 00
(001.719878)  vcan0  00000309   [8]  0A 5B 00 00 00 00 00 00
(001.720091)  vcan0  00000170   [8]  A7 00 00 00 00 00 00 00
(001.720312)  vcan0  0000017C   [8]  32 BA 00 00 00 00 00 00
(001.720523)  vcan0  0000014A   [8]  00 00 00 01 D9 D4 93 0C
(001.725850)  vcan0  00000309   [8]  0A 5A 00 00 00 00 00 00
(001.726075)  vcan0  0000017C   [8]  33 C6 00 00 00 00 00 00
(001.726284)  vcan0  00000170   [8]  1C 00 00 00 00 00 00 00
(001.726495)  vcan0  0000014A   [8]  00 00 00 05 93 4C 94 66
(001.732339)  vcan0  0000014A   [8]  00 00 00 09 D5 FC 53 84
(001.732583)  vcan0  0000017C   [8]  2C 77 00 00 00 00 00 00
(001.732804)  vcan0  00000202   [8]  00 20 00 00 00 00 00 00
(001.733023)  vcan0  00000309   [8]  0A 61 00 00 00 00 00 00
(001.733230)  vcan0  00000170   [8]  26 00 00 00 00 00 00 00
(001.737923)  vcan0  00000170   [8]  A9 00 00 00 00 00 00 00
(001.738168)  vcan0  0000017C   [8]  2D 51 00 00 00 00 00 00
(001.738392)  vcan0  00000309   [8]  0A 60 00 00 00 00 00 00
(001.738615)  vcan0  0000014A   [8]  00 00 00 0D B3 81 27 F8
(001.744087)  vcan0  00000170   [8]  3F 00 00 00 00 00 00 00
(001.744317)  vcan0  0000017C   [8]  25 CC 00 00 00 00 00 00
(001.744528)  vcan0  00000309   [8]  0A 67 00 00 00 00 00 00
(001.744738)  vcan0  0000014A   [8]  00 00 00 11 FF A0 85 48
(001.750011)  vcan0  00000309   [8]  0A 67 00 00 00 00 00 00
(001.750226)  vcan0  0000014A   [8]  00 00 00 15 C8 D3 54 F6
(001.750443)  vcan0  0000017C   [8]  26 AE 00 00 00 00 00 00
(001.750652)  vcan0  00000170   [8]  F0 00 00 00 00 00 00 00
(001.755962)  vcan0  00000170   [8]  75 00 00 00 00 00 00 00
(001.756186)  vcan0  00000309   [8]  0A 6E 00 00 00 00 00 00
(001.756407)  vcan0  0000017C   [8]  1F 45 00 00 00 00 00 00
(001.756617)  vcan0  0000014A   [8]  00 00 00 19 F7 7D E4 D6
(001.761832)  vcan0  0000017C   [8]  20 67 00 00 00 00 00 00
(001.762047)  vcan0  0000014A   [8]  00 00 00 1D 9B 94 A2 00
(001.762258)  vcan0  00000309   [8]  0A 6D 00 00 00 00 00 00
(001.762466)  vcan0  00000170   [8]  6C 00 00 00 00 00 00 00
(001.767905)  vcan0  0000017C   [8]  19 5C 00 00 00 00 00 00
(001.768120)  vcan0  00000309   [8]  0A 74 00 00 00 00 00 00
(001.768327)  vcan0  00000170   [8]  39 00 00 00 00 00 00 00
(001.768537)  vcan0  0000014A   [8]  00 00 00 21 9D 51 5C 6C
(001.774392)  vcan0  0000017C   [8]  1A F0 00 00 00 00 00 00
(001.774623)  vcan0  0000014A   [8]  00 00 00 25 1B 2B E6 52
(001.774841)  vcan0  00000170   [8]  BF 00 00 00 00 00 00 00
(001.775058)  vcan0  00000309   [8]  0A 72 00 00 00 00 00 00
(001.780006)  vcan0  0000014A   [8]  00 00 00 28 E3 72 F8 4E
(001.780225)  vcan0  00000170   [8]  3A 00 00 00 00 00 00 00
(001.780466)  vcan0  0000017C   [8]  14 75 00 00 00 00 00 00
(001.780694)  vcan0  00000309   [8]  0A 78 00 00 00 00 00 00
(001.785908)  vcan0  00000170   [8]  1B 00 00 00 00 00 00 00
(001.786140)  vcan0  0000014A   [8]  00 00 00 2C 28 EB C1 42
(001.786381)  vcan0  0000017C   [8]  16 9F 00 00 00 00 00 00
(001.786607)  vcan0  00000309   [8]  0A 76 00 00 00 00 00 00
(001.792424)  vcan0  0000014A   [8]  00 00 00 2F C2 28 88 80
(001.792671)  vcan0  0000017C   [8]  10 D1 00 00 00 00 00 00
(001.792885)  vcan0  00000170   [8]  CF 00 00 00 00 00 00 00
(001.793098)  vcan0  00000309   [8]  0A 7C 00 00 00 00 00 00
(001.797952)  vcan0  0000014A   [8]  00 00 00 32 CF 78 06 A4
(001.798192)  vcan0  0000017C   [8]  13 A9 00 00 00 00 00 00
(001.798410)  vcan0  00000170   [8]  B9 00 00 00 00 00 00 00
(001.798635)  vcan0  00000309   [8]  0A 79 00 00 00 00 00 00
(001.803947)  vcan0  00000309   [8]  0A 7E 00 00 00 00 00 00
(001.804167)  vcan0  00000170   [8]  C7 00 00 00 00 00 00 00
(001.804405)  vcan0  0000017C   [8]  0E 95 00 00 00 00 00 00
(001.804629)  vcan0  0000014A   [8]  00 00 00 36 23 CC AE 7C
(001.809822)  vcan0  0000017C   [8]  12 24 00 00 00 00 00 00
(001.810033)  vcan0  00000170   [8]  24 00 00 00 00 00 00 00
(001.810246)  vcan0  00000309   [8]  0A 7A 00 00 00 00 00 00
(001.810456)  vcan0  0000014A   [8]  00 00 00 39 03 08 19 CE
(001.815757)  vcan0  0000017C   [8]  0D C6 00 00 00 00 00 00
(001.815976)  vcan0  00000309   [8]  0A 7F 00 00 00 00 00 00
(001.816183)  vcan0  00000170   [8]  28 00 00 00 00 00 00 00
(001.816393)  vcan0  0000014A   [8]  00 00 00 3C 11 2B 78 2C
(001.821891)  vcan0  0000017C   [8]  12 08 00 00 00 00 00 00
(001.822105)  vcan0  00000309   [8]  0A 7A 00 00 00 00 00 00
(001.822313)  vcan0  00000170   [8]  72 00 00 00 00 00 00 00
(001.822523)  vcan0  0000014A   [8]  00 00 00 3E BD A2 92 B8
(001.828066)  vcan0  0000017C   [8]  0E 51 00 00 00 00 00 00
(001.828279)  vcan0  0000014A   [8]  00 00 00 41 90 F6 3D 3E
(001.828487)  vcan0  00000170   [8]  AD 00 00 00 00 00 00 00
(001.828696)  vcan0  00000309   [8]  0A 7E 00 00 00 00 00 00
(001.833990)  vcan0  00000170   [8]  22 00 00 00 00 00 00 00
(001.834209)  vcan0  0000014A   [8]  00 00 00 44 04 55 FB 3A
(001.834420)  vcan0  00000309   [8]  0A 79 00 00 00 00 00 00
(001.834637)  vcan0  0000017C   [8]  13 36 00 00 00 00 00 00
(001.840216)  vcan0  00000309   [8]  0A 7C 00 00 00 00 00 00
(001.840437)  vcan0  0000017C   [8]  10 0D 00 00 00 00 00 00
(001.840647)  vcan0  0000014A   [8]  00 00 00 46 9F 86 77 8E
(001.840855)  vcan0  00000170   [8]  D5 00 00 00 00 00 00 00
(001.846519)  vcan0  0000014A   [8]  00 00 00 48 E3 EA 78 1A
(001.846741)  vcan0  0000017C   [8]  15 7C 00 00 00 00 00 00
(001.846950)  vcan0  00000309   [8]  0A 77 00 00 00 00 00 00
(001.847159)  vcan0  00000170   [8]  B7 00 00 00 00 00 00 00
(001.851781)  vcan0  00000309   [8]  0A 7A 00 00 00 00 00 00
(001.852004)  vcan0  0000017C   [8]  12 C2 00 00 00 00 00 00
(001.852212)  vcan0  00000170   [8]  AE 00 00 00 00 00 00 00
(001.852423)  vcan0  0000014A   [8]  00 00 00 4B 48 23 D5 B8
(001.857674)  vcan0  0000014A   [8]  00 00 00 4D 50 93 59 94
(001.857889)  vcan0  00000309   [8]  0A 74 00 00 00 00 00 00
(001.858098)  vcan0  00000170   [8]  1C 00 00 00 00 00 00 00
(001.858316)  vcan0  0000017C   [8]  18 9D 00 00 00 00 00 00
(001.863729)  vcan0  0000017C   [8]  16 31 00 00 00 00 00 00
(001.863944)  vcan0  00000309   [8]  0A 76 00 00 00 00 00 00
(001.864154)  vcan0  0000014A   [8]  00 00 00 4F 86 AF 54 30
(001.864362)  vcan0  00000170   [8]  0C 00 00 00 00 00 00 00
(001.869658)  vcan0  00000170   [8]  AF 00 00 00 00 00 00 00
(001.869884)  vcan0  0000017C   [8]  1C 56 00 00 00 00 00 00
(001.870095)  vcan0  0000014A   [8]  00 00 00 51 62 76 91 7C
(001.870303)  vcan0  00000309   [8]  0A 70 00 00 00 00 00 00
(001.875696)  vcan0  00000170   [8]  3F 00 00 00 00 00 00 00
(001.875920)  vcan0  0000017C   [8]  1A 15 00 00 00 00 00 00
(001.876130)  vcan0  00000309   [8]  0A 72 00 00 00 00 00 00
(001.876338)  vcan0  0000014A   [8]  01 FF FF DA 2C E2 73 AE
(001.881695)  vcan0  00000309   [8]  0A 6C 00 00 00 00 00 00
(001.881911)  vcan0  0000014A   [8]  00 00 00 0F 2A 4B 2C 04
(001.882119)  vcan0  00000170   [8]  A2 00 00 00 00 00 00 00
(001.882336)  vcan0  0000017C   [8]  20 71 00 00 00 00 00 00
(001.887733)  vcan0  0000014A   [8]  00 00 00 11 AF 1D C5 1C
(001.887962)  vcan0  00000309   [8]  0A 6E 00 00 00 00 00 00
(001.888202)  vcan0  0000017C   [8]  1E CB 00 00 00 00 00 00
(001.888420)  vcan0  00000170   [8]  B5 00 00 00 00 00 00 00
(001.894193)  vcan0  00000170   [8]  32 00 00 00 00 00 00 00
(001.894428)  vcan0  00000309   [8]  0A 68 00 00 00 00 00 00
(001.894655)  vcan0  0000014A   [8]  00 00 00 14 20 D4 98 A0
(001.894886)  vcan0  0000017C   [8]  25 11 00 00 00 00 00 00
(001.900811)  vcan0  0000017C   [8]  23 91 00 00 00 00 00 00
(001.901040)  vcan0  00000309   [8]  0A 69 00 00 00 00 00 00
(001.901263)  vcan0  0000014A   [8]  00 00 00 17 44 04 D4 80
(001.901479)  vcan0  00000170   [8]  06 00 00 00 00 00 00 00
(001.906381)  vcan0  0000014A   [8]  00 00 00 19 EC AD 89 9C
(001.906621)  vcan0  0000017C   [8]  29 A4 00 00 00 00 00 00
(001.906838)  vcan0  00000170   [8]  BA 00 00 00 00 00 00 00
(001.907074)  vcan0  00000309   [8]  0A 63 00 00 00 00 00 00
(001.911879)  vcan0  0000017C   [8]  27 91 00 00 00 00 00 00
(001.912096)  vcan0  0000014A   [8]  00 00 00 1D 29 E8 E0 7C
(001.912306)  vcan0  00000309   [8]  0A 65 00 00 00 00 00 00
(001.912515)  vcan0  00000170   [8]  BD 00 00 00 00 00 00 00
(001.917891)  vcan0  0000014A   [8]  00 00 00 1F F9 AA 64 44
(001.918108)  vcan0  00000309   [8]  0A 5F 00 00 00 00 00 00
(001.918317)  vcan0  00000170   [8]  4C 00 00 00 00 00 00 00
(001.918536)  vcan0  0000017C   [8]  2D 68 00 00 00 00 00 00
(001.924362)  vcan0  00000170   [8]  4B 00 00 00 00 00 00 00
(001.924583)  vcan0  00000309   [8]  0A 62 00 00 00 00 00 00
(001.924795)  vcan0  0000014A   [8]  00 00 00 23 35 98 C8 80
(001.925014)  vcan0  0000017C   [8]  2A C2 00 00 00 00 00 00
(001.930552)  vcan0  00000170   [8]  73 00 00 00 00 00 00 00
(001.930779)  vcan0  0000017C   [8]  30 38 00 00 00 00 00 00
(001.930991)  vcan0  0000014A   [8]  00 00 00 26 0C CC 99 50
(001.931200)  vcan0  00000309   [8]  0A 5D 00 00 00 00 00 00
(001.936405)  vcan0  00000170   [8]  95 00 00 00 00 00 00 00
(001.936623)  vcan0  0000014A   [8]  00 00 00 29 58 05 74 A2
(001.936842)  vcan0  0000017C   [8]  2D 05 00 00 00 00 00 00
(001.937051)  vcan0  00000309   [8]  0A 60 00 00 00 00 00 00
(001.942360)  vcan0  0000014A   [8]  00 00 00 2C 36 71 5D 50
(001.942572)  vcan0  00000170   [8]  92 00 00 00 00 00 00 00
(001.942784)  vcan0  00000309   [8]  0A 5B 00 00 00 00 00 00
(001.943003)  vcan0  0000017C   [8]  32 05 00 00 00 00 00 00
(001.947932)  vcan0  00000309   [8]  0A 5F 00 00 00 00 00 00
(001.948144)  vcan0  00000170   [8]  98 00 00 00 00 00 00 00
(001.948365)  vcan0  0000017C   [8]  2E 48 00 00 00 00 00 00
(001.948575)  vcan0  0000014A   [8]  00 00 00 2F 66 D3 19 10
(001.954500)  vcan0  0000014A   [8]  00 00 00 32 32 C4 2D DE
(001.954716)  vcan0  00000309   [8]  0A 5A 00 00 00 00 00 00
(001.954925)  vcan0  00000170   [8]  79 00 00 00 00 00 00 00
(001.955143)  vcan0  0000017C   [8]  32 CA 00 00 00 00 00 00
(001.960415)  vcan0  0000017C   [8]  2E 8B 00 00 00 00 00 00
(001.960630)  vcan0  00000170   [8]  01 00 00 00 00 00 00 00
(001.960843)  vcan0  0000014A   [8]  00 00 00 35 3B 8B 02 DA
(001.961052)  vcan0  00000309   [8]  0A 5F 00 00 00 00 00 00
(001.966164)  vcan0  00000170   [8]  E0 00 00 00 00 00 00 00
(001.966397)  vcan0  0000017C   [8]  32 93 00 00 00 00 00 00
(001.966609)  vcan0  0000014A   [8]  00 00 00 37 E6 86 E4 58
(001.966819)  vcan0  00000309   [8]  0A 5B 00 00 00 00 00 00
(001.972548)  vcan0  00000309   [8]  0A 5F 00 00 00 00 00 00
(001.972775)  vcan0  0000017C   [8]  2D DF 00 00 00 00 00 00
(001.972985)  vcan0  00000170   [8]  B9 00 00 00 00 00 00 00
(001.973197)  vcan0  0000014A   [8]  00 00 00 3A C9 D3 A5 6E
(001.978769)  vcan0  00000309   [8]  0A 5C 00 00 00 00 00 00
(001.979016)  vcan0  0000014A   [8]  00 00 00 3D 4C 07 B1 28
(001.979230)  vcan0  00000170   [8]  1E 00 00 00 00 00 00 00
(001.979452)  vcan0  0000017C   [8]  31 7A 00 00 00 00 00 00
(001.979659)  vcan0  00000202   [8]  00 1A 00 00 00 00 00 00
(001.984290)  vcan0  0000014A   [8]  00 00 00 40 09 A2 C7 BE
(001.984514)  vcan0  0000017C   [8]  2C 63 00 00 00 00 00 00
(001.984723)  vcan0  00000170   [8]  25 00 00 00 00 00 00 00
(001.984935)  vcan0  00000309   [8]  0A 61 00 00 00 00 00 00
(001.990065)  vcan0  00000309   [8]  0A 5E 00 00 00 00 00 00
(001.990284)  vcan0  0000014A   [8]  00 00 00 42 63 3D D9 22
(001.990494)  vcan0  00000170   [8]  25 00 00 00 00 00 00 00
(001.990714)  vcan0  0000017C   [8]  2F A5 00 00 00 00 00 00
(001.996305)  vcan0  0000017C   [8]  2A 43 00 00 00 00 00 00
(001.996521)  vcan0  00000309   [8]  0A 63 00 00 00 00 00 00
(001.996731)  vcan0  0000014A   [8]  00 00 00 44 EE 4D F4 9A
(001.996939)  vcan0  00000170   [8]  40 00 00 00 00 00 00 00
(002.001942)  vcan0  0000014A   [8]  00 00 00 47 22 DC AA CA
(002.002173)  vcan0  0000017C   [8]  2D 44 00 00 00 00 00 00
(002.002384)  vcan0  00000309   [8]  0A 60 00 00 00 00 00 00
(002.002596)  vcan0  000001A3   [8]  00 00 00 00 00 00 00 00
(002.002811)  vcan0  0000037B   [8]  00 00 00 00 00 00 00 00
(002.003026)  vcan0  00000326   [8]  00 00 00 00 00 00 00 00
(002.003235)  vcan0  00000170   [8]  2B 00 00 00 00 00 00 00
(002.003441)  vcan0  0000018F   [8]  00 00 29 00 00 00 00 00
(002.003657)  vcan0  00000374   [8]  00 00 00 00 00 00 00 00
(002.003873)  vcan0  000001A4   [8]  00 67 00 00 00 00 00 00
(002.008450)  vcan0  00000309   [8]  0A 65 00 00 00 00 00 00
(002.008669)  vcan0  0000014A   [8]  00 00 00 49 7C FC 28 52
(002.008879)  vcan0  00000170   [8]  E4 00 00 00 00 00 00 00
(002.009098)  vcan0  0000017C   [8]  27 B2 00 00 00 00 00 00
(002.014196)  vcan0  0000017C   [8]  2A 8D 00 00 00 00 00 00
(002.014413)  vcan0  0000014A   [8]  00 00 00 4B 8A 51 C1 B2
(002.014624)  vcan0  00000170   [8]  4B 00 00 00 00 00 00 00
(002.014835)  vcan0  00000309   [8]  0A 63 00 00 00 00 00 00
(002.020363)  vcan0  00000309   [8]  0A 68 00 00 00 00 00 00
(002.020594)  vcan0  0000017C   [8]  24 E7 00 00 00 00 00 00
(002.020805)  vcan0  00000170   [8]  EB 00 00 00 00 00 00 00
(002.021018)  vcan0  0000014A   [8]  00 00 00 4D B7 34 40 34
(002.025960)  vcan0  00000309   [8]  0A 65 00 00 00 00 00 00
(002.026189)  vcan0  0000017C   [8]  27 B6 00 00 00 00 00 00
(002.026400)  vcan0  00000170   [8]  FC 00 00 00 00 00 00 00
(002.026611)  vcan0  0000014A   [8]  00 00 00 4F A0 E4 58 08
(002.032155)  vcan0  00000170   [8]  3E 00 00 00 00 00 00 00
(002.032376)  vcan0  0000014A   [8]  00 00 00 51 9C 34 B1 E0
(002.032586)  vcan0  00000309   [8]  0A 6B 00 00 00 00 00 00
(002.032803)  vcan0  0000017C   [8]  22 18 00 00 00 00 00 00
(002.038177)  vcan0  00000309   [8]  0A 68 00 00 00 00 00 00
(002.038390)  vcan0  00000170   [8]  82 00 00 00 00 00 00 00
(002.038608)  vcan0  0000017C   [8]  24 F5 00 00 00 00 00 00
(002.038817)  vcan0  0000014A   [8]  00 00 00 53 5A 75 D0 A2
(002.044221)  vcan0  00000309   [8]  0A 6E 00 00 00 00 00 00
(002.044436)  vcan0  00000170   [8]  E0 00 00 00 00 00 00 00
(002.044650)  vcan0  0000014A   [8]  00 00 00 55 31 BE 24 B8
(002.044871)  vcan0  0000017C   [8]  1F 76 00 00 00 00 00 00
(002.050324)  vcan0  0000014A   [8]  00 00 00 56 C4 E4 41 58
(002.050550)  vcan0  0000017C   [8]  22 78 00 00 00 00 00 00
(002.050762)  vcan0  00000309   [8]  0A 6A 00 00 00 00 00 00
(002.050974)  vcan0  00000170   [8]  AB 00 00 00 00 00 00 00
(002.056073)  vcan0  00000170   [8]  07 00 00 00 00 00 00 00
(002.056300)  vcan0  00000309   [8]  0A 70 00 00 00 00 00 00
(002.056512)  vcan0  0000014A   [8]  00 00 00 58 7C 25 BE 5E
(002.056732)  vcan0  0000017C   [8]  1D 2B 00 00 00 00 00 00
(002.062292)  vcan0  00000309   [8]  0A 6C 00 00 00 00 00 00
(002.062508)  vcan0  0000014A   [8]  00 00 00 59 EE 83 9E D2
(002.062727)  vcan0  0000017C   [8]  20 65 00 00 00 00 00 00
(002.062937)  vcan0  00000170   [8]  29 00 00 00 00 00 00 00
(002.068623)  vcan0  0000014A   [8]  00 00 00 5B 74 69 19 44
(002.068857)  vcan0  00000309   [8]  0A 71 00 00 00 00 00 00
(002.069079)  vcan0  00000170   [8]  D8 00 00 00 00 00 00 00
(002.069322)  vcan0  0000017C   [8]  1B 59 00 00 00 00 00 00
(002.074613)  vcan0  00000170   [8]  F4 00 00 00 00 00 00 00
(002.074860)  vcan0  0000014A   [8]  01 FF FF E4 3E D4 D6 36
(002.075076)  vcan0  00000309   [8]  0A 6E 00 00 00 00 00 00
(002.075296)  vcan0  0000017C   [8]  1E D6 00 00 00 00 00 00
(002.080345)  vcan0  00000309   [8]  0A 73 00 00 00 00 00 00
(002.080564)  vcan0  0000014A   [8]  00 00 00 2A 60 E3 8F 4E
(002.080783)  vcan0  0000017C   [8]  1A 3B 00 00 00 00 00 00
(002.080995)  vcan0  00000170   [8]  22 00 00 00 00 00 00 00
(002.086257)  vcan0  0000014A   [8]  00 00 00 2C 2F 0E 32 96
(002.086472)  vcan0  00000170   [8]  FD 00 00 00 00 00 00 00
(002.086695)  vcan0  0000017C   [8]  1E 11 00 00 00 00 00 00
(002.086906)  vcan0  00000309   [8]  0A 6F 00 00 00 00 00 00
(002.091950)  vcan0  0000014A   [8]  00 00 00 2E 77 94 1F BC
(002.092165)  vcan0  00000309   [8]  0A 73 00 00 00 00 00 00
(002.092374)  vcan0  00000170   [8]  C1 00 00 00 00 00 00 00
(002.092592)  vcan0  0000017C   [8]  1A 1B 00 00 00 00 00 00
(002.098646)  vcan0  00000309   [8]  0A 6F 00 00 00 00 00 00
(002.098865)  vcan0  0000014A   [8]  00 00 00 30 7F FC A7 74
(002.099085)  vcan0  0000017C   [8]  1E 1F 00 00 00 00 00 00
(002.099295)  vcan0  00000170   [8]  0F 00 00 00 00 00 00 00
(002.104286)  vcan0  00000309   [8]  0A 72 00 00 00 00 00 00
(002.104503)  vcan0  0000014A   [8]  00 00 00 32 E6 E4 49 C4
(002.104715)  vcan0  00000170   [8]  D8 00 00 00 00 00 00 00
(002.104936)  vcan0  0000017C   [8]  1A 3E 00 00 00 00 00 00
(002.110059)  vcan0  00000309   [8]  0A 6E 00 00 00 00 00 00
(002.110273)  vcan0  0000014A   [8]  00 00 00 34 FF 13 44 0C
(002.110483)  vcan0  00000170   [8]  D9 00 00 00 00 00 00 00
(002.110701)  vcan0  0000017C   [8]  1E 91 00 00 00 00 00 00
(002.115932)  vcan0  0000017C   [8]  1A C7 00 00 00 00 00 00
(002.116144)  vcan0  00000309   [8]  0A 72 00 00 00 00 00 00
(002.116353)  vcan0  00000170   [8]  3B 00 00 00 00 00 00 00
(002.116562)  vcan0  0000014A   [8]  00 00 00 37 76 A4 5B 72
(002.121978)  vcan0  00000170   [8]  B6 00 00 00 00 00 00 00
(002.122200)  vcan0  00000309   [8]  0A 6D 00 00 00 00 00 00
(002.122419)  vcan0  0000017C   [8]  1F 53 00 00 00 00 00 00
(002.122630)  vcan0  0000014A   [8]  00 00 00 39 94 A1 F5 62
(002.127907)  vcan0  0000017C   [8]  1B A2 00 00 00 00 00 00
(002.128120)  vcan0  00000170   [8]  AC 00 00 00 00 00 00 00
(002.128331)  vcan0  0000014A   [8]  00 00 00 3C 09 38 87 92
(002.128540)  vcan0  00000309   [8]  0A 71 00 00 00 00 00 00
(002.133949)  vcan0  0000014A   [8]  00 00 00 3E 32 D4 D5 5A
(002.134162)  vcan0  00000309   [8]  0A 6C 00 00 00 00 00 00
(002.134370)  vcan0  00000170   [8]  3C 00 00 00 00 00 00 00
(002.134587)  vcan0  0000017C   [8]  20 5A 00 00 00 00 00 00
(002.139940)  vcan0  0000014A   [8]  00 00 00 40 A1 43 24 1A
(002.140163)  vcan0  0000017C   [8]  1C BF 00 00 00 00 00 00
(002.140371)  vcan0  00000170   [8]  E2 00 00 00 00 00 00 00
(002.140580)  vcan0  00000309   [8]  0A 70 00 00 00 00 00 00
(002.145873)  vcan0  00000309   [8]  0A 6B 00 00 00 00 00 00
(002.146085)  vcan0  0000014A   [8]  00 00 00 42 C0 A6 23 2A
(002.146293)  vcan0  00000170   [8]  79 00 00 00 00 00 00 00
(002.146509)  vcan0  0000017C   [8]  21 95 00 00 00 00 00 00
(002.152139)  vcan0  0000017C   [8]  1E 07 00 00 00 00 00 00
(002.152355)  vcan0  00000309   [8]  0A 6F 00 00 00 00 00 00
(002.152564)  vcan0  00000170   [8]  EA 00 00 00 00 00 00 00
(002.152774)  vcan0  0000014A   [8]  00 00 00 45 13 49 6E 7A
(002.157751)  vcan0  0000014A   [8]  00 00 00 47 19 DD AE 5A
(002.157968)  vcan0  00000170   [8]  D5 00 00 00 00 00 00 00
(002.158182)  vcan0  00000309   [8]  0A 6A 00 00 00 00 00 00
(002.158401)  vcan0  0000017C   [8]  22 EE 00 00 00 00 00 00
(002.163955)  vcan0  00000309   [8]  0A 6D 00 00 00 00 00 00
(002.164176)  vcan0  00000170   [8]  AE 00 00 00 00 00 00 00
(002.164390)  vcan0  0000014A   [8]  00 00 00 49 50 8B 78 5E
(002.164609)  vcan0  0000017C   [8]  1F 65 00 00 00 00 00 00
(002.170373)  vcan0  00000170   [8]  05 00 00 00 00 00 00 00
(002.170596)  vcan0  0000014A   [8]  00 00 00 4B 37 A0 36 62
(002.170807)  vcan0  00000309   [8]  0A 68 00 00 00 00 00 00
(002.171023)  vcan0  0000017C   [8]  24 50 00 00 00 00 00 00
(002.176305)  vcan0  0000017C   [8]  20 C2 00 00 00 00 00 00
(002.176527)  vcan0  00000170   [8]  2E 00 00 00 00 00 00 00
(002.176740)  vcan0  0000014A   [8]  00 00 00 4D 4D 0B F7 8E
(002.176950)  vcan0  00000309   [8]  0A 6C 00 00 00 00 00 00
(002.182410)  vcan0  0000014A   [8]  00 00 00 4F 17 59 A8 1A
(002.182655)  vcan0  0000017C   [8]  25 A5 00 00 00 00 00 00
(002.182874)  vcan0  00000170   [8]  F2 00 00 00 00 00 00 00
(002.183098)  vcan0  00000309   [8]  0A 67 00 00 00 00 00 00
(002.188234)  vcan0  00000170   [8]  40 00 00 00 00 00 00 00
(002.188482)  vcan0  0000017C   [8]  22 08 00 00 00 00 00 00
(002.188708)  vcan0  0000014A   [8]  00 00 00 51 0B 18 DB 4E
(002.188932)  vcan0  00000309   [8]  0A 6B 00 00 00 00 00 00
(002.194531)  vcan0  00000309   [8]  0A 66 00 00 00 00 00 00
(002.194753)  vcan0  00000170   [8]  07 00 00 00 00 00 00 00
(002.194993)  vcan0  0000017C   [8]  26 DA 00 00 00 00 00 00
(002.195216)  vcan0  0000014A   [8]  00 00 00 52 B6 77 8A 20
(002.200209)  vcan0  00000170   [8]  23 00 00 00 00 00 00 00
(002.200435)  vcan0  00000309   [8]  0A 6A 00 00 00 00 00 00
(002.200655)  vcan0  0000017C   [8]  23 25 00 00 00 00 00 00
(002.200866)  vcan0  0000014A   [8]  00 00 00 54 83 8C D1 5E
(002.206433)  vcan0  00000170   [8]  58 00 00 00 00 00 00 00
(002.206657)  vcan0  0000014A   [8]  00 00 00 56 0E D6 FB 5C
(002.206868)  vcan0  00000309   [8]  0A 65 00 00 00 00 00 00
(002.207087)  vcan0  0000017C   [8]  27 DD 00 00 00 00 00 00
(002.211843)  vcan0  00000170   [8]  49 00 00 00 00 00 00 00
(002.212066)  vcan0  0000014A   [8]  00 00 00 57 BB B8 74 66
(002.212277)  vcan0  00000309   [8]  0A 69 00 00 00 00 00 00
(002.212495)  vcan0  0000017C   [8]  24 0A 00 00 00 00 00 00
(002.218211)  vcan0  00000309   [8]  0A 64 00 00 00 00 00 00
(002.218434)  vcan0  0000017C   [8]  28 A2 00 00 00 00 00 00
(002.218644)  vcan0  0000014A   [8]  00 00 00 59 24 7B 0E CA
(002.218853)  vcan0  00000170   [8]  12 00 00 00 00 00 00 00
(002.224036)  vcan0  00000170   [8]  E0 00 00 00 00 00 00 00
(002.224268)  vcan0  0000017C   [8]  24 AC 00 00 00 00 00 00
(002.224476)  vcan0  00000202   [8]  00 AE 00 00 00 00 00 00
(002.224687)  vcan0  0000014A   [8]  00 00 00 5A AF AF D4 9A
(002.224898)  vcan0  00000309   [8]  0A 68 00 00 00 00 00 00
(002.230131)  vcan0  00000170   [8]  66 00 00 00 00 00 00 00
(002.230368)  vcan0  0000017C   [8]  29 21 00 00 00 00 00 00
(002.230581)  vcan0  00000309   [8]  0A 64 00 00 00 00 00 00
(002.230792)  vcan0  0000014A   [8]  00 00 00 5C 01 63 98 3E
(002.236351)  vcan0  0000014A   [8]  00 00 00 5D 65 B5 B1 78
(002.236567)  vcan0  00000309   [8]  0A 68 00 00 00 00 00 00
(002.236787)  vcan0  0000017C   [8]  25 08 00 00 00 00 00 00
(002.236998)  vcan0  00000170   [8]  33 00 00 00 00 00 00 00
(002.242209)  vcan0  0000017C   [8]  29 58 00 00 00 00 00 00
(002.242424)  vcan0  0000014A   [8]  00 00 00 5E A2 01 34 C8
(002.242633)  vcan0  00000309   [8]  0A 64 00 00 00 00 00 00
(002.242843)  vcan0  00000170   [8]  77 00 00 00 00 00 00 00
(002.248001)  vcan0  0000014A   [8]  00 00 00 5F E4 40 4D FE
(002.248214)  vcan0  00000309   [8]  0A 68 00 00 00 00 00 00
(002.248423)  vcan0  00000170   [8]  66 00 00 00 00 00 00 00
(002.248641)  vcan0  0000017C   [8]  25 1C 00 00 00 00 00 00
(002.254052)  vcan0  00000309   [8]  0A 64 00 00 00 00 00 00
(002.254269)  vcan0  0000014A   [8]  00 00 00 61 00 54 CF 88
(002.254480)  vcan0  00000170   [8]  79 00 00 00 00 00 00 00
(002.254697)  vcan0  0000017C   [8]  29 49 00 00 00 00 00 00
(002.259886)  vcan0  00000170   [8]  9E 00 00 00 00 00 00 00
(002.260109)  vcan0  0000017C   [8]  24 EC 00 00 00 00 00 00
(002.260319)  vcan0  00000309   [8]  0A 68 00 00 00 00 00 00
(002.260529)  vcan0  0000014A   [8]  00 00 00 62 25 F1 AC 42
(002.266273)  vcan0  00000309   [8]  0A 64 00 00 00 00 00 00
(002.266491)  vcan0  0000014A   [8]  00 00 00 63 28 67 7C 36
(002.266703)  vcan0  00000170   [8]  0D 00 00 00 00 00 00 00
(002.266930)  vcan0  0000017C   [8]  28 FB 00 00 00 00 00 00
(002.272669)  vcan0  0000017C   [8]  24 83 00 00 00 00 00 00
(002.272888)  vcan0  0000014A   [8]  00 00 00 64 35 51 3F CC
(002.273100)  vcan0  00000170   [8]  CA 00 00 00 00 00 00 00
(002.273312)  vcan0  00000309   [8]  0A 68 00 00 00 00 00 00
(002.278090)  vcan0  0000014A   [8]  01 FF FF EF BF EE 0A CA
(002.278302)  vcan0  00000170   [8]  A3 00 00 00 00 00 00 00
(002.278517)  vcan0  00000309   [8]  0A 64 00 00 00 00 00 00
(002.278737)  vcan0  0000017C   [8]  28 78 00 00 00 00 00 00
(002.284350)  vcan0  0000014A   [8]  00 00 00 3F 59 08 99 58
(002.284572)  vcan0  0000017C   [8]  24 11 00 00 00 00 00 00
(002.284782)  vcan0  00000309   [8]  0A 69 00 00 00 00 00 00
(002.284991)  vcan0  00000170   [8]  A8 00 00 00 00 00 00 00
(002.289983)  vcan0  00000170   [8]  2B 00 00 00 00 00 00 00
(002.290204)  vcan0  0000014A   [8]  00 00 00 40 AB 1B 3D E0
(002.290418)  vcan0  00000309   [8]  0A 65 00 00 00 00 00 00
(002.290635)  vcan0  0000017C   [8]  27 F3 00 00 00 00 00 00
(002.296180)  vcan0  00000309   [8]  0A 69 00 00 00 00 00 00
(002.296434)  vcan0  0000017C   [8]  23 9F 00 00 00 00 00 00
(002.296645)  vcan0  00000170   [8]  66 00 00 00 00 00 00 00
(002.296856)  vcan0  0000014A   [8]  00 00 00 42 55 B6 7E 0C
(002.302052)  vcan0  0000014A   [8]  00 00 00 43 CA E1 32 4E
(002.302277)  vcan0  00000170   [8]  8D 00 00 00 00 00 00 00
(002.302497)  vcan0  0000017C   [8]  27 6E 00 00 00 00 00 00
(002.302707)  vcan0  00000309   [8]  0A 66 00 00 00 00 00 00
(002.307976)  vcan0  00000309   [8]  0A 6A 00 00 00 00 00 00
(002.308267)  vcan0  0000017C   [8]  22 F4 00 00 00 00 00 00
(002.308479)  vcan0  0000014A   [8]  00 00 00 45 8B 1C DE 6C
(002.308687)  vcan0  00000170   [8]  54 00 00 00 00 00 00 00
(002.314001)  vcan0  00000170   [8]  B3 00 00 00 00 00 00 00
(002.314307)  vcan0  0000017C   [8]  26 C3 00 00 00 00 00 00
(002.314518)  vcan0  0000014A   [8]  00 00 00 47 17 34 A6 C4
(002.314728)  vcan0  00000309   [8]  0A 66 00 00 00 00 00 00
(002.319978)  vcan0  00000309   [8]  0A 6B 00 00 00 00 00 00
(002.320197)  vcan0  0000014A   [8]  00 00 00 48 DE 8A 70 A6
(002.320417)  vcan0  0000017C   [8]  22 33 00 00 00 00 00 00
(002.320629)  vcan0  00000170   [8]  54 00 00 00 00 00 00 00
(002.326171)  vcan0  0000014A   [8]  00 00 00 4A 72 78 A4 04
(002.326489)  vcan0  0000017C   [8]  26 01 00 00 00 00 00 00
(002.326700)  vcan0  00000309   [8]  0A 67 00 00 00 00 00 00
(002.326909)  vcan0  00000170   [8]  DD 00 00 00 00 00 00 00
(002.332149)  vcan0  0000017C   [8]  21 69 00 00 00 00 00 00
(002.332370)  vcan0  00000309   [8]  0A 6B 00 00 00 00 00 00
(002.332580)  vcan0  00000170   [8]  4E 00 00 00 00 00 00 00
(002.332792)  vcan0  0000014A   [8]  00 00 00 4C 2E 0F 21 6A
(002.338317)  vcan0  0000014A   [8]  00 00 00 4D C8 F8 03 EC
(002.338539)  vcan0  00000309   [8]  0A 68 00 00 00 00 00 00
(002.338759)  vcan0  0000017C   [8]  25 3D 00 00 00 00 00 00
(002.338971)  vcan0  00000170   [8]  9F 00 00 00 00 00 00 00
(002.344080)  vcan0  0000014A   [8]  00 00 00 4F 94 55 D3 66
(002.344298)  vcan0  00000309   [8]  0A 6C 00 00 00 00 00 00
(002.344519)  vcan0  0000017C   [8]  20 A8 00 00 00 00 00 00
(002.344728)  vcan0  00000170   [8]  CC 00 00 00 00 00 00 00
(002.350726)  vcan0  0000014A   [8]  00 00 00 51 17 06 23 B6
(002.350938)  vcan0  00000170   [8]  3C 00 00 00 00 00 00 00
(002.351157)  vcan0  0000017C   [8]  24 86 00 00 00 00 00 00
(002.351398)  vcan0  00000309   [8]  0A 68 00 00 00 00 00 00
(002.356650)  vcan0  0000014A   [8]  00 00 00 52 CF 17 6D E2
(002.356873)  vcan0  0000017C   [8]  1F FD 00 00 00 00 00 00
(002.357082)  vcan0  00000170   [8]  90 00 00 00 00 00 00 00
(002.357292)  vcan0  00000309   [8]  0A 6D 00 00 00 00 00 00
(002.361862)  vcan0  00000170   [8]  C3 00 00 00 00 00 00 00
(002.362079)  vcan0  0000014A   [8]  00 00 00 54 47 98 E9 B2
(002.362291)  vcan0  00000309   [8]  0A 69 00 00 00 00 00 00
(002.362508)  vcan0  0000017C   [8]  23 EB 00 00 00 00 00 00
(002.368189)  vcan0  0000017C   [8]  1F 73 00 00 00 00 00 00
(002.368413)  vcan0  00000170   [8]  BD 00 00 00 00 00 00 00
(002.368637)  vcan0  0000014A   [8]  00 00 00 55 E4 9A 09 26
(002.368858)  vcan0  00000309   [8]  0A 6D 00 00 00 00 00 00
(002.374123)  vcan0  0000017C   [8]  23 73 00 00 00 00 00 00
(002.374338)  vcan0  00000170   [8]  14 00 00 00 00 00 00 00
(002.374551)  vcan0  00000309   [8]  0A 69 00 00 00 00 00 00
(002.374762)  vcan0  0000014A   [8]  00 00 00 57 47 F7 5E FE
(002.380026)  vcan0  0000014A   [8]  00 00 00 58 D0 1E D9 F8
(002.380326)  vcan0  0000017C   [8]  1F 10 00 00 00 00 00 00
(002.380537)  vcan0  00000170   [8]  E5 00 00 00 00 00 00 00
(002.380748)  vcan0  00000309   [8]  0A 6E 00 00 00 00 00 00
(002.386170)  vcan0  00000309   [8]  0A 6A 00 00 00 00 00 00
(002.386399)  vcan0  0000017C   [8]  23 27 00 00 00 00 00 00
(002.386609)  vcan0  00000170   [8]  5A 00 00 00 00 00 00 00
(002.386823)  vcan0  0000014A   [8]  00 00 00 5A 1D E5 F3 90
(002.392068)  vcan0  0000017C   [8]  1E D9 00 00 00 00 00 00
(002.392283)  vcan0  00000170   [8]  9C 00 00 00 00 00 00 00
(002.392499)  vcan0  0000014A   [8]  00 00 00 5B 88 C7 32 0A
(002.392709)  vcan0  00000309   [8]  0A 6E 00 00 00 00 00 00
(002.398274)  vcan0  0000014A   [8]  00 00 00 5C C0 27 62 BA
(002.398492)  vcan0  00000309   [8]  0A 6A 00 00 00 00 00 00
(002.398702)  vcan0  00000170   [8]  B9 00 00 00 00 00 00 00
(002.398921)  vcan0  0000017C   [8]  23 06 00 00 00 00 00 00
(002.404049)  vcan0  00000170   [8]  35 00 00 00 00 00 00 00
(002.404273)  vcan0  0000014A   [8]  00 00 00 5E 11 6F 51 F8
(002.404493)  vcan0  0000017C   [8]  1E CF 00 00 00 00 00 00
(002.404704)  vcan0  00000309   [8]  0A 6E 00 00 00 00 00 00
(002.410104)  vcan0  00000170   [8]  13 00 00 00 00 00 00 00
(002.410329)  vcan0  00000309   [8]  0A 6A 00 00 00 00 00 00
(002.410551)  vcan0  0000017C   [8]  23 12 00 00 00 00 00 00
(002.410764)  vcan0  0000014A   [8]  00 00 00 5F 34 1F 57 40
(002.416388)  vcan0  0000017C   [8]  1E EE 00 00 00 00 00 00
(002.416606)  vcan0  00000170   [8]  7C 00 00 00 00 00 00 00
