(0.002147) vcan0  000001A4   [8]  00 67 00 00 00 00 00 00
(0.002264) vcan0  00000326   [8]  00 00 00 00 00 00 00 00
(0.002546) vcan0  0000017C   [8]  4B 00 00 00 00 00 00 00
(0.002852) vcan0  000001A3   [8]  00 00 00 00 00 00 00 00
(0.003055) vcan0  0000037B   [8]  00 00 00 00 00 00 00 00
(0.003145) vcan0  0000014A   [8]  00 00 00 EE 6B 28 1D CE
(0.003221) vcan0  00000309   [8]  01 AA 00 00 00 00 00 00
(0.003231) vcan0  00000374   [8]  00 00 00 00 00 00 00 00
(0.017730) vcan0  0000017C   [8]  4B 00 00 00 00 00 00 00
(0.017904) vcan0  000001A3   [8]  00 00 00 00 00 00 00 00
(0.018180) vcan0  000001A4   [8]  00 67 00 00 00 00 00 00
(0.018265) vcan0  00000374   [8]  00 00 00 00 00 00 00 00
(0.018648) vcan0  00000309   [8]  01 5A 00 00 00 00 00 00
(0.018894) vcan0  00000326   [8]  00 00 00 00 00 00 00 00
(0.019216) vcan0  0000014A   [8]  00 00 01 65 A0 BC 3B 9A
(0.019386) vcan0  0000037B   [8]  00 00 00 00 00 00 00 00
(0.027175) vcan0  0000017C   [8]  4B 00 00 00 00 00 00 00
(0.027377) vcan0  00000309   [8]  01 14 00 00 00 00 00 00
(0.027413) vcan0  00000374   [8]  00 00 00 00 00 00 00 00
(0.027562) vcan0  00000326   [8]  00 00 00 00 00 00 00 00
(0.027803) vcan0  0000037B   [8]  00 00 00 00 00 00 00 00
(0.028043) vcan0  0000014A   [8]  00 00 01 DC D6 50 EE 6C
(0.028611) vcan0  000001A4   [8]  00 67 00 00 00 00 00 00
(0.028982) vcan0  000001A3   [8]  00 00 00 00 00 00 00 00
(0.039717) vcan0  000001A3   [8]  00 00 00 00 00 00 00 00
(0.039902) vcan0  00000309   [8]  00 D8 00 00 00 00 00 00
(0.040538) vcan0  0000017C   [8]  4B 00 00 00 00 00 00 00
(0.040585) vcan0  0000037B   [8]  00 00 00 00 00 00 00 00
(0.040740) vcan0  0000014A   [8]  00 00 02 54 0B E4 77 36
(0.040772) vcan0  00000374   [8]  00 00 00 00 00 00 00 00
(0.040929) vcan0  00000326   [8]  00 00 00 00 00 00 00 00
(0.041354) vcan0  000001A4   [8]  00 67 00 00 00 00 00 00
(0.051063) vcan0  0000014A   [8]  00 00 02 CB 41 78 00 00
(0.051086) vcan0  00000326   [8]  00 00 00 00 00 00 00 00
(0.051087) vcan0  0000037B   [8]  00 00 00 00 00 00 00 00
(0.051231) vcan0  000001A3   [8]  00 00 00 00 00 00 00 00
(0.052243) vcan0  0000017C   [8]  4B 00 00 00 00 00 00 00
(0.052479) vcan0  00000309   [8]  00 A5 00 00 00 00 00 00
(0.052483) vcan0  00000374   [8]  00 00 00 00 00 00 00 00
(0.052841) vcan0  000001A4   [8]  00 67 00 00 00 00 00 00
(0.063608) vcan0  000001A3   [8]  00 00 00 00 00 00 00 00
(0.063685) vcan0  0000014A   [8]  00 00 03 42 77 0D DC D6
(0.063819) vcan0  00000374   [8]  00 00 00 00 00 00 00 00
(0.063913) vcan0  00000326   [8]  00 00 00 00 00 00 00 00
(0.064575) vcan0  00000309   [8]  00 79 00 00 00 00 00 00
(0.064840) vcan0  0000037B   [8]  00 00 00 00 00 00 00 00
(0.065193) vcan0  0000017C   [8]  4B 00 00 00 00 00 00 00
(0.065303) vcan0  000001A4   [8]  00 67 00 00 00 00 00 00
(0.075571) vcan0  0000037B   [8]  00 00 00 00 00 00 00 00
(0.075643) vcan0  0000014A   [8]  00 00 03 48 BA 62 59 04
(0.075660) vcan0  00000326   [8]  00 00 00 00 00 00 00 00
(0.076286) vcan0  000001A3   [8]  00 00 00 00 00 00 00 00
(0.076492) vcan0  000001A4   [8]  00 67 00 00 00 00 00 00
(0.076494) vcan0  0000017C   [8]  4B 00 00 00 00 00 00 00
(0.076744) vcan0  00000309   [8]  00 53 00 00 00 00 00 00
(0.076926) vcan0  00000374   [8]  00 00 00 00 00 00 00 00
(0.086361) vcan0  0000014A   [8]  00 00 03 49 A5 16 9F A6
(0.086541) vcan0  000001A4   [8]  00 67 00 00 00 00 00 00
(0.086627) vcan0  0000037B   [8]  00 00 00 00 00 00 00 00
(0.086796) vcan0  00000374   [8]  00 00 00 00 00 00 00 00
(0.087010) vcan0  00000309   [8]  00 33 00 00 00 00 00 00
(0.087048) vcan0  00000326   [8]  00 00 00 00 00 00 00 00
(0.087120) vcan0  000001A3   [8]  00 00 00 00 00 00 00 00
(0.087399) vcan0  0000017C   [8]  4B 00 00 00 00 00 00 00
(0.100193) vcan0  0000037B   [8]  00 00 00 00 00 00 00 00
(0.100757) vcan0  00000326   [8]  00 00 00 00 00 00 00 00
(0.100886) vcan0  0000014A   [8]  00 00 03 4A 8F CA E6 48
(0.101125) vcan0  00000309   [8]  00 19 00 00 00 00 00 00
(0.101354) vcan0  00000374   [8]  00 00 00 00 00 00 00 00
(0.101585) vcan0  000001A4   [8]  00 67 00 00 00 00 00 00
(0.101686) vcan0  0000017C   [8]  4B 00 00 00 00 00 00 00
(0.101850) vcan0  000001A3   [8]  00 00 00 00 00 00 00 00
(0.111328) vcan0  00000326   [8]  00 00 00 00 00 00 00 00
(0.111480) vcan0  00000374   [8]  00 00 00 00 00 00 00 00
(0.112216) vcan0  00000309   [8]  00 02 00 00 00 00 00 00
(0.112265) vcan0  000001A4   [8]  00 67 00 00 00 00 00 00
(0.112518) vcan0  0000017C   [8]  4B 00 00 00 00 00 00 00
(0.112600) vcan0  000001A3   [8]  00 00 00 00 00 00 00 00
(0.112885) vcan0  0000014A   [8]  00 00 03 4B 7A 7F 2C EA
(0.113252) vcan0  0000037B   [8]  00 00 00 00 00 00 00 00
(0.124368) vcan0  0000014A   [8]  00 00 03 4B 7A 7F 2C EA
(0.124783) vcan0  000001A4   [8]  00 67 00 00 00 00 00 00
(0.124809) vcan0  00000326   [8]  00 00 00 00 00 00 00 00
(0.124856) vcan0  000001A3   [8]  00 00 00 00 00 00 00 00
(0.124929) vcan0  00000374   [8]  00 00 00 00 00 00 00 00
(0.124958) vcan0  0000017C   [8]  4B 00 00 00 00 00 00 00
(0.124997) vcan0  0000037B   [8]  00 00 00 00 00 00 00 00
(0.125010) vcan0  00000309   [8]  00 11 00 00 00 00 00 00
(0.136726) vcan0  0000014A   [8]  00 00 03 4B 7A 7F 2C EA
(0.137104) vcan0  00000374   [8]  00 00 00 00 00 00 00 00
(0.137677) vcan0  00000309   [8]  00 20 00 00 00 00 00 00
(0.137814) vcan0  0000037B   [8]  00 00 00 00 00 00 00 00
(0.137821) vcan0  00000326   [8]  00 00 00 00 00 00 00 00
(0.137880) vcan0  000001A4   [8]  00 67 00 00 00 00 00 00
(0.138049) vcan0  000001A3   [8]  00 00 00 00 00 00 00 00
(0.138317) vcan0  0000017C   [8]  4B 00 00 00 00 00 00 00
(0.146976) vcan0  0000014A   [8]  00 00 03 4B 7A 7F 2C EA
(0.147238) vcan0  0000017C   [8]  4B 00 00 00 00 00 00 00
(0.147774) vcan0  0000037B   [8]  00 00 00 00 00 00 00 00
(0.147808) vcan0  00000309   [8]  00 2D 00 00 00 00 00 00
(0.148150) vcan0  000001A4   [8]  00 67 00 00 00 00 00 00
(0.148274) vcan0  000001A3   [8]  00 00 00 00 00 00 00 00
(0.148310) vcan0  00000326   [8]  00 00 00 00 00 00 00 00
(0.148365) vcan0  00000374   [8]  00 00 00 00 00 00 00 00
(0.160689) vcan0  00000326   [8]  00 00 00 00 00 00 00 00
(0.160963) vcan0  000001A4   [8]  00 67 00 00 00 00 00 00
(0.160983) vcan0  000001A3   [8]  00 00 00 00 00 00 00 00
(0.161065) vcan0  0000037B   [8]  00 00 00 00 00 00 00 00
(0.161089) vcan0  0000017C   [8]  4B 00 00 00 00 00 00 00
(0.161208) vcan0  0000014A   [8]  00 00 03 4B 7A 7F 2C EA
(0.161221) vcan0  00000309   [8]  00 37 00 00 00 00 00 00
(0.162132) vcan0  00000374   [8]  00 00 00 00 00 00 00 00
(0.170800) vcan0  00000309   [8]  00 3F 00 00 00 00 00 00
(0.170822) vcan0  00000326   [8]  00 00 00 00 00 00 00 00
(0.170864) vcan0  000001A3   [8]  00 00 00 00 00 00 00 00
(0.171431) vcan0  0000037B   [8]  00 00 00 00 00 00 00 00
(0.171533) vcan0  0000017C   [8]  4B 00 00 00 00 00 00 00
(0.171939) vcan0  00000374   [8]  00 00 00 00 00 00 00 00
(0.172328) vcan0  0000014A   [8]  00 00 03 4B 7A 7F 2C EA
(0.172455) vcan0  000001A4   [8]  00 67 00 00 00 00 00 00
(0.183136) vcan0  0000014A   [8]  00 00 03 4B 7A 7F 2C EA
(0.183166) vcan0  000001A4   [8]  00 67 00 00 00 00 00 00
(0.183744) vcan0  0000037B   [8]  00 00 00 00 00 00 00 00
(0.184006) vcan0  000001A3   [8]  00 00 00 00 00 00 00 00
(0.184099) vcan0  00000326   [8]  00 00 00 00 00 00 00 00
(0.184189) vcan0  00000374   [8]  00 00 00 00 00 00 00 00
(0.184321) vcan0  0000017C   [8]  4B 00 00 00 00 00 00 00
(0.184696) vcan0  00000309   [8]  00 45 00 00 00 00 00 00
(0.195655) vcan0  00000326   [8]  00 00 00 00 00 00 00 00
(0.195745) vcan0  000001A4   [8]  00 67 00 00 00 00 00 00
(0.195843) vcan0  0000037B   [8]  00 00 00 00 00 00 00 00
(0.196839) vcan0  00000309   [8]  00 49 00 00 00 00 00 00
(0.197034) vcan0  0000014A   [8]  00 00 03 4B 7A 7F 2C EA
(0.197106) vcan0  000001A3   [8]  00 00 00 00 00 00 00 00
(0.197387) vcan0  0000017C   [8]  4B 00 00 00 00 00 00 00
(0.197585) vcan0  00000374   [8]  00 00 00 00 00 00 00 00
(0.207906) vcan0  000001A4   [8]  00 67 00 00 00 00 00 00
(0.208000) vcan0  000001A3   [8]  00 00 00 00 00 00 00 00
(0.208026) vcan0  0000017C   [8]  4B 00 00 00 00 00 00 00
(0.208540) vcan0  0000037B   [8]  00 00 00 00 00 00 00 00
(0.208707) vcan0  00000374   [8]  00 00 00 00 00 00 00 00
(0.208904) vcan0  0000014A   [8]  00 00 03 4B 7A 7F 2C EA
(0.208912) vcan0  00000309   [8]  00 4C 00 00 00 00 00 00
(0.209428) vcan0  00000326   [8]  00 00 00 00 00 00 00 00
(0.219524) vcan0  0000014A   [8]  00 00 03 4B 7A 7F 2C EA
(0.219748) vcan0  00000326   [8]  00 00 00 00 00 00 00 00
(0.219820) vcan0  00000309   [8]  00 4E 00 00 00 00 00 00
(0.220129) vcan0  0000017C   [8]  4B 00 00 00 00 00 00 00
(0.220410) vcan0  00000374   [8]  00 00 00 00 00 00 00 00
(0.220501) vcan0  000001A3   [8]  00 00 00 00 00 00 00 00
(0.220851) vcan0  0000037B   [8]  00 00 00 00 00 00 00 00
(0.220939) vcan0  000001A4   [8]  00 67 00 00 00 00 00 00
(0.231517) vcan0  00000326   [8]  00 00 00 00 00 00 00 00
(0.231540) vcan0  00000374   [8]  00 00 00 00 00 00 00 00
(0.231756) vcan0  000001A4   [8]  00 67 00 00 00 00 00 00
(0.231798) vcan0  0000037B   [8]  00 00 00 00 00 00 00 00
(0.231888) vcan0  000001A3   [8]  00 00 00 00 00 00 00 00
(0.232215) vcan0  00000309   [8]  00 4F 00 00 00 00 00 00
(0.232217) vcan0  0000014A   [8]  00 00 03 4B 7A 7F 2C EA
(0.232643) vcan0  0000017C   [8]  4B 00 00 00 00 00 00 00
(0.243411) vcan0  00000374   [8]  00 00 00 00 00 00 00 00
(0.243412) vcan0  000001A4   [8]  00 67 00 00 00 00 00 00
(0.243433) vcan0  0000017C   [8]  4B 00 00 00 00 00 00 00
(0.243589) vcan0  0000014A   [8]  00 00 03 4B 7A 7F 2C EA
(0.244020) vcan0  0000037B   [8]  00 00 00 00 00 00 00 00
(0.244545) vcan0  000001A3   [8]  00 00 00 00 00 00 00 00
(0.244613) vcan0  00000326   [8]  00 00 00 00 00 00 00 00
(0.244918) vcan0  00000309   [8]  00 50 00 00 00 00 00 00
(0.255481) vcan0  000001A3   [8]  00 00 00 00 00 00 00 00
(0.255574) vcan0  0000037B   [8]  00 00 00 00 00 00 00 00
(0.255703) vcan0  000001A4   [8]  00 67 00 00 00 00 00 00
(0.255833) vcan0  0000017C   [8]  4B 00 00 00 00 00 00 00
(0.255968) vcan0  00000326   [8]  00 00 00 00 00 00 00 00
(0.256268) vcan0  00000374   [8]  00 00 00 00 00 00 00 00
(0.256708) vcan0  0000014A   [8]  00 00 03 4B 7A 7F 2C EA
(0.256883) vcan0  00000309   [8]  00 4F 00 00 00 00 00 00
(0.267751) vcan0  0000014A   [8]  00 00 03 4B 7A 7F 2C EA
(0.268185) vcan0  00000374   [8]  00 00 00 00 00 00 00 00
(0.268571) vcan0  00000309   [8]  00 4E 00 00 00 00 00 00
(0.269184) vcan0  0000017C   [8]  4B 00 00 00 00 00 00 00
(0.269222) vcan0  000001A4   [8]  00 67 00 00 00 00 00 00
(0.269231) vcan0  000001A3   [8]  00 00 00 00 00 00 00 00
(0.269287) vcan0  0000037B   [8]  00 00 00 00 00 00 00 00
(0.269358) vcan0  00000326   [8]  00 00 00 00 00 00 00 00
(0.278968) vcan0  0000017C   [8]  4B 00 00 00 00 00 00 00
(0.279100) vcan0  00000309   [8]  00 4D 00 00 00 00 00 00
(0.279315) vcan0  000001A4   [8]  00 67 00 00 00 00 00 00
(0.279569) vcan0  00000374   [8]  00 00 00 00 00 00 00 00
(0.279866) vcan0  0000014A   [8]  00 00 03 4B 7A 7F 2C EA
(0.280046) vcan0  00000326   [8]  00 00 00 00 00 00 00 00
(0.280557) vcan0  000001A3   [8]  00 00 00 00 00 00 00 00
(0.280624) vcan0  0000037B   [8]  00 00 00 00 00 00 00 00
(0.290133) vcan0  0000037B   [8]  00 00 00 00 00 00 00 00
(0.290690) vcan0  00000309   [8]  00 4B 00 00 00 00 00 00
(0.290814) vcan0  0000017C   [8]  4B 00 00 00 00 00 00 00
(0.291397) vcan0  000001A3   [8]  00 00 00 00 00 00 00 00
(0.291583) vcan0  0000014A   [8]  00 00 03 4B 7A 7F 2C EA
(0.291609) vcan0  00000326   [8]  00 00 00 00 00 00 00 00
(0.292024) vcan0  00000374   [8]  00 00 00 00 00 00 00 00
(0.292056) vcan0  000001A4   [8]  00 67 00 00 00 00 00 00
(0.302384) vcan0  00000326   [8]  00 00 00 00 00 00 00 00
(0.302621) vcan0  00000374   [8]  00 00 00 00 00 00 00 00
(0.302699) vcan0  0000017C   [8]  4B 00 00 00 00 00 00 00
(0.302838) vcan0  0000014A   [8]  00 00 03 4B 7A 7F 2C EA
(0.303655) vcan0  000001A3   [8]  00 00 00 00 00 00 00 00
(0.303798) vcan0  0000037B   [8]  00 00 00 00 00 00 00 00
(0.303803) vcan0  000001A4   [8]  00 67 00 00 00 00 00 00
(0.303907) vcan0  00000309   [8]  00 49 00 00 00 00 00 00
(0.315503) vcan0  0000037B   [8]  00 00 00 00 00 00 00 00
(0.315808) vcan0  0000017C   [8]  4B 00 00 00 00 00 00 00
(0.315952) vcan0  00000326   [8]  00 00 00 00 00 00 00 00
(0.316030) vcan0  0000014A   [8]  00 00 03 4B 7A 7F 2C EA
(0.316357) vcan0  00000374   [8]  00 00 00 00 00 00 00 00
(0.316464) vcan0  000001A4   [8]  00 67 00 00 00 00 00 00
(0.316664) vcan0  000001A3   [8]  00 00 00 00 00 00 00 00
(0.317271) vcan0  00000309   [8]  00 47 00 00 00 00 00 00
(0.326367) vcan0  0000037B   [8]  00 00 00 00 00 00 00 00
(0.326368) vcan0  0000014A   [8]  00 00 03 4B 7A 7F 2C EA
(0.326995) vcan0  000001A3   [8]  00 00 00 00 00 00 00 00
(0.327179) vcan0  00000374   [8]  00 00 00 00 00 00 00 00
(0.327234) vcan0  00000309   [8]  00 44 00 00 00 00 00 00
(0.327549) vcan0  000001A4   [8]  00 67 00 00 00 00 00 00
(0.327648) vcan0  0000017C   [8]  4B 00 00 00 00 00 00 00
(0.327815) vcan0  00000326   [8]  00 00 00 00 00 00 00 00
(0.338795) vcan0  00000309   [8]  00 42 00 00 00 00 00 00
(0.338814) vcan0  00000326   [8]  00 00 00 00 00 00 00 00
(0.338927) vcan0  00000374   [8]  00 00 00 00 00 00 00 00
(0.338990) vcan0  000001A4   [8]  00 67 00 00 00 00 00 00
(0.339875) vcan0  0000037B   [8]  00 00 00 00 00 00 00 00
(0.339998) vcan0  0000017C   [8]  4B 00 00 00 00 00 00 00
(0.340012) vcan0  0000014A   [8]  00 00 03 4B 7A 7F 2C EA
(0.340156) vcan0  000001A3   [8]  00 00 00 00 00 00 00 00
(0.350434) vcan0  000001A4   [8]  00 67 00 00 00 00 00 00
(0.350554) vcan0  0000017C   [8]  4B 00 00 00 00 00 00 00
(0.350573) vcan0  00000374   [8]  00 00 00 00 00 00 00 00
(0.350811) vcan0  00000326   [8]  00 00 00 00 00 00 00 00
(0.351008) vcan0  0000037B   [8]  00 00 00 00 00 00 00 00
(0.351188) vcan0  0000014A   [8]  00 00 03 4B 7A 7F 2C EA
(0.351805) vcan0  000001A3   [8]  00 00 00 00 00 00 00 00
(0.352141) vcan0  00000309   [8]  00 3F 00 00 00 00 00 00
(0.361829) vcan0  0000014A   [8]  00 00 03 4B 7A 7F 2C EA
(0.362313) vcan0  000001A3   [8]  00 00 00 00 00 00 00 00
(0.363004) vcan0  00000326   [8]  00 00 00 00 00 00 00 00
(0.363054) vcan0  00000374   [8]  00 00 00 00 00 00 00 00
(0.363097) vcan0  000001A4   [8]  00 67 00 00 00 00 00 00
(0.363480) vcan0  0000017C   [8]  4B 00 00 00 00 00 00 00
(0.363522) vcan0  0000037B   [8]  00 00 00 00 00 00 00 00
(0.363819) vcan0  00000309   [8]  00 3C 00 00 00 00 00 00
(0.374884) vcan0  00000309   [8]  00 39 00 00 00 00 00 00
(0.375295) vcan0  000001A3   [8]  00 00 00 00 00 00 00 00
(0.375417) vcan0  0000014A   [8]  00 00 03 4B 7A 7F 2C EA
(0.375571) vcan0  00000326   [8]  00 00 00 00 00 00 00 00
(0.375779) vcan0  0000037B   [8]  00 00 00 00 00 00 00 00
(0.375932) vcan0  000001A4   [8]  00 67 00 00 00 00 00 00
(0.376002) vcan0  0000017C   [8]  4B 00 00 00 00 00 00 00
(0.376209) vcan0  00000374   [8]  00 00 00 00 00 00 00 00
(0.385960) vcan0  00000309   [8]  00 37 00 00 00 00 00 00
(0.386175) vcan0  0000017C   [8]  4B 00 00 00 00 00 00 00
(0.386371) vcan0  000001A4   [8]  00 67 00 00 00 00 00 00
(0.386425) vcan0  0000014A   [8]  00 00 03 4B 7A 7F 2C EA
(0.386559) vcan0  000001A3   [8]  00 00 00 00 00 00 00 00
(0.386767) vcan0  00000374   [8]  00 00 00 00 00 00 00 00
(0.386772) vcan0  00000326   [8]  00 00 00 00 00 00 00 00
(0.386800) vcan0  0000037B   [8]  00 00 00 00 00 00 00 00
(0.399490) vcan0  0000014A   [8]  00 00 03 4B 7A 7F 2C EA
(0.399764) vcan0  00000326   [8]  00 00 00 00 00 00 00 00
(0.400234) vcan0  0000037B   [8]  00 00 00 00 00 00 00 00
(0.400372) vcan0  0000017C   [8]  4B 00 00 00 00 00 00 00
(0.400723) vcan0  000001A4   [8]  00 67 00 00 00 00 00 00
(0.400758) vcan0  00000374   [8]  00 00 00 00 00 00 00 00
(0.400957) vcan0  00000309   [8]  00 34 00 00 00 00 00 00
(0.400968) vcan0  000001A3   [8]  00 00 00 00 00 00 00 00
(0.410302) vcan0  00000374   [8]  00 00 00 00 00 00 00 00
(0.410433) vcan0  0000017C   [8]  4B 00 00 00 00 00 00 00
(0.411310) vcan0  00000309   [8]  00 31 00 00 00 00 00 00
(0.411373) vcan0  00000326   [8]  00 00 00 00 00 00 00 00
(0.411566) vcan0  000001A3   [8]  00 00 00 00 00 00 00 00
(0.411684) vcan0  0000014A   [8]  00 00 03 4B 7A 7F 2C EA
(0.411720) vcan0  0000037B   [8]  00 00 00 00 00 00 00 00
(0.412041) vcan0  000001A4   [8]  00 67 00 00 00 00 00 00
(0.421713) vcan0  00000374   [8]  00 00 00 00 00 00 00 00
(0.422008) vcan0  000001A4   [8]  00 67 00 00 00 00 00 00
(0.422166) vcan0  00000326   [8]  00 00 00 00 00 00 00 00
(0.422359) vcan0  0000037B   [8]  00 00 00 00 00 00 00 00
(0.422476) vcan0  0000014A   [8]  00 00 03 4B 7A 7F 2C EA
(0.422858) vcan0  00000309   [8]  00 2F 00 00 00 00 00 00
(0.423101) vcan0  000001A3   [8]  00 00 00 00 00 00 00 00
(0.423207) vcan0  0000017C   [8]  4B 00 00 00 00 00 00 00
(0.434367) vcan0  0000037B   [8]  00 00 00 00 00 00 00 00
(0.434540) vcan0  00000326   [8]  00 00 00 00 00 00 00 00
(0.434906) vcan0  00000309   [8]  00 2C 00 00 00 00 00 00
(0.434921) vcan0  00000374   [8]  00 00 00 00 00 00 00 00
(0.435486) vcan0  000001A4   [8]  00 67 00 00 00 00 00 00
(0.435861) vcan0  0000017C   [8]  4B 00 00 00 00 00 00 00
(0.436016) vcan0  000001A3   [8]  00 00 00 00 00 00 00 00
(0.436134) vcan0  0000014A   [8]  00 00 03 4B 7A 7F 2C EA
(0.446420) vcan0  00000374   [8]  00 00 00 00 00 00 00 00
(0.446528) vcan0  0000037B   [8]  00 00 00 00 00 00 00 00
(0.447053) vcan0  0000014A   [8]  00 00 03 4B 7A 7F 2C EA
(0.447426) vcan0  000001A4   [8]  00 67 00 00 00 00 00 00
(0.447478) vcan0  000001A3   [8]  00 00 00 00 00 00 00 00
(0.447576) vcan0  00000309   [8]  00 2A 00 00 00 00 00 00
(0.447836) vcan0  00000326   [8]  00 00 00 00 00 00 00 00
(0.448052) vcan0  0000017C   [8]  4B 00 00 00 00 00 00 00
(0.459688) vcan0  0000014A   [8]  00 00 03 4B 7A 7F 2C EA
(0.459764) vcan0  000001A3   [8]  00 00 00 00 00 00 00 00
(0.459892) vcan0  0000017C   [8]  4B 00 00 00 00 00 00 00
(0.460082) vcan0  00000309   [8]  00 27 00 00 00 00 00 00
(0.460250) vcan0  0000037B   [8]  00 00 00 00 00 00 00 00
(0.460697) vcan0  000001A4   [8]  00 67 00 00 00 00 00 00
(0.461162) vcan0  00000326   [8]  00 00 00 00 00 00 00 00
(0.461400) vcan0  00000374   [8]  00 00 00 00 00 00 00 00
(0.469939) vcan0  0000014A   [8]  00 00 03 4B 7A 7F 2C EA
(0.470052) vcan0  00000309   [8]  00 25 00 00 00 00 00 00
(0.470418) vcan0  00000326   [8]  00 00 00 00 00 00 00 00
(0.470448) vcan0  000001A4   [8]  00 67 00 00 00 00 00 00
(0.470857) vcan0  0000017C   [8]  4B 00 00 00 00 00 00 00
(0.470903) vcan0  00000374   [8]  00 00 00 00 00 00 00 00
(0.471310) vcan0  0000037B   [8]  00 00 00 00 00 00 00 00
(0.471814) vcan0  000001A3   [8]  00 00 00 00 00 00 00 00
(0.482934) vcan0  0000014A   [8]  00 00 03 4B 7A 7F 2C EA
(0.482993) vcan0  000001A3   [8]  00 00 00 00 00 00 00 00
(0.483057) vcan0  0000037B   [8]  00 00 00 00 00 00 00 00
(0.483689) vcan0  00000309   [8]  00 23 00 00 00 00 00 00
(0.483892) vcan0  00000326   [8]  00 00 00 00 00 00 00 00
(0.483932) vcan0  0000017C   [8]  4B 00 00 00 00 00 00 00
(0.483961) vcan0  000001A4   [8]  00 67 00 00 00 00 00 00
(0.484014) vcan0  00000374   [8]  00 00 00 00 00 00 00 00
(0.494701) vcan0  000001A3   [8]  00 00 00 00 00 00 00 00
(0.494980) vcan0  0000037B   [8]  00 00 00 00 00 00 00 00
(0.494983) vcan0  000001A4   [8]  00 67 00 00 00 00 00 00
(0.495033) vcan0  00000326   [8]  00 00 00 00 00 00 00 00
(0.495133) vcan0  00000374   [8]  00 00 00 00 00 00 00 00
(0.495671) vcan0  00000309   [8]  00 21 00 00 00 00 00 00
(0.496090) vcan0  0000014A   [8]  00 00 03 4B 7A 7F 2C EA
(0.496193) vcan0  0000017C   [8]  4B 00 00 00 00 00 00 00
(0.506665) vcan0  00000326   [8]  00 00 00 00 00 00 00 00
(0.507075) vcan0  000001A4   [8]  00 67 00 00 00 00 00 00
(0.507326) vcan0  00000309   [8]  00 1F 00 00 00 00 00 00
(0.507369) vcan0  000001A3   [8]  00 00 00 00 00 00 00 00
(0.507445) vcan0  0000014A   [8]  00 00 03 4B 7A 7F 2C EA
(0.507575) vcan0  0000017C   [8]  4B 00 00 00 00 00 00 00
(0.507640) vcan0  00000374   [8]  00 00 00 00 00 00 00 00
(0.508410) vcan0  0000037B   [8]  00 00 00 00 00 00 00 00
(0.517546) vcan0  0000017C   [8]  4B 00 00 00 00 00 00 00
(0.517553) vcan0  00000326   [8]  00 00 00 00 00 00 00 00
(0.517632) vcan0  000001A3   [8]  00 00 00 00 00 00 00 00
(0.517739) vcan0  000001A4   [8]  00 67 00 00 00 00 00 00
(0.518597) vcan0  00000309   [8]  00 1D 00 00 00 00 00 00
(0.518881) vcan0  00000374   [8]  00 00 00 00 00 00 00 00
(0.518885) vcan0  0000037B   [8]  00 00 00 00 00 00 00 00
(0.518985) vcan0  0000014A   [8]  00 00 03 4B 7A 7F 2C EA
(0.530180) vcan0  000001A3   [8]  00 00 00 00 00 00 00 00
(0.530242) vcan0  000001A4   [8]  00 67 00 00 00 00 00 00
(0.530960) vcan0  0000037B   [8]  00 00 00 00 00 00 00 00
(0.531100) vcan0  0000014A   [8]  00 00 03 4B 7A 7F 2C EA
(0.531276) vcan0  00000326   [8]  00 00 00 00 00 00 00 00
(0.531339) vcan0  00000374   [8]  00 00 00 00 00 00 00 00
(0.531967) vcan0  00000309   [8]  00 1B 00 00 00 00 00 00
(0.531984) vcan0  0000017C   [8]  4B 00 00 00 00 00 00 00
(0.542704) vcan0  0000014A   [8]  00 00 03 4B 7A 7F 2C EA
(0.542815) vcan0  00000309   [8]  00 1A 00 00 00 00 00 00
(0.542965) vcan0  00000326   [8]  00 00 00 00 00 00 00 00
(0.543024) vcan0  0000017C   [8]  4B 00 00 00 00 00 00 00
(0.543737) vcan0  000001A3   [8]  00 00 00 00 00 00 00 00
(0.543852) vcan0  000001A4   [8]  00 67 00 00 00 00 00 00
(0.543871) vcan0  00000374   [8]  00 00 00 00 00 00 00 00
(0.544034) vcan0  0000037B   [8]  00 00 00 00 00 00 00 00
(0.555171) vcan0  00000309   [8]  00 18 00 00 00 00 00 00
(0.555343) vcan0  0000037B   [8]  00 00 00 00 00 00 00 00
(0.555499) vcan0  00000326   [8]  00 00 00 00 00 00 00 00
(0.555626) vcan0  00000374   [8]  00 00 00 00 00 00 00 00
(0.555759) vcan0  000001A4   [8]  00 67 00 00 00 00 00 00
(0.556113) vcan0  000001A3   [8]  00 00 00 00 00 00 00 00
(0.556132) vcan0  0000014A   [8]  00 00 03 4B 7A 7F 2C EA
(0.556574) vcan0  0000017C   [8]  4B 00 00 00 00 00 00 00
(0.564568) vcan0  00000326   [8]  00 00 00 00 00 00 00 00
(0.564630) vcan0  0000017C   [8]  4B 00 00 00 00 00 00 00
(0.565478) vcan0  00000309   [8]  00 16 00 00 00 00 00 00
(0.565635) vcan0  000001A4   [8]  00 67 00 00 00 00 00 00
(0.565739) vcan0  0000037B   [8]  00 00 00 00 00 00 00 00
(0.565991) vcan0  0000014A   [8]  00 00 03 4B 7A 7F 2C EA
(0.566294) vcan0  000001A3   [8]  00 00 00 00 00 00 00 00
(0.566386) vcan0  00000374   [8]  00 00 00 00 00 00 00 00
(0.580701) vcan0  000001A3   [8]  00 00 00 00 00 00 00 00
(0.580998) vcan0  0000037B   [8]  00 00 00 00 00 00 00 00
(0.581521) vcan0  000001A4   [8]  00 67 00 00 00 00 00 00
(0.581826) vcan0  00000326   [8]  00 00 00 00 00 00 00 00
(0.581923) vcan0  00000309   [8]  00 15 00 00 00 00 00 00
(0.581989) vcan0  0000017C   [8]  4B 00 00 00 00 00 00 00
(0.582085) vcan0  0000014A   [8]  00 00 03 4B 7A 7F 2C EA
(0.582304) vcan0  00000374   [8]  00 00 00 00 00 00 00 00
(0.589312) vcan0  0000017C   [8]  4B 00 00 00 00 00 00 00
(0.589560) vcan0  000001A4   [8]  00 67 00 00 00 00 00 00
(0.589834) vcan0  00000374   [8]  00 00 00 00 00 00 00 00
(0.590114) vcan0  0000037B   [8]  00 00 00 00 00 00 00 00
(0.590427) vcan0  000001A3   [8]  00 00 00 00 00 00 00 00
(0.590817) vcan0  00000309   [8]  00 14 00 00 00 00 00 00
(0.590933) vcan0  00000326   [8]  00 00 00 00 00 00 00 00
(0.591077) vcan0  0000014A   [8]  00 00 03 4B 7A 7F 2C EA
(0.601649) vcan0  00000326   [8]  00 00 00 00 00 00 00 00
(0.602246) vcan0  00000374   [8]  00 00 00 00 00 00 00 00
(0.602503) vcan0  0000037B   [8]  00 00 00 00 00 00 00 00
(0.603024) vcan0  000001A3   [8]  00 00 00 00 00 00 00 00
(0.603148) vcan0  0000017C   [8]  4B 00 00 00 00 00 00 00
(0.603394) vcan0  000001A4   [8]  00 67 00 00 00 00 00 00
(0.603412) vcan0  0000014A   [8]  00 00 03 4B 7A 7F 2C EA
(0.603547) vcan0  00000309   [8]  00 12 00 00 00 00 00 00
(0.614986) vcan0  000001A3   [8]  00 00 00 00 00 00 00 00
(0.615249) vcan0  0000017C   [8]  4B 00 00 00 00 00 00 00
(0.615405) vcan0  0000037B   [8]  00 00 00 00 00 00 00 00
(0.615536) vcan0  00000326   [8]  00 00 00 00 00 00 00 00
(0.615651) vcan0  0000014A   [8]  00 00 03 4B 7A 7F 2C EA
(0.615752) vcan0  00000309   [8]  00 11 00 00 00 00 00 00
(0.616154) vcan0  00000374   [8]  00 00 00 00 00 00 00 00
(0.616855) vcan0  000001A4   [8]  00 67 00 00 00 00 00 00
(0.625889) vcan0  00000326   [8]  00 00 00 00 00 00 00 00
(0.626158) vcan0  000001A4   [8]  00 67 00 00 00 00 00 00
(0.626160) vcan0  0000017C   [8]  4B 00 00 00 00 00 00 00
(0.626632) vcan0  00000309   [8]  00 10 00 00 00 00 00 00
(0.626682) vcan0  00000374   [8]  00 00 00 00 00 00 00 00
(0.626684) vcan0  0000014A   [8]  00 00 03 4B 7A 7F 2C EA
(0.626969) vcan0  000001A3   [8]  00 00 00 00 00 00 00 00
(0.627369) vcan0  0000037B   [8]  00 00 00 00 00 00 00 00
(0.638919) vcan0  000001A4   [8]  00 67 00 00 00 00 00 00
(0.639000) vcan0  0000037B   [8]  00 00 00 00 00 00 00 00
(0.639100) vcan0  00000326   [8]  00 00 00 00 00 00 00 00
(0.639558) vcan0  0000017C   [8]  4B 00 00 00 00 00 00 00
(0.639727) vcan0  000001A3   [8]  00 00 00 00 00 00 00 00
(0.639975) vcan0  00000309   [8]  00 0F 00 00 00 00 00 00
(0.640220) vcan0  00000374   [8]  00 00 00 00 00 00 00 00
(0.640241) vcan0  0000014A   [8]  00 00 03 4B 7A 7F 2C EA
(0.649566) vcan0  0000017C   [8]  4B 00 00 00 00 00 00 00
(0.649719) vcan0  00000326   [8]  00 00 00 00 00 00 00 00
(0.649779) vcan0  0000014A   [8]  00 00 03 4B 7A 7F 2C EA
(0.650592) vcan0  00000374   [8]  00 00 00 00 00 00 00 00
(0.650729) vcan0  000001A4   [8]  00 67 00 00 00 00 00 00
(0.650730) vcan0  0000037B   [8]  00 00 00 00 00 00 00 00
(0.650747) vcan0  000001A3   [8]  00 00 00 00 00 00 00 00
(0.650927) vcan0  00000309   [8]  00 0E 00 00 00 00 00 00
(0.661835) vcan0  00000374   [8]  00 00 00 00 00 00 00 00
(0.661988) vcan0  0000037B   [8]  00 00 00 00 00 00 00 00
(0.662057) vcan0  000001A4   [8]  00 67 00 00 00 00 00 00
(0.662773) vcan0  00000309   [8]  00 0D 00 00 00 00 00 00
(0.662821) vcan0  000001A3   [8]  00 00 00 00 00 00 00 00
(0.663103) vcan0  0000014A   [8]  00 00 03 4B 7A 7F 2C EA
(0.663115) vcan0  00000326   [8]  00 00 00 00 00 00 00 00
(0.663206) vcan0  0000017C   [8]  4B 00 00 00 00 00 00 00
(0.673534) vcan0  0000014A   [8]  00 00 03 4B 7A 7F 2C EA
(0.673610) vcan0  000001A4   [8]  00 67 00 00 00 00 00 00
(0.673860) vcan0  0000017C   [8]  4B 00 00 00 00 00 00 00
(0.673902) vcan0  00000374   [8]  00 00 00 00 00 00 00 00
(0.673968) vcan0  000001A3   [8]  00 00 00 00 00 00 00 00
(0.674165) vcan0  00000309   [8]  00 0C 00 00 00 00 00 00
(0.674397) vcan0  00000326   [8]  00 00 00 00 00 00 00 00
(0.675211) vcan0  0000037B   [8]  00 00 00 00 00 00 00 00
(0.687249) vcan0  00000374   [8]  00 00 00 00 00 00 00 00
(0.687435) vcan0  0000014A   [8]  00 00 03 4B 7A 7F 2C EA
(0.687569) vcan0  0000017C   [8]  4B 00 00 00 00 00 00 00
(0.687823) vcan0  00000309   [8]  00 0B 00 00 00 00 00 00
(0.688362) vcan0  000001A4   [8]  00 67 00 00 00 00 00 00
(0.688473) vcan0  000001A3   [8]  00 00 00 00 00 00 00 00
(0.688536) vcan0  0000037B   [8]  00 00 00 00 00 00 00 00
(0.688838) vcan0  00000326   [8]  00 00 00 00 00 00 00 00
(0.697970) vcan0  00000374   [8]  00 00 00 00 00 00 00 00
(0.697979) vcan0  0000014A   [8]  00 00 03 4B 7A 7F 2C EA
(0.698453) vcan0  000001A3   [8]  00 00 00 00 00 00 00 00
(0.698470) vcan0  0000017C   [8]  4B 00 00 00 00 00 00 00
(0.698711) vcan0  0000037B   [8]  00 00 00 00 00 00 00 00
(0.699587) vcan0  00000309   [8]  00 0A 00 00 00 00 00 00
(0.699642) vcan0  00000326   [8]  00 00 00 00 00 00 00 00
(0.699952) vcan0  000001A4   [8]  00 67 00 00 00 00 00 00
(0.709654) vcan0  000001A3   [8]  00 00 00 00 00 00 00 00
(0.709763) vcan0  0000014A   [8]  00 00 03 4B 7A 7F 2C EA
(0.709882) vcan0  000001A4   [8]  00 67 00 00 00 00 00 00
(0.710568) vcan0  00000309   [8]  00 0A 00 00 00 00 00 00
(0.710683) vcan0  00000374   [8]  00 00 00 00 00 00 00 00
(0.710734) vcan0  0000037B   [8]  00 00 00 00 00 00 00 00
(0.710842) vcan0  0000017C   [8]  4B 00 00 00 00 00 00 00
(0.711605) vcan0  00000326   [8]  00 00 00 00 00 00 00 00
(0.722244) vcan0  00000309   [8]  00 09 00 00 00 00 00 00
(0.722354) vcan0  0000017C   [8]  4B 00 00 00 00 00 00 00
(0.722445) vcan0  000001A3   [8]  00 00 00 00 00 00 00 00
(0.722714) vcan0  00000326   [8]  00 00 00 00 00 00 00 00
(0.722933) vcan0  0000037B   [8]  00 00 00 00 00 00 00 00
(0.722942) vcan0  00000374   [8]  00 00 00 00 00 00 00 00
(0.723325) vcan0  000001A4   [8]  00 67 00 00 00 00 00 00
(0.723342) vcan0  0000014A   [8]  00 00 03 4B 78 96 3B 28
(0.733850) vcan0  0000017C   [8]  4B 00 00 00 00 00 00 00
(0.734085) vcan0  000001A4   [8]  00 67 00 00 00 00 00 00
(0.734114) vcan0  00000309   [8]  00 23 00 00 00 00 00 00
(0.734205) vcan0  000001A3   [8]  00 00 00 00 00 00 00 00
(0.734385) vcan0  00000374   [8]  00 00 00 00 00 00 00 00
(0.734529) vcan0  00000326   [8]  00 00 00 00 00 00 00 00
(0.734809) vcan0  0000037B   [8]  00 00 00 00 00 00 00 00
(0.735378) vcan0  0000014A   [8]  00 00 03 49 62 C4 9C F4
(0.747170) vcan0  0000014A   [8]  00 00 03 45 3A DB FB 96
(0.747403) vcan0  000001A3   [8]  00 00 00 00 00 00 00 00
(0.747551) vcan0  00000374   [8]  00 00 00 00 00 00 00 00
(0.747772) vcan0  00000309   [8]  00 69 00 00 00 00 00 00
(0.748267) vcan0  000001A4   [8]  00 67 00 00 00 00 00 00
(0.748574) vcan0  00000326   [8]  00 00 00 00 00 00 00 00
(0.749094) vcan0  0000037B   [8]  00 00 00 00 00 00 00 00
(0.749095) vcan0  0000017C   [8]  4B 00 00 00 00 00 00 00
(0.757876) vcan0  0000037B   [8]  00 00 00 00 00 00 00 00
(0.758165) vcan0  00000309   [8]  00 81 00 00 00 00 00 00
(0.758190) vcan0  00000326   [8]  00 00 00 00 00 00 00 00
(0.758629) vcan0  000001A3   [8]  00 00 00 00 00 00 00 00
(0.758950) vcan0  00000374   [8]  00 00 00 00 00 00 00 00
(0.759085) vcan0  0000014A   [8]  00 00 03 42 74 ED 09 F8
(0.759174) vcan0  000001A4   [8]  00 67 00 00 00 00 00 00
(0.759205) vcan0  0000017C   [8]  4B 00 00 00 00 00 00 00
(0.770363) vcan0  00000326   [8]  00 00 00 00 00 00 00 00
(0.770915) vcan0  0000014A   [8]  00 00 03 3F 4B 0E A9 FC
(0.771197) vcan0  00000374   [8]  00 00 00 00 00 00 00 00
(0.771290) vcan0  0000017C   [8]  4B 00 00 00 00 00 00 00
(0.771291) vcan0  0000037B   [8]  00 00 00 00 00 00 00 00
(0.771452) vcan0  000001A3   [8]  00 00 00 00 00 00 00 00
(0.771695) vcan0  000001A4   [8]  00 67 00 00 00 00 00 00
(0.771943) vcan0  00000309   [8]  00 98 00 00 00 00 00 00
(0.781970) vcan0  000001A4   [8]  00 67 00 00 00 00 00 00
(0.782064) vcan0  00000309   [8]  00 B4 00 00 00 00 00 00
(0.782168) vcan0  0000037B   [8]  00 00 00 00 00 00 00 00
(0.782455) vcan0  0000014A   [8]  00 00 03 3B 7A 67 CE 3C
(0.782608) vcan0  0000017C   [8]  4B 00 00 00 00 00 00 00
(0.782884) vcan0  00000374   [8]  00 00 00 00 00 00 00 00
(0.783141) vcan0  00000326   [8]  00 00 00 00 00 00 00 00
(0.783144) vcan0  000001A3   [8]  00 00 00 00 00 00 00 00
(0.794493) vcan0  0000037B   [8]  00 00 00 00 00 00 00 00
(0.794684) vcan0  00000309   [8]  00 CB 00 00 00 00 00 00
(0.794684) vcan0  0000014A   [8]  00 00 03 37 DD D4 D4 74
(0.794807) vcan0  0000017C   [8]  4B 00 00 00 00 00 00 00
(0.794909) vcan0  000001A3   [8]  00 00 00 00 00 00 00 00
(0.794910) vcan0  000001A4   [8]  00 67 00 00 00 00 00 00
(0.795733) vcan0  00000374   [8]  00 00 00 00 00 00 00 00
(0.796131) vcan0  00000326   [8]  00 00 00 00 00 00 00 00
(0.807626) vcan0  00000326   [8]  00 00 00 00 00 00 00 00
(0.808126) vcan0  0000014A   [8]  00 00 03 33 15 11 C5 9C
(0.808467) vcan0  00000374   [8]  00 00 00 00 00 00 00 00
(0.808962) vcan0  000001A3   [8]  00 00 00 00 00 00 00 00
(0.809415) vcan0  00000309   [8]  00 F3 00 00 00 00 00 00
(0.809435) vcan0  0000017C   [8]  4B 00 00 00 00 00 00 00
(0.809542) vcan0  000001A4   [8]  00 67 00 00 00 00 00 00
(0.809595) vcan0  0000037B   [8]  00 00 00 00 00 00 00 00
(0.818593) vcan0  00000326   [8]  00 00 00 00 00 00 00 00
(0.818925) vcan0  0000017C   [8]  4B 00 00 00 00 00 00 00
(0.819036) vcan0  00000309   [8]  01 09 00 00 00 00 00 00
(0.819139) vcan0  000001A4   [8]  00 67 00 00 00 00 00 00
(0.819501) vcan0  00000374   [8]  00 00 00 00 00 00 00 00
(0.819765) vcan0  0000037B   [8]  00 00 00 00 00 00 00 00
(0.819842) vcan0  000001A3   [8]  00 00 00 00 00 00 00 00
(0.820206) vcan0  0000014A   [8]  00 00 03 2E 69 10 D1 A4
(0.832380) vcan0  0000017C   [8]  4B 00 00 00 00 00 00 00
(0.832629) vcan0  000001A4   [8]  00 67 00 00 00 00 00 00
(0.832657) vcan0  0000037B   [8]  00 00 00 00 00 00 00 00
(0.832700) vcan0  00000326   [8]  00 00 00 00 00 00 00 00
(0.832875) vcan0  0000014A   [8]  00 00 03 2B 23 3D 3A DE
(0.832943) vcan0  000001A3   [8]  00 00 00 00 00 00 00 00
(0.833664) vcan0  00000309   [8]  01 1D 00 00 00 00 00 00
(0.834127) vcan0  00000374   [8]  00 00 00 00 00 00 00 00
(0.842486) vcan0  0000014A   [8]  00 00 03 26 31 0A 68 6A
(0.842825) vcan0  00000309   [8]  01 31 00 00 00 00 00 00
(0.843375) vcan0  00000326   [8]  00 00 00 00 00 00 00 00
(0.843788) vcan0  00000374   [8]  00 00 00 00 00 00 00 00
(0.843811) vcan0  0000037B   [8]  00 00 00 00 00 00 00 00
(0.844090) vcan0  000001A3   [8]  00 00 00 00 00 00 00 00
(0.844209) vcan0  000001A4   [8]  00 67 00 00 00 00 00 00
(0.844271) vcan0  0000017C   [8]  4B 00 00 00 00 00 00 00
(0.855703) vcan0  00000326   [8]  00 00 00 00 00 00 00 00
(0.855907) vcan0  0000017C   [8]  4B 00 00 00 00 00 00 00
(0.856118) vcan0  0000037B   [8]  00 00 00 00 00 00 00 00
(0.856807) vcan0  000001A4   [8]  00 67 00 00 00 00 00 00
(0.857026) vcan0  000001A3   [8]  00 00 00 00 00 00 00 00
(0.857247) vcan0  00000374   [8]  00 00 00 00 00 00 00 00
(0.857364) vcan0  0000014A   [8]  00 00 03 21 66 8C F8 C0
(0.857550) vcan0  00000309   [8]  01 42 00 00 00 00 00 00
(0.866718) vcan0  0000014A   [8]  00 00 03 1C 5D 5C 30 E0
(0.866900) vcan0  0000017C   [8]  4B 00 00 00 00 00 00 00
(0.867172) vcan0  00000309   [8]  01 54 00 00 00 00 00 00
(0.867549) vcan0  000001A4   [8]  00 67 00 00 00 00 00 00
(0.867681) vcan0  00000374   [8]  00 00 00 00 00 00 00 00
(0.867820) vcan0  0000037B   [8]  00 00 00 00 00 00 00 00
(0.868097) vcan0  00000326   [8]  00 00 00 00 00 00 00 00
(0.868316) vcan0  000001A3   [8]  00 00 00 00 00 00 00 00
(0.879087) vcan0  00000326   [8]  00 00 00 00 00 00 00 00
(0.879282) vcan0  00000374   [8]  00 00 00 00 00 00 00 00
(0.879330) vcan0  0000037B   [8]  00 00 00 00 00 00 00 00
(0.879587) vcan0  000001A3   [8]  00 00 00 00 00 00 00 00
(0.879724) vcan0  0000017C   [8]  4B 00 00 00 00 00 00 00
(0.879808) vcan0  000001A4   [8]  00 67 00 00 00 00 00 00
(0.880308) vcan0  00000309   [8]  01 63 00 00 00 00 00 00
(0.880645) vcan0  0000014A   [8]  00 00 03 17 40 EC B6 B6
(0.891134) vcan0  00000374   [8]  00 00 00 00 00 00 00 00
(0.891276) vcan0  0000037B   [8]  00 00 00 00 00 00 00 00
(0.891465) vcan0  0000014A   [8]  00 00 03 11 A5 5C 2B 4E
(0.891710) vcan0  00000309   [8]  01 74 00 00 00 00 00 00
(0.891711) vcan0  000001A3   [8]  00 00 00 00 00 00 00 00
(0.891794) vcan0  0000017C   [8]  4B 00 00 00 00 00 00 00
(0.891918) vcan0  000001A4   [8]  00 67 00 00 00 00 00 00
(0.892689) vcan0  00000326   [8]  00 00 00 00 00 00 00 00
(0.903869) vcan0  000001A4   [8]  00 67 00 00 00 00 00 00
(0.903927) vcan0  00000374   [8]  00 00 00 00 00 00 00 00
(0.903960) vcan0  0000014A   [8]  00 00 03 0B E5 6F 0E 34
(0.904134) vcan0  0000017C   [8]  4B 00 00 00 00 00 00 00
(0.904229) vcan0  00000309   [8]  01 87 00 00 00 00 00 00
(0.904800) vcan0  0000037B   [8]  00 00 00 00 00 00 00 00
(0.904981) vcan0  000001A3   [8]  00 00 00 00 00 00 00 00
(0.905026) vcan0  00000326   [8]  00 00 00 00 00 00 00 00
(0.914851) vcan0  0000037B   [8]  00 00 00 00 00 00 00 00
(0.914967) vcan0  000001A4   [8]  00 67 00 00 00 00 00 00
(0.915110) vcan0  00000326   [8]  00 00 00 00 00 00 00 00
(0.915599) vcan0  00000309   [8]  01 A1 00 00 00 00 00 00
(0.915930) vcan0  0000014A   [8]  00 00 03 04 D5 AA E5 F8
(0.915984) vcan0  000001A3   [8]  00 00 00 00 00 00 00 00
(0.916478) vcan0  00000374   [8]  00 00 00 00 00 00 00 00
(0.916634) vcan0  0000017C   [8]  4B 00 00 00 00 00 00 00
(0.927166) vcan0  000001A4   [8]  00 67 00 00 00 00 00 00
(0.927351) vcan0  0000014A   [8]  00 00 02 FE 82 7E 80 E0
(0.927371) vcan0  00000309   [8]  01 B4 00 00 00 00 00 00
(0.927391) vcan0  0000037B   [8]  00 00 00 00 00 00 00 00
(0.927487) vcan0  000001A3   [8]  00 00 00 00 00 00 00 00
(0.927971) vcan0  00000374   [8]  00 00 00 00 00 00 00 00
(0.928129) vcan0  00000326   [8]  00 00 00 00 00 00 00 00
(0.928693) vcan0  0000017C   [8]  4B 00 00 00 00 00 00 00
(0.940072) vcan0  00000374   [8]  00 00 00 00 00 00 00 00
(0.940177) vcan0  0000037B   [8]  00 00 00 00 00 00 00 00
(0.940302) vcan0  000001A4   [8]  00 67 00 00 00 00 00 00
(0.941136) vcan0  0000014A   [8]  00 00 02 F7 96 73 EF 16
(0.941158) vcan0  00000326   [8]  00 00 00 00 00 00 00 00
(0.941537) vcan0  000001A3   [8]  00 00 00 00 00 00 00 00
(0.941603) vcan0  0000017C   [8]  4B 00 00 00 00 00 00 00
(0.941728) vcan0  00000309   [8]  01 CE 00 00 00 00 00 00
(0.951167) vcan0  000001A3   [8]  00 00 00 00 00 00 00 00
(0.951406) vcan0  000001A4   [8]  00 67 00 00 00 00 00 00
(0.951475) vcan0  0000037B   [8]  00 00 00 00 00 00 00 00
(0.951866) vcan0  0000014A   [8]  00 00 02 F1 06 08 B9 36
(0.951903) vcan0  0000017C   [8]  4B 00 00 00 00 00 00 00
(0.951911) vcan0  00000326   [8]  00 00 00 00 00 00 00 00
(0.951916) vcan0  00000309   [8]  01 DA 00 00 00 00 00 00
(0.952161) vcan0  00000374   [8]  00 00 00 00 00 00 00 00
(0.963235) vcan0  00000374   [8]  00 00 00 00 00 00 00 00
(0.963595) vcan0  0000037B   [8]  00 00 00 00 00 00 00 00
(0.963792) vcan0  0000017C   [8]  4B 00 00 00 00 00 00 00
(0.963910) vcan0  000001A3   [8]  00 00 00 00 00 00 00 00
(0.964487) vcan0  0000014A   [8]  00 00 02 EA 12 4C 68 22
(0.964552) vcan0  00000326   [8]  00 00 00 00 00 00 00 00
(0.964816) vcan0  000001A4   [8]  00 67 00 00 00 00 00 00
(0.965035) vcan0  00000309   [8]  01 F4 00 00 00 00 00 00
(0.974634) vcan0  00000374   [8]  00 00 00 00 00 00 00 00
(0.975361) vcan0  0000037B   [8]  00 00 00 00 00 00 00 00
(0.975513) vcan0  0000017C   [8]  4B 00 00 00 00 00 00 00
(0.975840) vcan0  000001A3   [8]  00 00 00 00 00 00 00 00
(0.975945) vcan0  00000326   [8]  00 00 00 00 00 00 00 00
(0.975992) vcan0  00000309   [8]  01 FE 00 00 00 00 00 00
(0.976128) vcan0  0000014A   [8]  00 00 02 E2 85 1C E7 62
(0.976374) vcan0  000001A4   [8]  00 67 00 00 00 00 00 00
(0.987144) vcan0  0000017C   [8]  4B 00 00 00 00 00 00 00
(0.987145) vcan0  00000374   [8]  00 00 00 00 00 00 00 00
(0.987327) vcan0  00000326   [8]  00 00 00 00 00 00 00 00
(0.987461) vcan0  0000014A   [8]  00 00 02 DB 25 5D 9E B0
(0.987978) vcan0  00000309   [8]  02 17 00 00 00 00 00 00
(0.988539) vcan0  000001A3   [8]  00 00 00 00 00 00 00 00
(0.988949) vcan0  0000037B   [8]  00 00 00 00 00 00 00 00
(0.988964) vcan0  000001A4   [8]  00 67 00 00 00 00 00 00
(0.999244) vcan0  0000017C   [8]  4B 00 00 00 00 00 00 00
(0.999496) vcan0  00000326   [8]  00 00 00 00 00 00 00 00
(0.999592) vcan0  000001A4   [8]  00 67 00 00 00 00 00 00
(0.999610) vcan0  00000309   [8]  02 25 00 00 00 00 00 00
(0.999635) vcan0  0000014A   [8]  00 00 02 D3 1F BA 06 C8
(0.999869) vcan0  000001A3   [8]  00 00 00 00 00 00 00 00
(1.000794) vcan0  00000374   [8]  00 00 00 00 00 00 00 00
(1.000820) vcan0  0000037B   [8]  00 00 00 00 00 00 00 00
(1.011403) vcan0  00000374   [8]  00 00 00 00 00 00 00 00
(1.011502) vcan0  000001A4   [8]  00 67 00 00 00 00 00 00
(1.011841) vcan0  000001A3   [8]  00 00 00 00 00 00 00 00
(1.012042) vcan0  00000326   [8]  00 00 00 00 00 00 00 00
(1.012060) vcan0  0000014A   [8]  00 00 02 CC E5 B5 BA 2A
(1.012070) vcan0  0000017C   [8]  4B 00 00 00 00 00 00 00
(1.012326) vcan0  00000309   [8]  02 37 00 00 00 00 00 00
(1.012908) vcan0  0000037B   [8]  00 00 00 00 00 00 00 00
(1.024039) vcan0  00000326   [8]  00 00 00 00 00 00 00 00
(1.024071) vcan0  0000037B   [8]  00 00 00 00 00 00 00 00
(1.024101) vcan0  000001A4   [8]  00 67 00 00 00 00 00 00
(1.024523) vcan0  0000014A   [8]  00 00 02 C5 4C 9E 78 9E
(1.024727) vcan0  000001A3   [8]  00 00 00 00 00 00 00 00
(1.024805) vcan0  0000017C   [8]  4B 00 00 00 00 00 00 00
(1.024865) vcan0  00000374   [8]  00 00 00 00 00 00 00 00
(1.024963) vcan0  00000309   [8]  02 4A 00 00 00 00 00 00
(1.035400) vcan0  000001A3   [8]  00 00 00 00 00 00 00 00
(1.035461) vcan0  00000326   [8]  00 00 00 00 00 00 00 00
(1.035927) vcan0  0000017C   [8]  4B 00 00 00 00 00 00 00
(1.036030) vcan0  00000374   [8]  00 00 00 00 00 00 00 00
(1.036236) vcan0  0000014A   [8]  00 00 02 BE 69 AC 35 46
(1.036758) vcan0  0000037B   [8]  00 00 00 00 00 00 00 00
(1.036801) vcan0  00000309   [8]  02 55 00 00 00 00 00 00
(1.036839) vcan0  000001A4   [8]  00 67 00 00 00 00 00 00
(1.048012) vcan0  00000309   [8]  02 6F 00 00 00 00 00 00
(1.048016) vcan0  0000014A   [8]  00 00 02 B6 A8 5D 2E 56
(1.048120) vcan0  00000374   [8]  00 00 00 00 00 00 00 00
(1.048415) vcan0  000001A3   [8]  00 00 00 00 00 00 00 00
(1.048646) vcan0  00000326   [8]  00 00 00 00 00 00 00 00
(1.048680) vcan0  0000017C   [8]  4B 00 00 00 00 00 00 00
(1.049051) vcan0  0000037B   [8]  00 00 00 00 00 00 00 00
(1.049378) vcan0  000001A4   [8]  00 67 00 00 00 00 00 00
(1.059072) vcan0  000001A4   [8]  00 67 00 00 00 00 00 00
(1.059109) vcan0  0000017C   [8]  4B 00 00 00 00 00 00 00
(1.059609) vcan0  00000374   [8]  00 00 00 00 00 00 00 00
(1.059619) vcan0  00000309   [8]  02 7B 00 00 00 00 00 00
(1.059644) vcan0  000001A3   [8]  00 00 00 00 00 00 00 00
(1.060045) vcan0  0000014A   [8]  00 00 02 AF 40 05 A5 C0
(1.060817) vcan0  00000326   [8]  00 00 00 00 00 00 00 00
(1.060832) vcan0  0000037B   [8]  00 00 00 00 00 00 00 00
(1.071699) vcan0  00000309   [8]  02 8A 00 00 00 00 00 00
(1.071981) vcan0  0000017C   [8]  4B 00 00 00 00 00 00 00
(1.072137) vcan0  00000326   [8]  00 00 00 00 00 00 00 00
(1.072359) vcan0  000001A3   [8]  00 00 00 00 00 00 00 00
(1.073003) vcan0  0000037B   [8]  00 00 00 00 00 00 00 00
(1.073210) vcan0  000001A4   [8]  00 67 00 00 00 00 00 00
(1.073298) vcan0  0000014A   [8]  00 00 02 A7 D2 36 CD 3E
(1.073444) vcan0  00000374   [8]  00 00 00 00 00 00 00 00
(1.083089) vcan0  0000017C   [8]  4B 00 00 00 00 00 00 00
(1.083107) vcan0  0000037B   [8]  00 00 00 00 00 00 00 00
(1.083423) vcan0  00000309   [8]  02 97 00 00 00 00 00 00
(1.083478) vcan0  00000326   [8]  00 00 00 00 00 00 00 00
(1.084076) vcan0  0000014A   [8]  00 00 02 9F 77 D8 B4 A2
(1.084151) vcan0  000001A4   [8]  00 67 00 00 00 00 00 00
(1.084396) vcan0  000001A3   [8]  00 00 00 00 00 00 00 00
(1.084659) vcan0  00000374   [8]  00 00 00 00 00 00 00 00
(1.094985) vcan0  00000374   [8]  00 00 00 00 00 00 00 00
(1.095075) vcan0  00000309   [8]  02 A5 00 00 00 00 00 00
(1.095508) vcan0  0000017C   [8]  4B 00 00 00 00 00 00 00
(1.095637) vcan0  0000037B   [8]  00 00 00 00 00 00 00 00
(1.095787) vcan0  000001A3   [8]  00 00 00 00 00 00 00 00
(1.096312) vcan0  0000014A   [8]  00 00 02 98 57 E1 D5 AC
(1.096617) vcan0  000001A4   [8]  00 67 00 00 00 00 00 00
(1.096818) vcan0  00000326   [8]  00 00 00 00 00 00 00 00
(1.107159) vcan0  0000017C   [8]  4B 00 00 00 00 00 00 00
(1.107162) vcan0  00000326   [8]  00 00 00 00 00 00 00 00
(1.107260) vcan0  00000374   [8]  00 00 00 00 00 00 00 00
(1.107559) vcan0  0000014A   [8]  00 00 02 90 87 3F 9C 78
(1.107710) vcan0  000001A4   [8]  00 67 00 00 00 00 00 00
(1.107802) vcan0  000001A3   [8]  00 00 00 00 00 00 00 00
(1.108048) vcan0  00000309   [8]  02 B2 00 00 00 00 00 00
(1.108206) vcan0  0000037B   [8]  00 00 00 00 00 00 00 00
(1.118870) vcan0  00000374   [8]  00 00 00 00 00 00 00 00
(1.118971) vcan0  00000309   [8]  02 C0 00 00 00 00 00 00
(1.119075) vcan0  000001A3   [8]  00 00 00 00 00 00 00 00
(1.119391) vcan0  0000017C   [8]  4B 00 00 00 00 00 00 00
(1.119419) vcan0  0000037B   [8]  00 00 00 00 00 00 00 00
(1.119660) vcan0  00000326   [8]  00 00 00 00 00 00 00 00
(1.119827) vcan0  000001A4   [8]  00 67 00 00 00 00 00 00
(1.119871) vcan0  0000014A   [8]  00 00 02 89 01 CF D3 4C
(1.131073) vcan0  0000014A   [8]  00 00 02 80 9B C6 83 18
(1.131109) vcan0  000001A4   [8]  00 67 00 00 00 00 00 00
(1.131142) vcan0  000001A3   [8]  00 00 00 00 00 00 00 00
(1.131344) vcan0  00000326   [8]  00 00 00 00 00 00 00 00
(1.131811) vcan0  0000037B   [8]  00 00 00 00 00 00 00 00
(1.131884) vcan0  00000374   [8]  00 00 00 00 00 00 00 00
(1.132863) vcan0  0000017C   [8]  4B 00 00 00 00 00 00 00
(1.133055) vcan0  00000309   [8]  02 CE 00 00 00 00 00 00
(1.142348) vcan0  000001A3   [8]  00 00 00 00 00 00 00 00
(1.142764) vcan0  00000374   [8]  00 00 00 00 00 00 00 00
(1.142943) vcan0  00000326   [8]  00 00 00 00 00 00 00 00
(1.143580) vcan0  0000014A   [8]  00 00 02 79 1D 44 E5 50
(1.143840) vcan0  0000037B   [8]  00 00 00 00 00 00 00 00
(1.143958) vcan0  00000309   [8]  02 DE 00 00 00 00 00 00
(1.144196) vcan0  000001A4   [8]  00 67 00 00 00 00 00 00
(1.144221) vcan0  0000017C   [8]  4B 00 00 00 00 00 00 00
(1.155320) vcan0  000001A3   [8]  00 00 00 00 00 00 00 00
(1.155325) vcan0  0000017C   [8]  4B 00 00 00 00 00 00 00
(1.155470) vcan0  0000037B   [8]  00 00 00 00 00 00 00 00
(1.155520) vcan0  00000309   [8]  02 EC 00 00 00 00 00 00
(1.156131) vcan0  000001A4   [8]  00 67 00 00 00 00 00 00
(1.156201) vcan0  00000374   [8]  00 00 00 00 00 00 00 00
(1.156338) vcan0  0000014A   [8]  00 00 02 70 E8 BC 8D EC
(1.156990) vcan0  00000326   [8]  00 00 00 00 00 00 00 00
(1.167314) vcan0  000001A4   [8]  00 67 00 00 00 00 00 00
(1.167390) vcan0  0000017C   [8]  4B 00 00 00 00 00 00 00
(1.167828) vcan0  00000326   [8]  00 00 00 00 00 00 00 00
(1.168236) vcan0  00000374   [8]  00 00 00 00 00 00 00 00
(1.168251) vcan0  000001A3   [8]  00 00 00 00 00 00 00 00
(1.168752) vcan0  00000309   [8]  02 FC 00 00 00 00 00 00
(1.168764) vcan0  0000037B   [8]  00 00 00 00 00 00 00 00
(1.169010) vcan0  0000014A   [8]  00 00 02 69 89 96 F0 4A
(1.180048) vcan0  00000309   [8]  03 0B 00 00 00 00 00 00
(1.180089) vcan0  000001A4   [8]  00 67 00 00 00 00 00 00
(1.180167) vcan0  00000326   [8]  00 00 00 00 00 00 00 00
(1.180472) vcan0  0000014A   [8]  00 00 02 61 8B 94 CB 5C
(1.180554) vcan0  0000037B   [8]  00 00 00 00 00 00 00 00
(1.181151) vcan0  00000374   [8]  00 00 00 00 00 00 00 00
(1.181203) vcan0  0000017C   [8]  4B 00 00 00 00 00 00 00
(1.181685) vcan0  000001A3   [8]  00 00 00 00 00 00 00 00
(1.192153) vcan0  0000017C   [8]  4B 00 00 00 00 00 00 00
(1.192547) vcan0  000001A4   [8]  00 67 00 00 00 00 00 00
(1.192870) vcan0  000001A3   [8]  00 00 00 00 00 00 00 00
(1.193563) vcan0  0000014A   [8]  00 00 02 59 90 41 80 20
(1.193614) vcan0  0000037B   [8]  00 00 00 00 00 00 00 00
(1.193777) vcan0  00000374   [8]  00 00 00 00 00 00 00 00
(1.193809) vcan0  00000326   [8]  00 00 00 00 00 00 00 00
(1.193830) vcan0  00000309   [8]  03 1A 00 00 00 00 00 00
(1.203236) vcan0  000001A3   [8]  00 00 00 00 00 00 00 00
(1.203688) vcan0  000001A4   [8]  00 67 00 00 00 00 00 00
(1.203824) vcan0  0000014A   [8]  00 00 02 50 FA 01 D5 B4
(1.203945) vcan0  00000374   [8]  00 00 00 00 00 00 00 00
(1.204501) vcan0  0000037B   [8]  00 00 00 00 00 00 00 00
(1.204670) vcan0  00000309   [8]  03 2C 00 00 00 00 00 00
(1.204759) vcan0  0000017C   [8]  4B 00 00 00 00 00 00 00
(1.204988) vcan0  00000326   [8]  00 00 00 00 00 00 00 00
(1.215165) vcan0  00000326   [8]  00 00 00 00 00 00 00 00
(1.215236) vcan0  000001A4   [8]  00 67 00 00 00 00 00 00
(1.215325) vcan0  000001A3   [8]  00 00 00 00 00 00 00 00
(1.215504) vcan0  0000017C   [8]  4B 00 00 00 00 00 00 00
(1.215885) vcan0  00000374   [8]  00 00 00 00 00 00 00 00
(1.216418) vcan0  00000309   [8]  03 3D 00 00 00 00 00 00
(1.216552) vcan0  0000014A   [8]  00 00 02 49 8A 20 22 9C
(1.216995) vcan0  0000037B   [8]  00 00 00 00 00 00 00 00
(1.227788) vcan0  0000014A   [8]  00 00 02 41 54 20 EF BE
(1.227888) vcan0  0000017C   [8]  4B 00 00 00 00 00 00 00
(1.227971) vcan0  00000326   [8]  00 00 00 00 00 00 00 00
(1.228218) vcan0  00000374   [8]  00 00 00 00 00 00 00 00
(1.228606) vcan0  000001A3   [8]  00 00 00 00 00 00 00 00
(1.228844) vcan0  000001A4   [8]  00 67 00 00 00 00 00 00
(1.229283) vcan0  0000037B   [8]  00 00 00 00 00 00 00 00
(1.229362) vcan0  00000309   [8]  03 4C 00 00 00 00 00 00
(1.238781) vcan0  0000014A   [8]  00 00 02 39 99 D9 B0 B6
(1.239115) vcan0  0000017C   [8]  4B 00 00 00 00 00 00 00
(1.239351) vcan0  00000326   [8]  00 00 00 00 00 00 00 00
(1.239722) vcan0  000001A3   [8]  00 00 00 00 00 00 00 00
(1.240619) vcan0  000001A4   [8]  00 67 00 00 00 00 00 00
(1.241226) vcan0  00000374   [8]  00 00 00 00 00 00 00 00
(1.241456) vcan0  0000037B   [8]  00 00 00 00 00 00 00 00
(1.241764) vcan0  00000309   [8]  03 5C 00 00 00 00 00 00
(1.251915) vcan0  000001A4   [8]  00 67 00 00 00 00 00 00
(1.252293) vcan0  0000017C   [8]  4B 00 00 00 00 00 00 00
(1.252519) vcan0  000001A3   [8]  00 00 00 00 00 00 00 00
(1.252702) vcan0  00000309   [8]  03 6C 00 00 00 00 00 00
(1.252913) vcan0  0000037B   [8]  00 00 00 00 00 00 00 00
(1.253161) vcan0  0000014A   [8]  00 00 02 31 50 A2 C7 B4
(1.253213) vcan0  00000374   [8]  00 00 00 00 00 00 00 00
(1.253431) vcan0  00000326   [8]  00 00 00 00 00 00 00 00
(1.263059) vcan0  00000326   [8]  00 00 00 00 00 00 00 00
(1.263568) vcan0  000001A3   [8]  00 00 00 00 00 00 00 00
(1.263615) vcan0  00000309   [8]  03 7D 00 00 00 00 00 00
(1.263644) vcan0  00000374   [8]  00 00 00 00 00 00 00 00
(1.263986) vcan0  000001A4   [8]  00 67 00 00 00 00 00 00
(1.264360) vcan0  0000014A   [8]  00 00 02 29 86 77 FB 84
(1.264529) vcan0  0000017C   [8]  4B 00 00 00 00 00 00 00
(1.264833) vcan0  0000037B   [8]  00 00 00 00 00 00 00 00
(1.275001) vcan0  00000374   [8]  00 00 00 00 00 00 00 00
(1.275036) vcan0  00000309   [8]  03 8F 00 00 00 00 00 00
(1.275482) vcan0  00000326   [8]  00 00 00 00 00 00 00 00
(1.275581) vcan0  0000014A   [8]  00 00 02 21 2E 36 0D B0
(1.275967) vcan0  0000017C   [8]  4B 00 00 00 00 00 00 00
(1.276237) vcan0  0000037B   [8]  00 00 00 00 00 00 00 00
(1.276327) vcan0  000001A3   [8]  00 00 00 00 00 00 00 00
(1.276345) vcan0  000001A4   [8]  00 67 00 00 00 00 00 00
(1.286361) vcan0  0000037B   [8]  00 00 00 00 00 00 00 00
(1.286406) vcan0  00000374   [8]  00 00 00 00 00 00 00 00
(1.286834) vcan0  000001A3   [8]  00 00 00 00 00 00 00 00
(1.287255) vcan0  00000309   [8]  03 A0 00 00 00 00 00 00
(1.287725) vcan0  0000014A   [8]  00 00 02 19 7D A3 1C 36
(1.287736) vcan0  000001A4   [8]  00 67 00 00 00 00 00 00
(1.287785) vcan0  0000017C   [8]  4B 00 00 00 00 00 00 00
(1.287828) vcan0  00000326   [8]  00 00 00 00 00 00 00 00
(1.299636) vcan0  0000014A   [8]  00 00 02 11 3E 06 E4 40
(1.299737) vcan0  000001A4   [8]  00 67 00 00 00 00 00 00
(1.299942) vcan0  0000017C   [8]  4B 00 00 00 00 00 00 00
(1.300095) vcan0  0000037B   [8]  00 00 00 00 00 00 00 00
(1.300482) vcan0  00000374   [8]  00 00 00 00 00 00 00 00
(1.300542) vcan0  000001A3   [8]  00 00 00 00 00 00 00 00
(1.300714) vcan0  00000309   [8]  03 B2 00 00 00 00 00 00
(1.301061) vcan0  00000326   [8]  00 00 00 00 00 00 00 00
(1.310674) vcan0  0000017C   [8]  4B 00 00 00 00 00 00 00
(1.310845) vcan0  00000309   [8]  03 C3 00 00 00 00 00 00
(1.310855) vcan0  0000014A   [8]  00 00 02 09 84 C2 16 5E
(1.310920) vcan0  00000374   [8]  00 00 00 00 00 00 00 00
(1.311759) vcan0  000001A3   [8]  00 00 00 00 00 00 00 00
(1.311768) vcan0  0000037B   [8]  00 00 00 00 00 00 00 00
(1.312048) vcan0  00000326   [8]  00 00 00 00 00 00 00 00
(1.312388) vcan0  000001A4   [8]  00 67 00 00 00 00 00 00
(1.322647) vcan0  0000014A   [8]  00 00 02 01 50 81 EC 6A
(1.322936) vcan0  0000017C   [8]  4B 00 00 00 00 00 00 00
(1.322993) vcan0  00000326   [8]  00 00 00 00 00 00 00 00
(1.323022) vcan0  0000037B   [8]  00 00 00 00 00 00 00 00
(1.323034) vcan0  000001A4   [8]  00 67 00 00 00 00 00 00
(1.323084) vcan0  00000374   [8]  00 00 00 00 00 00 00 00
(1.323594) vcan0  000001A3   [8]  00 00 00 00 00 00 00 00
(1.324025) vcan0  00000309   [8]  03 D5 00 00 00 00 00 00
(1.334241) vcan0  00000326   [8]  00 00 00 00 00 00 00 00
(1.334260) vcan0  00000309   [8]  03 E8 00 00 00 00 00 00
(1.334353) vcan0  000001A3   [8]  00 00 00 00 00 00 00 00
(1.334605) vcan0  0000017C   [8]  4B 00 00 00 00 00 00 00
(1.334838) vcan0  0000037B   [8]  00 00 00 00 00 00 00 00
(1.334964) vcan0  00000374   [8]  00 00 00 00 00 00 00 00
(1.335349) vcan0  000001A4   [8]  00 67 00 00 00 00 00 00
(1.335505) vcan0  0000014A   [8]  00 00 01 F9 96 62 42 2C
(1.346468) vcan0  0000017C   [8]  4B 00 00 00 00 00 00 00
(1.347064) vcan0  0000014A   [8]  00 00 01 F1 74 E5 64 0C
(1.347178) vcan0  000001A3   [8]  00 00 00 00 00 00 00 00
(1.347487) vcan0  00000374   [8]  00 00 00 00 00 00 00 00
(1.347668) vcan0  00000326   [8]  00 00 00 00 00 00 00 00
(1.347698) vcan0  00000309   [8]  03 FA 00 00 00 00 00 00
(1.347884) vcan0  000001A4   [8]  00 67 00 00 00 00 00 00
(1.347888) vcan0  0000037B   [8]  00 00 00 00 00 00 00 00
(1.358358) vcan0  0000037B   [8]  00 00 00 00 00 00 00 00
(1.358829) vcan0  00000309   [8]  04 0C 00 00 00 00 00 00
(1.359006) vcan0  000001A4   [8]  00 67 00 00 00 00 00 00
(1.359496) vcan0  0000017C   [8]  4B 00 00 00 00 00 00 00
(1.359530) vcan0  0000014A   [8]  00 00 01 E9 C7 EE C9 02
(1.359615) vcan0  00000326   [8]  00 00 00 00 00 00 00 00
(1.359782) vcan0  000001A3   [8]  00 00 00 00 00 00 00 00
(1.359785) vcan0  00000374   [8]  00 00 00 00 00 00 00 00
(1.370142) vcan0  0000037B   [8]  00 00 00 00 00 00 00 00
(1.370257) vcan0  00000326   [8]  00 00 00 00 00 00 00 00
(1.370357) vcan0  000001A3   [8]  00 00 00 00 00 00 00 00
(1.370581) vcan0  00000309   [8]  04 1F 00 00 00 00 00 00
(1.370683) vcan0  0000014A   [8]  00 00 01 E1 BA DA A3 1C
(1.370964) vcan0  00000374   [8]  00 00 00 00 00 00 00 00
(1.371473) vcan0  0000017C   [8]  4B 00 00 00 00 00 00 00
(1.371789) vcan0  000001A4   [8]  00 67 00 00 00 00 00 00
(1.382214) vcan0  0000014A   [8]  00 00 01 DA 21 3E AA EA
(1.382564) vcan0  000001A3   [8]  00 00 00 00 00 00 00 00
(1.382566) vcan0  0000017C   [8]  4B 00 00 00 00 00 00 00
(1.382633) vcan0  00000326   [8]  00 00 00 00 00 00 00 00
(1.383388) vcan0  000001A4   [8]  00 67 00 00 00 00 00 00
(1.383645) vcan0  00000309   [8]  04 32 00 00 00 00 00 00
(1.383702) vcan0  0000037B   [8]  00 00 00 00 00 00 00 00
(1.383707) vcan0  00000374   [8]  00 00 00 00 00 00 00 00
(1.393171) vcan0  00000326   [8]  00 00 00 00 00 00 00 00
(1.393220) vcan0  0000037B   [8]  00 00 00 00 00 00 00 00
(1.393380) vcan0  0000014A   [8]  00 00 01 D2 29 15 9F D8
(1.393457) vcan0  0000017C   [8]  4B 00 00 00 00 00 00 00
(1.393662) vcan0  00000374   [8]  00 00 00 00 00 00 00 00
(1.393982) vcan0  00000309   [8]  04 45 00 00 00 00 00 00
(1.394185) vcan0  000001A3   [8]  00 00 00 00 00 00 00 00
(1.394600) vcan0  000001A4   [8]  00 67 00 00 00 00 00 00
(1.406336) vcan0  00000326   [8]  00 00 00 00 00 00 00 00
(1.406507) vcan0  000001A4   [8]  00 67 00 00 00 00 00 00
(1.406572) vcan0  00000309   [8]  04 58 00 00 00 00 00 00
(1.406764) vcan0  0000017C   [8]  4B 00 00 00 00 00 00 00
(1.407171) vcan0  0000014A   [8]  00 00 01 CA A1 3F 2A 68
(1.407248) vcan0  0000037B   [8]  00 00 00 00 00 00 00 00
(1.407772) vcan0  000001A3   [8]  00 00 00 00 00 00 00 00
(1.408052) vcan0  00000374   [8]  00 00 00 00 00 00 00 00
(1.418497) vcan0  0000014A   [8]  00 00 01 C2 C4 6D 02 F6
(1.419095) vcan0  0000017C   [8]  4B 00 00 00 00 00 00 00
(1.419128) vcan0  00000326   [8]  00 00 00 00 00 00 00 00
(1.419358) vcan0  00000374   [8]  00 00 00 00 00 00 00 00
(1.419542) vcan0  000001A3   [8]  00 00 00 00 00 00 00 00
(1.419820) vcan0  000001A4   [8]  00 67 00 00 00 00 00 00
(1.419905) vcan0  00000309   [8]  04 6C 00 00 00 00 00 00
(1.420003) vcan0  0000037B   [8]  00 00 00 00 00 00 00 00
(1.430402) vcan0  00000309   [8]  04 7F 00 00 00 00 00 00
(1.430516) vcan0  000001A4   [8]  00 67 00 00 00 00 00 00
(1.430911) vcan0  00000326   [8]  00 00 00 00 00 00 00 00
(1.431531) vcan0  0000037B   [8]  00 00 00 00 00 00 00 00
(1.431710) vcan0  00000374   [8]  00 00 00 00 00 00 00 00
(1.431752) vcan0  000001A3   [8]  00 00 00 00 00 00 00 00
(1.431804) vcan0  0000014A   [8]  00 00 01 BB 57 3A 29 92
(1.431864) vcan0  0000017C   [8]  4B 00 00 00 00 00 00 00
(1.443127) vcan0  00000374   [8]  00 00 00 00 00 00 00 00
(1.443130) vcan0  000001A3   [8]  00 00 00 00 00 00 00 00
(1.443746) vcan0  00000326   [8]  00 00 00 00 00 00 00 00
(1.443963) vcan0  0000017C   [8]  4B 00 00 00 00 00 00 00
(1.444156) vcan0  00000309   [8]  04 93 00 00 00 00 00 00
(1.444486) vcan0  000001A4   [8]  00 67 00 00 00 00 00 00
(1.444739) vcan0  0000037B   [8]  00 00 00 00 00 00 00 00
(1.444785) vcan0  0000014A   [8]  00 00 01 B3 8F 9B 4A 66
(1.454024) vcan0  0000037B   [8]  00 00 00 00 00 00 00 00
(1.454573) vcan0  000001A4   [8]  00 67 00 00 00 00 00 00
(1.454660) vcan0  000001A3   [8]  00 00 00 00 00 00 00 00
(1.454682) vcan0  00000326   [8]  00 00 00 00 00 00 00 00
(1.454850) vcan0  00000309   [8]  04 A7 00 00 00 00 00 00
(1.455032) vcan0  00000374   [8]  00 00 00 00 00 00 00 00
(1.455324) vcan0  0000014A   [8]  00 00 01 AC 38 58 51 0A
(1.455693) vcan0  0000017C   [8]  4B 00 00 00 00 00 00 00
(1.466559) vcan0  0000014A   [8]  00 00 01 A4 90 BA C1 50
(1.466781) vcan0  0000037B   [8]  00 00 00 00 00 00 00 00
(1.467430) vcan0  00000374   [8]  00 00 00 00 00 00 00 00
(1.467448) vcan0  000001A4   [8]  00 67 00 00 00 00 00 00
(1.467457) vcan0  0000017C   [8]  4B 00 00 00 00 00 00 00
(1.467877) vcan0  00000326   [8]  00 00 00 00 00 00 00 00
(1.467903) vcan0  000001A3   [8]  00 00 00 00 00 00 00 00
(1.468132) vcan0  00000309   [8]  04 BC 00 00 00 00 00 00
(1.478263) vcan0  0000014A   [8]  00 00 01 9D 4C FE A7 AC
(1.478557) vcan0  0000037B   [8]  00 00 00 00 00 00 00 00
(1.479013) vcan0  00000326   [8]  00 00 00 00 00 00 00 00
(1.479308) vcan0  00000309   [8]  04 D0 00 00 00 00 00 00
(1.479663) vcan0  000001A3   [8]  00 00 00 00 00 00 00 00
(1.479716) vcan0  00000374   [8]  00 00 00 00 00 00 00 00
(1.479854) vcan0  000001A4   [8]  00 67 00 00 00 00 00 00
(1.480071) vcan0  0000017C   [8]  4B 00 00 00 00 00 00 00
(1.490162) vcan0  0000037B   [8]  00 00 00 00 00 00 00 00
(1.490257) vcan0  00000309   [8]  04 E4 00 00 00 00 00 00
(1.490933) vcan0  00000374   [8]  00 00 00 00 00 00 00 00
(1.490957) vcan0  000001A4   [8]  00 67 00 00 00 00 00 00
(1.491416) vcan0  0000017C   [8]  4B 00 00 00 00 00 00 00
(1.491564) vcan0  000001A3   [8]  00 00 00 00 00 00 00 00
(1.491820) vcan0  0000014A   [8]  00 00 01 95 BD 7E 99 1A
(1.491932) vcan0  00000326   [8]  00 00 00 00 00 00 00 00
(1.501384) vcan0  0000017C   [8]  4B 00 00 00 00 00 00 00
(1.501445) vcan0  0000037B   [8]  00 00 00 00 00 00 00 00
(1.502058) vcan0  00000374   [8]  00 00 00 00 00 00 00 00
(1.502175) vcan0  000001A4   [8]  00 67 00 00 00 00 00 00
(1.502640) vcan0  000001A3   [8]  00 00 00 00 00 00 00 00
(1.502721) vcan0  00000326   [8]  00 00 00 00 00 00 00 00
(1.502915) vcan0  0000014A   [8]  00 00 01 8E 8B E7 78 22
(1.503234) vcan0  00000309   [8]  04 F8 00 00 00 00 00 00
(1.515337) vcan0  000001A3   [8]  00 00 00 00 00 00 00 00
(1.515372) vcan0  0000017C   [8]  4B 00 00 00 00 00 00 00
(1.515471) vcan0  00000326   [8]  00 00 00 00 00 00 00 00
(1.515654) vcan0  0000037B   [8]  00 00 00 00 00 00 00 00
(1.515979) vcan0  000001A4   [8]  00 67 00 00 00 00 00 00
(1.516007) vcan0  00000309   [8]  05 0D 00 00 00 00 00 00
(1.516312) vcan0  0000014A   [8]  00 00 01 87 22 EA A0 3E
(1.516731) vcan0  00000374   [8]  00 00 00 00 00 00 00 00
(1.525615) vcan0  000001A3   [8]  00 00 00 00 00 00 00 00
(1.525621) vcan0  00000309   [8]  05 21 00 00 00 00 00 00
(1.526065) vcan0  000001A4   [8]  00 67 00 00 00 00 00 00
(1.526070) vcan0  00000374   [8]  00 00 00 00 00 00 00 00
(1.526107) vcan0  0000014A   [8]  00 00 01 80 04 28 41 70
(1.526366) vcan0  0000037B   [8]  00 00 00 00 00 00 00 00
(1.526501) vcan0  0000017C   [8]  4B 00 00 00 00 00 00 00
(1.527085) vcan0  00000326   [8]  00 00 00 00 00 00 00 00
(1.538020) vcan0  00000374   [8]  00 00 00 00 00 00 00 00
(1.538124) vcan0  00000309   [8]  05 34 00 00 00 00 00 00
(1.538245) vcan0  000001A3   [8]  00 00 00 00 00 00 00 00
(1.538459) vcan0  00000326   [8]  00 00 00 00 00 00 00 00
(1.538941) vcan0  0000017C   [8]  4B 00 00 00 00 00 00 00
(1.539102) vcan0  0000037B   [8]  00 00 00 00 00 00 00 00
(1.539286) vcan0  000001A4   [8]  00 67 00 00 00 00 00 00
(1.539505) vcan0  0000014A   [8]  00 00 01 78 D1 14 72 E0
(1.550794) vcan0  0000037B   [8]  00 00 00 00 00 00 00 00
(1.550901) vcan0  000001A3   [8]  00 00 00 00 00 00 00 00
(1.551288) vcan0  000001A4   [8]  00 67 00 00 00 00 00 00
(1.551683) vcan0  0000014A   [8]  00 00 01 71 D5 D1 75 5A
(1.551999) vcan0  00000309   [8]  05 48 00 00 00 00 00 00
(1.552059) vcan0  00000326   [8]  00 00 00 00 00 00 00 00
(1.552287) vcan0  0000017C   [8]  4B 00 00 00 00 00 00 00
(1.552491) vcan0  00000374   [8]  00 00 00 00 00 00 00 00
(1.562243) vcan0  00000374   [8]  00 00 00 00 00 00 00 00
(1.562279) vcan0  00000309   [8]  05 5B 00 00 00 00 00 00
(1.562367) vcan0  0000017C   [8]  4B 00 00 00 00 00 00 00
(1.562796) vcan0  0000037B   [8]  00 00 00 00 00 00 00 00
(1.562893) vcan0  00000326   [8]  00 00 00 00 00 00 00 00
(1.563359) vcan0  0000014A   [8]  00 00 01 6A DE F7 B2 5E
(1.563704) vcan0  000001A4   [8]  00 67 00 00 00 00 00 00
(1.564008) vcan0  000001A3   [8]  00 00 00 00 00 00 00 00
(1.573188) vcan0  00000326   [8]  00 00 00 00 00 00 00 00
(1.573351) vcan0  0000014A   [8]  00 00 01 64 0C 14 0F 08
(1.573430) vcan0  000001A3   [8]  00 00 00 00 00 00 00 00
(1.573647) vcan0  0000037B   [8]  00 00 00 00 00 00 00 00
(1.573800) vcan0  0000017C   [8]  4B 00 00 00 00 00 00 00
(1.574024) vcan0  00000309   [8]  05 6D 00 00 00 00 00 00
(1.574089) vcan0  00000374   [8]  00 00 00 00 00 00 00 00
(1.575087) vcan0  000001A4   [8]  00 67 00 00 00 00 00 00
(1.587357) vcan0  0000037B   [8]  00 00 00 00 00 00 00 00
(1.587402) vcan0  000001A4   [8]  00 67 00 00 00 00 00 00
(1.587514) vcan0  00000309   [8]  05 80 00 00 00 00 00 00
(1.587730) vcan0  000001A3   [8]  00 00 00 00 00 00 00 00
(1.587996) vcan0  0000014A   [8]  00 00 01 5D 50 38 DB 52
(1.588221) vcan0  00000374   [8]  00 00 00 00 00 00 00 00
(1.588359) vcan0  00000326   [8]  00 00 00 00 00 00 00 00
(1.589096) vcan0  0000017C   [8]  4B 00 00 00 00 00 00 00
(1.597684) vcan0  0000037B   [8]  00 00 00 00 00 00 00 00
(1.597783) vcan0  00000326   [8]  00 00 00 00 00 00 00 00
(1.598508) vcan0  00000309   [8]  05 92 00 00 00 00 00 00
(1.598674) vcan0  000001A3   [8]  00 00 00 00 00 00 00 00
(1.598686) vcan0  000001A4   [8]  00 67 00 00 00 00 00 00
(1.598732) vcan0  0000017C   [8]  4B 00 00 00 00 00 00 00
(1.598930) vcan0  0000014A   [8]  00 00 01 56 B2 DF F5 6C
(1.599060) vcan0  00000374   [8]  00 00 00 00 00 00 00 00
(1.610171) vcan0  000001A4   [8]  00 67 00 00 00 00 00 00
(1.610183) vcan0  000001A3   [8]  00 00 00 00 00 00 00 00
(1.610344) vcan0  0000014A   [8]  00 00 01 50 2B 0C FF 72
(1.610361) vcan0  00000374   [8]  00 00 00 00 00 00 00 00
(1.610433) vcan0  00000326   [8]  00 00 00 00 00 00 00 00
(1.610698) vcan0  0000037B   [8]  00 00 00 00 00 00 00 00
(1.611233) vcan0  00000309   [8]  05 A4 00 00 00 00 00 00
(1.611562) vcan0  0000017C   [8]  4B 00 00 00 00 00 00 00
(1.621740) vcan0  0000014A   [8]  00 00 01 49 BF 8F E0 2C
(1.621788) vcan0  00000374   [8]  00 00 00 00 00 00 00 00
(1.621876) vcan0  0000037B   [8]  00 00 00 00 00 00 00 00
(1.622043) vcan0  00000309   [8]  05 B6 00 00 00 00 00 00
(1.622419) vcan0  000001A4   [8]  00 67 00 00 00 00 00 00
(1.622434) vcan0  00000326   [8]  00 00 00 00 00 00 00 00
(1.623327) vcan0  000001A3   [8]  00 00 00 00 00 00 00 00
(1.623486) vcan0  0000017C   [8]  4B 00 00 00 00 00 00 00
(1.633534) vcan0  0000014A   [8]  00 00 01 43 7B 68 AD CA
(1.633813) vcan0  000001A4   [8]  00 67 00 00 00 00 00 00
(1.633852) vcan0  0000017C   [8]  4B 00 00 00 00 00 00 00
(1.633863) vcan0  0000037B   [8]  00 00 00 00 00 00 00 00
(1.634237) vcan0  000001A3   [8]  00 00 00 00 00 00 00 00
(1.634480) vcan0  00000326   [8]  00 00 00 00 00 00 00 00
(1.634807) vcan0  00000309   [8]  05 C8 00 00 00 00 00 00
(1.635259) vcan0  00000374   [8]  00 00 00 00 00 00 00 00
(1.646549) vcan0  000001A3   [8]  00 00 00 00 00 00 00 00
(1.646570) vcan0  00000326   [8]  00 00 00 00 00 00 00 00
(1.647187) vcan0  000001A4   [8]  00 67 00 00 00 00 00 00
(1.647328) vcan0  00000309   [8]  05 D9 00 00 00 00 00 00
(1.647430) vcan0  0000017C   [8]  4B 00 00 00 00 00 00 00
(1.647704) vcan0  0000037B   [8]  00 00 00 00 00 00 00 00
(1.648350) vcan0  00000374   [8]  00 00 00 00 00 00 00 00
(1.648434) vcan0  0000014A   [8]  00 00 01 3D 4A 52 C6 C8
(1.658747) vcan0  000001A3   [8]  00 00 00 00 00 00 00 00
(1.659270) vcan0  0000037B   [8]  00 00 00 00 00 00 00 00
(1.659360) vcan0  0000017C   [8]  4B 00 00 00 00 00 00 00
(1.659679) vcan0  0000014A   [8]  00 00 01 37 3B B0 7F B8
(1.659728) vcan0  00000374   [8]  00 00 00 00 00 00 00 00
(1.660023) vcan0  00000309   [8]  05 EB 00 00 00 00 00 00
(1.660451) vcan0  00000326   [8]  00 00 00 00 00 00 00 00
(1.660528) vcan0  000001A4   [8]  00 67 00 00 00 00 00 00
(1.670033) vcan0  000001A4   [8]  00 67 00 00 00 00 00 00
(1.670064) vcan0  0000037B   [8]  00 00 00 00 00 00 00 00
(1.670444) vcan0  00000326   [8]  00 00 00 00 00 00 00 00
(1.670917) vcan0  00000309   [8]  05 FC 00 00 00 00 00 00
(1.671062) vcan0  000001A3   [8]  00 00 00 00 00 00 00 00
(1.671076) vcan0  00000374   [8]  00 00 00 00 00 00 00 00
(1.671428) vcan0  0000017C   [8]  4B 00 00 00 00 00 00 00
(1.671569) vcan0  0000014A   [8]  00 00 01 31 4A A5 5D C4
(1.681882) vcan0  000001A3   [8]  00 00 00 00 00 00 00 00
(1.681938) vcan0  0000017C   [8]  4B 00 00 00 00 00 00 00
(1.682361) vcan0  00000309   [8]  06 0D 00 00 00 00 00 00
(1.682425) vcan0  0000014A   [8]  00 00 01 2B 76 9A 09 EC
(1.682465) vcan0  00000326   [8]  00 00 00 00 00 00 00 00
(1.682729) vcan0  0000037B   [8]  00 00 00 00 00 00 00 00
(1.682756) vcan0  00000374   [8]  00 00 00 00 00 00 00 00
(1.683346) vcan0  000001A4   [8]  00 67 00 00 00 00 00 00
(1.694303) vcan0  0000017C   [8]  4B 00 00 00 00 00 00 00
(1.694605) vcan0  0000014A   [8]  00 00 01 25 BF 23 6A 0A
(1.694700) vcan0  0000037B   [8]  00 00 00 00 00 00 00 00
(1.695110) vcan0  000001A4   [8]  00 67 00 00 00 00 00 00
(1.695216) vcan0  00000326   [8]  00 00 00 00 00 00 00 00
(1.695326) vcan0  00000374   [8]  00 00 00 00 00 00 00 00
(1.695513) vcan0  000001A3   [8]  00 00 00 00 00 00 00 00
(1.696231) vcan0  00000309   [8]  06 1E 00 00 00 00 00 00
(1.706386) vcan0  0000017C   [8]  4B 00 00 00 00 00 00 00
(1.706641) vcan0  000001A3   [8]  00 00 00 00 00 00 00 00
(1.706886) vcan0  0000037B   [8]  00 00 00 00 00 00 00 00
(1.707102) vcan0  0000014A   [8]  00 00 01 20 2A 9F 4E A0
(1.707753) vcan0  000001A4   [8]  00 67 00 00 00 00 00 00
(1.707933) vcan0  00000374   [8]  00 00 00 00 00 00 00 00
(1.707992) vcan0  00000309   [8]  06 2F 00 00 00 00 00 00
(1.708028) vcan0  00000326   [8]  00 00 00 00 00 00 00 00
(1.717896) vcan0  0000017C   [8]  4B 00 00 00 00 00 00 00
(1.717963) vcan0  0000037B   [8]  00 00 00 00 00 00 00 00
(1.718192) vcan0  000001A4   [8]  00 67 00 00 00 00 00 00
(1.718603) vcan0  00000309   [8]  06 40 00 00 00 00 00 00
(1.718680) vcan0  00000374   [8]  00 00 00 00 00 00 00 00
(1.719304) vcan0  0000014A   [8]  00 00 01 1A AF 97 1D 5E
(1.719531) vcan0  00000326   [8]  00 00 00 00 00 00 00 00
(1.719581) vcan0  000001A3   [8]  00 00 00 00 00 00 00 00
(1.730847) vcan0  0000037B   [8]  00 00 00 00 00 00 00 00
(1.730930) vcan0  00000326   [8]  00 00 00 00 00 00 00 00
(1.730974) vcan0  000001A3   [8]  00 00 00 00 00 00 00 00
(1.731228) vcan0  00000374   [8]  00 00 00 00 00 00 00 00
(1.731687) vcan0  0000014A   [8]  00 00 01 15 52 F9 F1 72
(1.731809) vcan0  00000309   [8]  06 51 00 00 00 00 00 00
(1.731944) vcan0  000001A4   [8]  00 67 00 00 00 00 00 00
(1.732307) vcan0  0000017C   [8]  4B 00 00 00 00 00 00 00
(1.741304) vcan0  0000017C   [8]  4B 00 00 00 00 00 00 00
(1.741812) vcan0  00000374   [8]  00 00 00 00 00 00 00 00
(1.742241) vcan0  000001A3   [8]  00 00 00 00 00 00 00 00
(1.742339) vcan0  00000326   [8]  00 00 00 00 00 00 00 00
(1.742511) vcan0  000001A4   [8]  00 67 00 00 00 00 00 00
(1.742656) vcan0  0000014A   [8]  00 00 01 10 16 57 18 D6
(1.742738) vcan0  00000309   [8]  06 61 00 00 00 00 00 00
(1.743008) vcan0  0000037B   [8]  00 00 00 00 00 00 00 00
(1.755266) vcan0  00000374   [8]  00 00 00 00 00 00 00 00
(1.755268) vcan0  000001A3   [8]  00 00 00 00 00 00 00 00
(1.755305) vcan0  000001A4   [8]  00 67 00 00 00 00 00 00
(1.756098) vcan0  0000037B   [8]  00 00 00 00 00 00 00 00
(1.756144) vcan0  00000326   [8]  00 00 00 00 00 00 00 00
(1.756420) vcan0  00000309   [8]  06 72 00 00 00 00 00 00
(1.756731) vcan0  0000017C   [8]  4B 00 00 00 00 00 00 00
(1.756922) vcan0  0000014A   [8]  00 00 01 0A F9 6C 38 38
(1.765506) vcan0  0000017C   [8]  4B 00 00 00 00 00 00 00
(1.766379) vcan0  000001A3   [8]  00 00 00 00 00 00 00 00
(1.766542) vcan0  0000037B   [8]  00 00 00 00 00 00 00 00
(1.766906) vcan0  00000374   [8]  00 00 00 00 00 00 00 00
(1.766950) vcan0  000001A4   [8]  00 67 00 00 00 00 00 00
(1.766974) vcan0  00000326   [8]  00 00 00 00 00 00 00 00
(1.767078) vcan0  0000014A   [8]  00 00 01 05 F6 01 E9 D6
(1.767297) vcan0  00000309   [8]  06 83 00 00 00 00 00 00
(1.778351) vcan0  000001A4   [8]  00 67 00 00 00 00 00 00
(1.778351) vcan0  00000326   [8]  00 00 00 00 00 00 00 00
(1.778392) vcan0  00000309   [8]  06 93 00 00 00 00 00 00
(1.778514) vcan0  0000014A   [8]  00 00 01 01 16 0B 58 82
(1.779133) vcan0  0000037B   [8]  00 00 00 00 00 00 00 00
(1.779161) vcan0  000001A3   [8]  00 00 00 00 00 00 00 00
(1.779201) vcan0  00000374   [8]  00 00 00 00 00 00 00 00
(1.779555) vcan0  0000017C   [8]  4B 00 00 00 00 00 00 00
(1.789661) vcan0  0000037B   [8]  00 00 00 00 00 00 00 00
(1.789711) vcan0  000001A3   [8]  00 00 00 00 00 00 00 00
(1.790060) vcan0  000001A4   [8]  00 67 00 00 00 00 00 00
(1.790565) vcan0  0000017C   [8]  4B 00 00 00 00 00 00 00
(1.790748) vcan0  00000374   [8]  00 00 00 00 00 00 00 00
(1.791033) vcan0  00000309   [8]  06 A3 00 00 00 00 00 00
(1.791435) vcan0  00000326   [8]  00 00 00 00 00 00 00 00
(1.791526) vcan0  0000014A   [8]  00 00 00 FC 57 A8 4D A8
(1.802637) vcan0  0000017C   [8]  4B 00 00 00 00 00 00 00
(1.803440) vcan0  00000309   [8]  06 B4 00 00 00 00 00 00
(1.803508) vcan0  0000014A   [8]  00 00 00 F7 AD 76 AE EC
(1.803530) vcan0  00000326   [8]  00 00 00 00 00 00 00 00
(1.803561) vcan0  000001A3   [8]  00 00 00 00 00 00 00 00
(1.803602) vcan0  0000037B   [8]  00 00 00 00 00 00 00 00
(1.803933) vcan0  000001A4   [8]  00 67 00 00 00 00 00 00
(1.804307) vcan0  00000374   [8]  00 00 00 00 00 00 00 00
(1.815239) vcan0  00000374   [8]  00 00 00 00 00 00 00 00
(1.815381) vcan0  000001A3   [8]  00 00 00 00 00 00 00 00
(1.815470) vcan0  00000326   [8]  00 00 00 00 00 00 00 00
(1.815746) vcan0  0000037B   [8]  00 00 00 00 00 00 00 00
(1.816032) vcan0  0000017C   [8]  4B 00 00 00 00 00 00 00
(1.816064) vcan0  0000014A   [8]  00 00 00 F3 25 6D 04 A0
(1.816542) vcan0  000001A4   [8]  00 67 00 00 00 00 00 00
(1.816756) vcan0  00000309   [8]  06 C4 00 00 00 00 00 00
(1.826809) vcan0  00000326   [8]  00 00 00 00 00 00 00 00
(1.826814) vcan0  0000014A   [8]  00 00 00 EE BD 94 F9 C0
(1.826853) vcan0  0000037B   [8]  00 00 00 00 00 00 00 00
(1.827541) vcan0  0000017C   [8]  4B 00 00 00 00 00 00 00
(1.827805) vcan0  00000374   [8]  00 00 00 00 00 00 00 00
(1.827844) vcan0  000001A3   [8]  00 00 00 00 00 00 00 00
(1.828298) vcan0  000001A4   [8]  00 67 00 00 00 00 00 00
(1.828306) vcan0  00000309   [8]  06 D4 00 00 00 00 00 00
(1.839145) vcan0  000001A4   [8]  00 67 00 00 00 00 00 00
(1.839685) vcan0  00000374   [8]  00 00 00 00 00 00 00 00
(1.840069) vcan0  0000014A   [8]  00 00 00 EA 70 28 14 C8
(1.840137) vcan0  00000309   [8]  06 E4 00 00 00 00 00 00
(1.840247) vcan0  00000326   [8]  00 00 00 00 00 00 00 00
(1.840286) vcan0  0000037B   [8]  00 00 00 00 00 00 00 00
(1.840398) vcan0  000001A3   [8]  00 00 00 00 00 00 00 00
(1.840736) vcan0  0000017C   [8]  4B 00 00 00 00 00 00 00
(1.852135) vcan0  0000014A   [8]  00 00 00 E6 3F 59 33 F8
(1.852264) vcan0  000001A4   [8]  00 67 00 00 00 00 00 00
(1.852858) vcan0  0000017C   [8]  4B 00 00 00 00 00 00 00
(1.853192) vcan0  00000374   [8]  00 00 00 00 00 00 00 00
(1.853360) vcan0  0000037B   [8]  00 00 00 00 00 00 00 00
(1.853711) vcan0  00000326   [8]  00 00 00 00 00 00 00 00
(1.853866) vcan0  000001A3   [8]  00 00 00 00 00 00 00 00
(1.854014) vcan0  00000309   [8]  06 F5 00 00 00 00 00 00
(1.862901) vcan0  0000037B   [8]  00 00 00 00 00 00 00 00
(1.863342) vcan0  00000309   [8]  07 05 00 00 00 00 00 00
(1.863390) vcan0  0000017C   [8]  4B 00 00 00 00 00 00 00
(1.863671) vcan0  000001A3   [8]  00 00 00 00 00 00 00 00
(1.863694) vcan0  00000326   [8]  00 00 00 00 00 00 00 00
(1.863903) vcan0  00000374   [8]  00 00 00 00 00 00 00 00
(1.864048) vcan0  000001A4   [8]  00 67 00 00 00 00 00 00
(1.864081) vcan0  0000014A   [8]  00 00 00 E2 29 57 43 06
(1.875595) vcan0  0000017C   [8]  4B 00 00 00 00 00 00 00
(1.875801) vcan0  00000374   [8]  00 00 00 00 00 00 00 00
(1.876203) vcan0  0000037B   [8]  00 00 00 00 00 00 00 00
(1.876235) vcan0  000001A3   [8]  00 00 00 00 00 00 00 00
(1.876612) vcan0  00000309   [8]  07 15 00 00 00 00 00 00
(1.876617) vcan0  00000326   [8]  00 00 00 00 00 00 00 00
(1.877162) vcan0  0000014A   [8]  00 00 00 DE 38 82 DA F2
(1.877228) vcan0  000001A4   [8]  00 67 00 00 00 00 00 00
(1.887008) vcan0  000001A3   [8]  00 00 00 00 00 00 00 00
(1.887258) vcan0  000001A4   [8]  00 67 00 00 00 00 00 00
(1.887300) vcan0  00000374   [8]  00 00 00 00 00 00 00 00
(1.887446) vcan0  0000037B   [8]  00 00 00 00 00 00 00 00
(1.887494) vcan0  00000326   [8]  00 00 00 00 00 00 00 00
(1.887696) vcan0  00000309   [8]  07 25 00 00 00 00 00 00
(1.888008) vcan0  0000014A   [8]  00 00 00 DA 6E 1A 61 16
(1.888027) vcan0  0000017C   [8]  4B 00 00 00 00 00 00 00
(1.898862) vcan0  0000014A   [8]  00 00 00 D6 BB F2 EA 18
(1.899401) vcan0  00000326   [8]  00 00 00 00 00 00 00 00
(1.899439) vcan0  00000309   [8]  07 35 00 00 00 00 00 00
(1.899827) vcan0  000001A3   [8]  00 00 00 00 00 00 00 00
(1.899901) vcan0  000001A4   [8]  00 67 00 00 00 00 00 00
(1.900137) vcan0  0000037B   [8]  00 00 00 00 00 00 00 00
(1.900314) vcan0  0000017C   [8]  4B 00 00 00 00 00 00 00
(1.900406) vcan0  00000374   [8]  00 00 00 00 00 00 00 00
(1.911709) vcan0  00000309   [8]  07 45 00 00 00 00 00 00
(1.912058) vcan0  000001A3   [8]  00 00 00 00 00 00 00 00
(1.912345) vcan0  00000374   [8]  00 00 00 00 00 00 00 00
(1.912399) vcan0  000001A4   [8]  00 67 00 00 00 00 00 00
(1.912402) vcan0  0000037B   [8]  00 00 00 00 00 00 00 00
(1.912645) vcan0  0000014A   [8]  00 00 00 D3 27 D4 19 7C
(1.913003) vcan0  0000017C   [8]  4B 00 00 00 00 00 00 00
(1.913248) vcan0  00000326   [8]  00 00 00 00 00 00 00 00
(1.923375) vcan0  00000326   [8]  00 00 00 00 00 00 00 00
(1.923680) vcan0  0000017C   [8]  4B 00 00 00 00 00 00 00
(1.924678) vcan0  000001A3   [8]  00 00 00 00 00 00 00 00
(1.924708) vcan0  000001A4   [8]  00 67 00 00 00 00 00 00
(1.924867) vcan0  00000309   [8]  07 54 00 00 00 00 00 00
(1.924963) vcan0  00000374   [8]  00 00 00 00 00 00 00 00
(1.925196) vcan0  0000014A   [8]  00 00 00 CF A4 E5 33 A4
(1.925227) vcan0  0000037B   [8]  00 00 00 00 00 00 00 00
(1.935437) vcan0  0000017C   [8]  4B 00 00 00 00 00 00 00
(1.935503) vcan0  000001A4   [8]  00 67 00 00 00 00 00 00
(1.935959) vcan0  0000037B   [8]  00 00 00 00 00 00 00 00
(1.935999) vcan0  00000309   [8]  07 64 00 00 00 00 00 00
(1.936198) vcan0  00000326   [8]  00 00 00 00 00 00 00 00
(1.936291) vcan0  0000014A   [8]  00 00 00 CC 59 59 B0 AC
(1.936394) vcan0  00000374   [8]  00 00 00 00 00 00 00 00
(1.936895) vcan0  000001A3   [8]  00 00 00 00 00 00 00 00
(1.946874) vcan0  000001A3   [8]  00 00 00 00 00 00 00 00
(1.947002) vcan0  0000017C   [8]  4B 00 00 00 00 00 00 00
(1.947089) vcan0  000001A4   [8]  00 67 00 00 00 00 00 00
(1.947151) vcan0  0000014A   [8]  00 00 00 C8 CC 69 A7 BE
(1.947418) vcan0  0000037B   [8]  00 00 00 00 00 00 00 00
(1.947460) vcan0  00000374   [8]  00 00 00 00 00 00 00 00
(1.947539) vcan0  00000326   [8]  00 00 00 00 00 00 00 00
(1.947652) vcan0  00000309   [8]  07 74 00 00 00 00 00 00
(1.959447) vcan0  000001A3   [8]  00 00 00 00 00 00 00 00
(1.959578) vcan0  0000017C   [8]  4B 00 00 00 00 00 00 00
(1.959887) vcan0  00000326   [8]  00 00 00 00 00 00 00 00
(1.960056) vcan0  000001A4   [8]  00 67 00 00 00 00 00 00
(1.960731) vcan0  00000374   [8]  00 00 00 00 00 00 00 00
(1.960788) vcan0  0000014A   [8]  00 00 00 C6 7D 9A DE 7E
(1.960869) vcan0  00000309   [8]  07 83 00 00 00 00 00 00
(1.961346) vcan0  0000037B   [8]  00 00 00 00 00 00 00 00
(1.971128) vcan0  0000037B   [8]  00 00 00 00 00 00 00 00
(1.971398) vcan0  000001A3   [8]  00 00 00 00 00 00 00 00
(1.971411) vcan0  00000309   [8]  07 8C 00 00 00 00 00 00
(1.971500) vcan0  000001A4   [8]  00 67 00 00 00 00 00 00
(1.971566) vcan0  0000017C   [8]  4B 00 00 00 00 00 00 00
(1.971807) vcan0  00000374   [8]  00 00 00 00 00 00 00 00
(1.971862) vcan0  0000014A   [8]  00 00 00 C0 C1 C2 DF BE
(1.971994) vcan0  00000326   [8]  00 00 00 00 00 00 00 00
(1.983878) vcan0  000001A4   [8]  00 67 00 00 00 00 00 00
(1.983888) vcan0  00000309   [8]  07 8A 00 00 00 00 00 00
(1.984171) vcan0  00000326   [8]  00 00 00 00 00 00 00 00
(1.984189) vcan0  0000014A   [8]  00 00 00 C3 95 7F E5 5C
(1.984745) vcan0  000001A3   [8]  00 00 00 00 00 00 00 00
(1.985007) vcan0  0000017C   [8]  4B 00 00 00 00 00 00 00
(1.985269) vcan0  0000037B   [8]  00 00 00 00 00 00 00 00
(1.985662) vcan0  00000374   [8]  00 00 00 00 00 00 00 00
(1.995010) vcan0  000001A4   [8]  00 67 00 00 00 00 00 00
(1.995094) vcan0  00000309   [8]  07 81 00 00 00 00 00 00
(1.995589) vcan0  00000374   [8]  00 00 00 00 00 00 00 00
(1.995667) vcan0  0000014A   [8]  00 00 00 B9 B2 F0 47 54
(1.995795) vcan0  0000037B   [8]  00 00 00 00 00 00 00 00
(1.996339) vcan0  0000017C   [8]  4B 00 00 00 00 00 00 00
(1.996618) vcan0  00000326   [8]  00 00 00 00 00 00 00 00
(1.996641) vcan0  000001A3   [8]  00 00 00 00 00 00 00 00
(2.006476) vcan0  000001A3   [8]  00 00 00 00 00 00 00 00
(2.007101) vcan0  0000037B   [8]  00 00 00 00 00 00 00 00
(2.007162) vcan0  000001A4   [8]  00 67 00 00 00 00 00 00
(2.007377) vcan0  0000017C   [8]  4B 00 00 00 00 00 00 00
(2.007504) vcan0  00000326   [8]  00 00 00 00 00 00 00 00
(2.007668) vcan0  00000309   [8]  07 7B 00 00 00 00 00 00
(2.007921) vcan0  0000014A   [8]  00 00 00 BD C2 EB 6C FE
(2.008044) vcan0  00000374   [8]  00 00 00 00 00 00 00 00
(2.019509) vcan0  000001A4   [8]  00 67 00 00 00 00 00 00
(2.019533) vcan0  0000014A   [8]  00 00 00 B4 6C 0A 3A CE
(2.019664) vcan0  0000017C   [8]  4B 00 00 00 00 00 00 00
(2.019781) vcan0  0000037B   [8]  00 00 00 00 00 00 00 00
(2.020126) vcan0  00000374   [8]  00 00 00 00 00 00 00 00
(2.020543) vcan0  00000326   [8]  00 00 00 00 00 00 00 00
(2.020920) vcan0  00000309   [8]  07 76 00 00 00 00 00 00
(2.021072) vcan0  000001A3   [8]  00 00 00 00 00 00 00 00
(2.031231) vcan0  0000017C   [8]  4B 00 00 00 00 00 00 00
(2.031567) vcan0  000001A4   [8]  00 67 00 00 00 00 00 00
(2.031622) vcan0  00000326   [8]  00 00 00 00 00 00 00 00
(2.032208) vcan0  0000014A   [8]  00 00 00 B8 9B D5 35 F0
(2.032208) vcan0  000001A3   [8]  00 00 00 00 00 00 00 00
(2.032365) vcan0  00000374   [8]  00 00 00 00 00 00 00 00
(2.032380) vcan0  00000309   [8]  07 72 00 00 00 00 00 00
(2.032597) vcan0  0000037B   [8]  00 00 00 00 00 00 00 00
(2.043973) vcan0  0000014A   [8]  00 00 00 AF 5B 06 85 FA
(2.044063) vcan0  0000037B   [8]  00 00 00 00 00 00 00 00
(2.044300) vcan0  00000309   [8]  07 6E 00 00 00 00 00 00
(2.044460) vcan0  0000017C   [8]  4B 00 00 00 00 00 00 00
(2.044797) vcan0  00000326   [8]  00 00 00 00 00 00 00 00
(2.044915) vcan0  00000374   [8]  00 00 00 00 00 00 00 00
(2.045022) vcan0  000001A4   [8]  00 67 00 00 00 00 00 00
(2.045325) vcan0  000001A3   [8]  00 00 00 00 00 00 00 00
(2.055270) vcan0  00000326   [8]  00 00 00 00 00 00 00 00
(2.055449) vcan0  000001A4   [8]  00 67 00 00 00 00 00 00
(2.055809) vcan0  0000037B   [8]  00 00 00 00 00 00 00 00
(2.055841) vcan0  00000374   [8]  00 00 00 00 00 00 00 00
(2.055925) vcan0  000001A3   [8]  00 00 00 00 00 00 00 00
(2.056339) vcan0  0000017C   [8]  4B 00 00 00 00 00 00 00
(2.056638) vcan0  00000309   [8]  07 6B 00 00 00 00 00 00
(2.056768) vcan0  0000014A   [8]  00 00 00 B3 A8 EF FB 6C
(2.067768) vcan0  000001A3   [8]  00 00 00 00 00 00 00 00
(2.068810) vcan0  0000014A   [8]  00 00 00 AA 96 A6 95 0A
(2.069034) vcan0  000001A4   [8]  00 67 00 00 00 00 00 00
(2.069162) vcan0  0000017C   [8]  4B 00 00 00 00 00 00 00
(2.069167) vcan0  00000326   [8]  00 00 00 00 00 00 00 00
(2.069181) vcan0  00000309   [8]  07 67 00 00 00 00 00 00
(2.069271) vcan0  00000374   [8]  00 00 00 00 00 00 00 00
(2.069377) vcan0  0000037B   [8]  00 00 00 00 00 00 00 00
(2.079251) vcan0  000001A3   [8]  00 00 00 00 00 00 00 00
(2.079559) vcan0  00000326   [8]  00 00 00 00 00 00 00 00
(2.079760) vcan0  0000014A   [8]  00 00 00 AF 0A 08 A9 DA
(2.079947) vcan0  0000037B   [8]  00 00 00 00 00 00 00 00
(2.080033) vcan0  00000374   [8]  00 00 00 00 00 00 00 00
(2.080257) vcan0  000001A4   [8]  00 67 00 00 00 00 00 00
(2.080580) vcan0  0000017C   [8]  4B 00 00 00 00 00 00 00
(2.080619) vcan0  00000309   [8]  07 65 00 00 00 00 00 00
(2.091644) vcan0  0000037B   [8]  00 00 00 00 00 00 00 00
(2.091785) vcan0  0000017C   [8]  4B 00 00 00 00 00 00 00
(2.092077) vcan0  000001A4   [8]  00 67 00 00 00 00 00 00
(2.092099) vcan0  0000014A   [8]  00 00 00 A6 1F A9 09 4E
(2.092414) vcan0  000001A3   [8]  00 00 00 00 00 00 00 00
(2.092434) vcan0  00000374   [8]  00 00 00 00 00 00 00 00
(2.092444) vcan0  00000326   [8]  00 00 00 00 00 00 00 00
(2.092652) vcan0  00000309   [8]  07 63 00 00 00 00 00 00
(2.102234) vcan0  0000017C   [8]  4B 00 00 00 00 00 00 00
(2.103260) vcan0  0000037B   [8]  00 00 00 00 00 00 00 00
(2.103303) vcan0  00000326   [8]  00 00 00 00 00 00 00 00
(2.103342) vcan0  0000014A   [8]  00 00 00 AA B6 0B 05 DC
(2.103623) vcan0  00000309   [8]  07 62 00 00 00 00 00 00
(2.103819) vcan0  000001A3   [8]  00 00 00 00 00 00 00 00
(2.103893) vcan0  00000374   [8]  00 00 00 00 00 00 00 00
(2.103939) vcan0  000001A4   [8]  00 67 00 00 00 00 00 00
(2.115408) vcan0  000001A4   [8]  00 67 00 00 00 00 00 00
(2.115442) vcan0  00000374   [8]  00 00 00 00 00 00 00 00
(2.115849) vcan0  000001A3   [8]  00 00 00 00 00 00 00 00
(2.116016) vcan0  0000017C   [8]  4B 00 00 00 00 00 00 00
(2.116063) vcan0  00000326   [8]  00 00 00 00 00 00 00 00
(2.116109) vcan0  0000014A   [8]  00 00 00 A2 0B 06 AB 60
(2.116113) vcan0  0000037B   [8]  00 00 00 00 00 00 00 00
(2.116438) vcan0  00000309   [8]  07 61 00 00 00 00 00 00
(2.127128) vcan0  000001A3   [8]  00 00 00 00 00 00 00 00
(2.127241) vcan0  00000309   [8]  07 61 00 00 00 00 00 00
(2.127396) vcan0  0000014A   [8]  00 00 00 A6 BB C7 DF 1C
(2.127502) vcan0  00000326   [8]  00 00 00 00 00 00 00 00
(2.127889) vcan0  0000017C   [8]  4B 00 00 00 00 00 00 00
(2.128036) vcan0  0000037B   [8]  00 00 00 00 00 00 00 00
(2.128691) vcan0  000001A4   [8]  00 67 00 00 00 00 00 00
(2.128832) vcan0  00000374   [8]  00 00 00 00 00 00 00 00
(2.139090) vcan0  00000374   [8]  00 00 00 00 00 00 00 00
(2.139532) vcan0  0000037B   [8]  00 00 00 00 00 00 00 00
(2.139687) vcan0  0000017C   [8]  4B 00 00 00 00 00 00 00
(2.139996) vcan0  00000309   [8]  07 61 00 00 00 00 00 00
(2.140080) vcan0  000001A4   [8]  00 67 00 00 00 00 00 00
(2.140261) vcan0  0000014A   [8]  00 00 00 9E 3A 57 14 74
(2.140453) vcan0  000001A3   [8]  00 00 00 00 00 00 00 00
(2.140523) vcan0  00000326   [8]  00 00 00 00 00 00 00 00
(2.152223) vcan0  00000374   [8]  00 00 00 00 00 00 00 00
(2.152362) vcan0  0000017C   [8]  4B 00 00 00 00 00 00 00
(2.152803) vcan0  00000326   [8]  00 00 00 00 00 00 00 00
(2.152856) vcan0  0000037B   [8]  00 00 00 00 00 00 00 00
(2.153159) vcan0  0000014A   [8]  00 00 00 A3 0A B4 4F 9E
(2.153200) vcan0  000001A3   [8]  00 00 00 00 00 00 00 00
(2.153538) vcan0  00000309   [8]  07 62 00 00 00 00 00 00
(2.153591) vcan0  000001A4   [8]  00 67 00 00 00 00 00 00
(2.162755) vcan0  0000014A   [8]  00 00 00 9A BF DC 0D 48
(2.163247) vcan0  000001A3   [8]  00 00 00 00 00 00 00 00
(2.163604) vcan0  0000037B   [8]  00 00 00 00 00 00 00 00
(2.163823) vcan0  0000017C   [8]  4B 00 00 00 00 00 00 00
(2.163957) vcan0  00000326   [8]  00 00 00 00 00 00 00 00
(2.164173) vcan0  00000374   [8]  00 00 00 00 00 00 00 00
(2.164181) vcan0  000001A4   [8]  00 67 00 00 00 00 00 00
(2.164367) vcan0  00000309   [8]  07 63 00 00 00 00 00 00
(2.175931) vcan0  0000014A   [8]  00 00 00 9F 9F 9C 7C 88
(2.175967) vcan0  00000326   [8]  00 00 00 00 00 00 00 00
(2.175979) vcan0  0000037B   [8]  00 00 00 00 00 00 00 00
(2.176123) vcan0  000001A3   [8]  00 00 00 00 00 00 00 00
(2.176781) vcan0  00000374   [8]  00 00 00 00 00 00 00 00
(2.176841) vcan0  000001A4   [8]  00 67 00 00 00 00 00 00
(2.177229) vcan0  0000017C   [8]  4B 00 00 00 00 00 00 00
(2.177504) vcan0  00000309   [8]  07 65 00 00 00 00 00 00
(2.187107) vcan0  000001A3   [8]  00 00 00 00 00 00 00 00
(2.187621) vcan0  0000014A   [8]  00 00 00 97 8A 4C 7E 56
(2.187709) vcan0  0000037B   [8]  00 00 00 00 00 00 00 00
(2.187765) vcan0  00000326   [8]  00 00 00 00 00 00 00 00
(2.188190) vcan0  00000374   [8]  00 00 00 00 00 00 00 00
(2.188313) vcan0  0000017C   [8]  4B 00 00 00 00 00 00 00
(2.188339) vcan0  000001A4   [8]  00 67 00 00 00 00 00 00
(2.188501) vcan0  00000309   [8]  07 67 00 00 00 00 00 00
(2.199610) vcan0  0000014A   [8]  00 00 00 9C 7A A1 DE 04
(2.200051) vcan0  00000326   [8]  00 00 00 00 00 00 00 00
(2.200527) vcan0  0000017C   [8]  4B 00 00 00 00 00 00 00
(2.200595) vcan0  000001A3   [8]  00 00 00 00 00 00 00 00
(2.200654) vcan0  000001A4   [8]  00 67 00 00 00 00 00 00
(2.200810) vcan0  0000037B   [8]  00 00 00 00 00 00 00 00
(2.201133) vcan0  00000309   [8]  07 6A 00 00 00 00 00 00
(2.201263) vcan0  00000374   [8]  00 00 00 00 00 00 00 00
(2.211086) vcan0  000001A4   [8]  00 67 00 00 00 00 00 00
(2.211590) vcan0  00000309   [8]  07 6D 00 00 00 00 00 00
(2.211629) vcan0  0000037B   [8]  00 00 00 00 00 00 00 00
(2.211802) vcan0  00000326   [8]  00 00 00 00 00 00 00 00
(2.211817) vcan0  0000014A   [8]  00 00 00 94 98 E2 CA 2A
(2.211882) vcan0  0000017C   [8]  4B 00 00 00 00 00 00 00
(2.212320) vcan0  000001A3   [8]  00 00 00 00 00 00 00 00
(2.212337) vcan0  00000374   [8]  00 00 00 00 00 00 00 00
(2.223560) vcan0  0000014A   [8]  00 00 00 99 98 58 6D 98
(2.223587) vcan0  0000037B   [8]  00 00 00 00 00 00 00 00
(2.223622) vcan0  0000017C   [8]  4B 00 00 00 00 00 00 00
(2.224205) vcan0  00000374   [8]  00 00 00 00 00 00 00 00
(2.224494) vcan0  000001A4   [8]  00 67 00 00 00 00 00 00
(2.224507) vcan0  00000309   [8]  07 71 00 00 00 00 00 00
(2.224831) vcan0  00000326   [8]  00 00 00 00 00 00 00 00
(2.224988) vcan0  000001A3   [8]  00 00 00 00 00 00 00 00
(2.235009) vcan0  00000309   [8]  07 75 00 00 00 00 00 00
(2.235071) vcan0  0000014A   [8]  00 00 00 91 E3 4D 69 CC
(2.235248) vcan0  00000374   [8]  00 00 00 00 00 00 00 00
(2.235571) vcan0  0000017C   [8]  4B 00 00 00 00 00 00 00
(2.235926) vcan0  00000326   [8]  00 00 00 00 00 00 00 00
(2.236181) vcan0  000001A4   [8]  00 67 00 00 00 00 00 00
(2.236419) vcan0  0000037B   [8]  00 00 00 00 00 00 00 00
(2.236478) vcan0  000001A3   [8]  00 00 00 00 00 00 00 00
(2.247777) vcan0  00000309   [8]  07 7A 00 00 00 00 00 00
(2.248019) vcan0  00000326   [8]  00 00 00 00 00 00 00 00
(2.248449) vcan0  00000374   [8]  00 00 00 00 00 00 00 00
(2.248687) vcan0  0000017C   [8]  4B 00 00 00 00 00 00 00
(2.249148) vcan0  0000037B   [8]  00 00 00 00 00 00 00 00
(2.249168) vcan0  000001A3   [8]  00 00 00 00 00 00 00 00
(2.249219) vcan0  000001A4   [8]  00 67 00 00 00 00 00 00
(2.249348) vcan0  0000014A   [8]  00 00 00 96 EF 07 10 5E
(2.259764) vcan0  000001A4   [8]  00 67 00 00 00 00 00 00
(2.259856) vcan0  0000017C   [8]  4B 00 00 00 00 00 00 00
(2.259972) vcan0  00000309   [8]  07 80 00 00 00 00 00 00
(2.260564) vcan0  0000037B   [8]  00 00 00 00 00 00 00 00
(2.260570) vcan0  00000326   [8]  00 00 00 00 00 00 00 00
(2.260886) vcan0  00000374   [8]  00 00 00 00 00 00 00 00
(2.260974) vcan0  0000014A   [8]  00 00 00 8F 65 9C CA 20
(2.261452) vcan0  000001A3   [8]  00 00 00 00 00 00 00 00
(2.271262) vcan0  00000374   [8]  00 00 00 00 00 00 00 00
(2.271911) vcan0  0000017C   [8]  4B 00 00 00 00 00 00 00
(2.272463) vcan0  00000309   [8]  07 86 00 00 00 00 00 00
(2.272617) vcan0  0000037B   [8]  00 00 00 00 00 00 00 00
(2.272752) vcan0  000001A4   [8]  00 67 00 00 00 00 00 00
(2.272871) vcan0  0000014A   [8]  00 00 00 94 7C F4 FF 48
(2.272881) vcan0  000001A3   [8]  00 00 00 00 00 00 00 00
(2.272938) vcan0  00000326   [8]  00 00 00 00 00 00 00 00
(2.282404) vcan0  00000374   [8]  00 00 00 00 00 00 00 00
(2.282993) vcan0  0000014A   [8]  00 00 00 8D 1A D6 2B B8
(2.283305) vcan0  000001A4   [8]  00 67 00 00 00 00 00 00
(2.283476) vcan0  0000037B   [8]  00 00 00 00 00 00 00 00
(2.283688) vcan0  000001A3   [8]  00 00 00 00 00 00 00 00
(2.284053) vcan0  00000326   [8]  00 00 00 00 00 00 00 00
(2.284158) vcan0  0000017C   [8]  4B 00 00 00 00 00 00 00
(2.284255) vcan0  00000309   [8]  07 8C 00 00 00 00 00 00
(2.294373) vcan0  00000326   [8]  00 00 00 00 00 00 00 00
(2.294535) vcan0  000001A3   [8]  00 00 00 00 00 00 00 00
(2.294603) vcan0  00000309   [8]  07 93 00 00 00 00 00 00
(2.294721) vcan0  0000017C   [8]  4B 00 00 00 00 00 00 00
(2.295065) vcan0  0000037B   [8]  00 00 00 00 00 00 00 00
(2.295089) vcan0  0000014A   [8]  00 00 00 92 3A 4D 43 DA
(2.295461) vcan0  000001A4   [8]  00 67 00 00 00 00 00 00
(2.296114) vcan0  00000374   [8]  00 00 00 00 00 00 00 00
(2.306324) vcan0  0000037B   [8]  00 00 00 00 00 00 00 00
(2.306378) vcan0  000001A3   [8]  00 00 00 00 00 00 00 00
(2.306423) vcan0  00000326   [8]  00 00 00 00 00 00 00 00
(2.306474) vcan0  00000374   [8]  00 00 00 00 00 00 00 00
(2.307296) vcan0  0000014A   [8]  00 00 00 8B 00 6E 81 18
(2.307392) vcan0  000001A4   [8]  00 67 00 00 00 00 00 00
(2.307841) vcan0  0000017C   [8]  4B 00 00 00 00 00 00 00
(2.307864) vcan0  00000309   [8]  07 9A 00 00 00 00 00 00
(2.319281) vcan0  0000014A   [8]  00 00 00 90 1D 1F 07 4C
(2.319293) vcan0  0000017C   [8]  4B 00 00 00 00 00 00 00
(2.319377) vcan0  00000326   [8]  00 00 00 00 00 00 00 00
(2.319378) vcan0  000001A3   [8]  00 00 00 00 00 00 00 00
(2.319993) vcan0  000001A4   [8]  00 67 00 00 00 00 00 00
(2.320383) vcan0  00000374   [8]  00 00 00 00 00 00 00 00
(2.320396) vcan0  0000037B   [8]  00 00 00 00 00 00 00 00
(2.320423) vcan0  00000309   [8]  07 A2 00 00 00 00 00 00
(2.330363) vcan0  0000017C   [8]  4B 00 00 00 00 00 00 00
(2.330675) vcan0  00000309   [8]  07 AA 00 00 00 00 00 00
(2.330854) vcan0  00000374   [8]  00 00 00 00 00 00 00 00
(2.330892) vcan0  000001A3   [8]  00 00 00 00 00 00 00 00
(2.331085) vcan0  000001A4   [8]  00 67 00 00 00 00 00 00
(2.331165) vcan0  0000014A   [8]  00 00 00 89 1A 17 5F 9C
(2.331237) vcan0  0000037B   [8]  00 00 00 00 00 00 00 00
(2.331356) vcan0  00000326   [8]  00 00 00 00 00 00 00 00
(2.342457) vcan0  00000326   [8]  00 00 00 00 00 00 00 00
(2.342752) vcan0  0000037B   [8]  00 00 00 00 00 00 00 00
(2.342838) vcan0  0000017C   [8]  4B 00 00 00 00 00 00 00
(2.342893) vcan0  000001A4   [8]  00 67 00 00 00 00 00 00
(2.343340) vcan0  00000309   [8]  07 B2 00 00 00 00 00 00
(2.343370) vcan0  0000014A   [8]  00 00 00 8E 3B 0E 0E 66
(2.344009) vcan0  000001A3   [8]  00 00 00 00 00 00 00 00
(2.344120) vcan0  00000374   [8]  00 00 00 00 00 00 00 00
(2.355213) vcan0  0000017C   [8]  4B 00 00 00 00 00 00 00
(2.355349) vcan0  0000037B   [8]  00 00 00 00 00 00 00 00
(2.355614) vcan0  000001A4   [8]  00 67 00 00 00 00 00 00
(2.355711) vcan0  000001A3   [8]  00 00 00 00 00 00 00 00
(2.355925) vcan0  00000374   [8]  00 00 00 00 00 00 00 00
(2.355985) vcan0  00000326   [8]  00 00 00 00 00 00 00 00
(2.356271) vcan0  00000309   [8]  07 B5 00 00 00 00 00 00
(2.356763) vcan0  0000014A   [8]  00 00 00 87 34 64 63 66
(2.365726) vcan0  00000326   [8]  00 00 00 00 00 00 00 00
(2.366152) vcan0  00000309   [8]  07 B0 00 00 00 00 00 00
(2.366255) vcan0  0000014A   [8]  00 00 00 8D 33 23 FC D6
(2.366469) vcan0  000001A3   [8]  00 00 00 00 00 00 00 00
(2.366538) vcan0  0000017C   [8]  4B 00 00 00 00 00 00 00
(2.366961) vcan0  0000037B   [8]  00 00 00 00 00 00 00 00
(2.367235) vcan0  000001A4   [8]  00 67 00 00 00 00 00 00
(2.367520) vcan0  00000374   [8]  00 00 00 00 00 00 00 00
(2.378667) vcan0  00000374   [8]  00 00 00 00 00 00 00 00
(2.379110) vcan0  0000037B   [8]  00 00 00 00 00 00 00 00
(2.379171) vcan0  00000309   [8]  07 AE 00 00 00 00 00 00
(2.379183) vcan0  0000014A   [8]  00 00 00 85 B0 59 4D 6C
(2.379270) vcan0  000001A3   [8]  00 00 00 00 00 00 00 00
(2.379389) vcan0  000001A4   [8]  00 67 00 00 00 00 00 00
(2.379538) vcan0  0000017C   [8]  4B 00 00 00 00 00 00 00
(2.380027) vcan0  00000326   [8]  00 00 00 00 00 00 00 00
(2.389357) vcan0  000001A3   [8]  00 00 00 00 00 00 00 00
(2.389803) vcan0  0000017C   [8]  4B 00 00 00 00 00 00 00
(2.390094) vcan0  00000309   [8]  07 B0 00 00 00 00 00 00
(2.390115) vcan0  000001A4   [8]  00 67 00 00 00 00 00 00
(2.390326) vcan0  00000326   [8]  00 00 00 00 00 00 00 00
(2.390586) vcan0  00000374   [8]  00 00 00 00 00 00 00 00
(2.390936) vcan0  0000014A   [8]  00 00 00 8B 5E 9B D3 8E
(2.391142) vcan0  0000037B   [8]  00 00 00 00 00 00 00 00
(2.402090) vcan0  00000374   [8]  00 00 00 00 00 00 00 00
(2.402379) vcan0  0000014A   [8]  00 00 00 84 28 D2 FC 0A
(2.402622) vcan0  000001A4   [8]  00 67 00 00 00 00 00 00
(2.402725) vcan0  0000037B   [8]  00 00 00 00 00 00 00 00
(2.403030) vcan0  0000017C   [8]  4B 00 00 00 00 00 00 00
(2.403368) vcan0  000001A3   [8]  00 00 00 00 00 00 00 00
(2.403480) vcan0  00000309   [8]  07 B1 00 00 00 00 00 00
(2.403526) vcan0  00000326   [8]  00 00 00 00 00 00 00 00
(2.414006) vcan0  00000326   [8]  00 00 00 00 00 00 00 00
(2.414552) vcan0  000001A3   [8]  00 00 00 00 00 00 00 00
(2.414638) vcan0  0000014A   [8]  00 00 00 8A 1A AB 39 F2
(2.415013) vcan0  00000309   [8]  07 AF 00 00 00 00 00 00
(2.415029) vcan0  0000037B   [8]  00 00 00 00 00 00 00 00
(2.415091) vcan0  0000017C   [8]  4B 00 00 00 00 00 00 00
(2.415311) vcan0  00000374   [8]  00 00 00 00 00 00 00 00
(2.415433) vcan0  000001A4   [8]  00 67 00 00 00 00 00 00
(2.426798) vcan0  000001A3   [8]  00 00 00 00 00 00 00 00
(2.426832) vcan0  0000037B   [8]  00 00 00 00 00 00 00 00
(2.426855) vcan0  000001A4   [8]  00 67 00 00 00 00 00 00
(2.427539) vcan0  0000017C   [8]  4B 00 00 00 00 00 00 00
(2.427723) vcan0  00000309   [8]  07 AF 00 00 00 00 00 00
(2.427767) vcan0  00000326   [8]  00 00 00 00 00 00 00 00
(2.428026) vcan0  00000374   [8]  00 00 00 00 00 00 00 00
(2.428052) vcan0  0000014A   [8]  00 00 00 82 CE 00 13 10
(2.438083) vcan0  0000017C   [8]  4B 00 00 00 00 00 00 00
(2.438184) vcan0  0000037B   [8]  00 00 00 00 00 00 00 00
(2.438229) vcan0  000001A4   [8]  00 67 00 00 00 00 00 00
(2.438712) vcan0  000001A3   [8]  00 00 00 00 00 00 00 00
(2.438790) vcan0  00000309   [8]  07 AF 00 00 00 00 00 00
(2.438879) vcan0  0000014A   [8]  00 00 00 88 B0 9B 62 68
(2.438946) vcan0  00000326   [8]  00 00 00 00 00 00 00 00
(2.439627) vcan0  00000374   [8]  00 00 00 00 00 00 00 00
(2.449879) vcan0  000001A4   [8]  00 67 00 00 00 00 00 00
(2.449906) vcan0  0000017C   [8]  4B 00 00 00 00 00 00 00
(2.450105) vcan0  000001A3   [8]  00 00 00 00 00 00 00 00
(2.450263) vcan0  0000014A   [8]  00 00 00 81 86 91 1D 1E
(2.450431) vcan0  00000309   [8]  07 AF 00 00 00 00 00 00
(2.451143) vcan0  00000374   [8]  00 00 00 00 00 00 00 00
(2.451154) vcan0  0000037B   [8]  00 00 00 00 00 00 00 00
(2.451414) vcan0  00000326   [8]  00 00 00 00 00 00 00 00
(2.462433) vcan0  000001A3   [8]  00 00 00 00 00 00 00 00
(2.462667) vcan0  00000326   [8]  00 00 00 00 00 00 00 00
(2.463219) vcan0  000001A4   [8]  00 67 00 00 00 00 00 00
(2.463322) vcan0  00000374   [8]  00 00 00 00 00 00 00 00
(2.463862) vcan0  0000014A   [8]  00 00 00 87 8A F7 51 A8
(2.464010) vcan0  0000037B   [8]  00 00 00 00 00 00 00 00
(2.464028) vcan0  0000017C   [8]  4B 00 00 00 00 00 00 00
(2.464104) vcan0  00000309   [8]  07 AF 00 00 00 00 00 00
(2.474313) vcan0  00000326   [8]  00 00 00 00 00 00 00 00
(2.474523) vcan0  00000309   [8]  07 AE 00 00 00 00 00 00
(2.474764) vcan0  0000037B   [8]  00 00 00 00 00 00 00 00
(2.474801) vcan0  00000374   [8]  00 00 00 00 00 00 00 00
(2.474916) vcan0  0000014A   [8]  00 00 00 80 5E FA 10 2A
(2.475360) vcan0  0000017C   [8]  4B 00 00 00 00 00 00 00
(2.475439) vcan0  000001A4   [8]  00 67 00 00 00 00 00 00
(2.475644) vcan0  000001A3   [8]  00 00 00 00 00 00 00 00
(2.486944) vcan0  000001A4   [8]  00 67 00 00 00 00 00 00
(2.487117) vcan0  0000014A   [8]  00 00 00 86 36 85 92 04
(2.487205) vcan0  0000037B   [8]  00 00 00 00 00 00 00 00
(2.487309) vcan0  00000309   [8]  07 B8 00 00 00 00 00 00
(2.487635) vcan0  0000017C   [8]  4B 00 00 00 00 00 00 00
(2.487918) vcan0  000001A3   [8]  00 00 00 00 00 00 00 00
(2.488383) vcan0  00000326   [8]  00 00 00 00 00 00 00 00
(2.488451) vcan0  00000374   [8]  00 00 00 00 00 00 00 00
(2.497778) vcan0  00000374   [8]  00 00 00 00 00 00 00 00
(2.497889) vcan0  000001A4   [8]  00 67 00 00 00 00 00 00
(2.498083) vcan0  000001A3   [8]  00 00 00 00 00 00 00 00
(2.498341) vcan0  00000309   [8]  07 F9 00 00 00 00 00 00
(2.498504) vcan0  0000037B   [8]  00 00 00 00 00 00 00 00
(2.498600) vcan0  0000017C   [8]  4B 00 00 00 00 00 00 00
(2.498764) vcan0  0000014A   [8]  00 00 00 84 38 6F 3B 42
(2.498788) vcan0  00000326   [8]  00 00 00 00 00 00 00 00
(2.509700) vcan0  000001A4   [8]  00 67 00 00 00 00 00 00
(2.510522) vcan0  0000014A   [8]  00 00 00 84 77 25 FE EA
(2.510609) vcan0  00000326   [8]  00 00 00 00 00 00 00 00
(2.511034) vcan0  000001A3   [8]  00 00 00 00 00 00 00 00
(2.511044) vcan0  00000374   [8]  00 00 00 00 00 00 00 00
(2.511077) vcan0  0000017C   [8]  4B 00 00 00 00 00 00 00
(2.511194) vcan0  0000037B   [8]  00 00 00 00 00 00 00 00
(2.511268) vcan0  00000309   [8]  08 35 00 00 00 00 00 00
(2.522666) vcan0  00000326   [8]  00 00 00 00 00 00 00 00
(2.523167) vcan0  00000309   [8]  08 69 00 00 00 00 00 00
(2.523366) vcan0  0000014A   [8]  00 00 00 83 EB CE F5 6E
(2.523507) vcan0  0000017C   [8]  4B 00 00 00 00 00 00 00
(2.524035) vcan0  000001A4   [8]  00 67 00 00 00 00 00 00
(2.524256) vcan0  000001A3   [8]  00 00 00 00 00 00 00 00
(2.524259) vcan0  0000037B   [8]  00 00 00 00 00 00 00 00
(2.524276) vcan0  00000374   [8]  00 00 00 00 00 00 00 00
(2.534437) vcan0  0000017C   [8]  4B 00 00 00 00 00 00 00
(2.534515) vcan0  0000014A   [8]  00 00 00 0C B6 3B 0F 82
(2.534594) vcan0  00000374   [8]  00 00 00 00 00 00 00 00
(2.534762) vcan0  00000309   [8]  08 9B 00 00 00 00 00 00
(2.535650) vcan0  000001A4   [8]  00 67 00 00 00 00 00 00
(2.535657) vcan0  000001A3   [8]  00 00 00 00 00 00 00 00
(2.536084) vcan0  00000326   [8]  00 00 00 00 00 00 00 00
(2.536124) vcan0  0000037B   [8]  00 00 00 00 00 00 00 00
(2.545925) vcan0  000001A3   [8]  00 00 00 00 00 00 00 00
(2.545950) vcan0  00000374   [8]  00 00 00 00 00 00 00 00
(2.546529) vcan0  00000309   [8]  08 C9 00 00 00 00 00 00
(2.546784) vcan0  0000014A   [8]  01 FF FF CD 63 19 6A 82
(2.547146) vcan0  0000037B   [8]  00 00 00 00 00 00 00 00
(2.547163) vcan0  000001A4   [8]  00 67 00 00 00 00 00 00
(2.547531) vcan0  0000017C   [8]  4B 00 00 00 00 00 00 00
(2.547813) vcan0  00000326   [8]  00 00 00 00 00 00 00 00
(2.557698) vcan0  0000014A   [8]  01 FF FF CE 41 2A 82 9A
(2.558004) vcan0  000001A4   [8]  00 67 00 00 00 00 00 00
(2.558229) vcan0  0000037B   [8]  00 00 00 00 00 00 00 00
(2.558338) vcan0  0000017C   [8]  4B 00 00 00 00 00 00 00
(2.559014) vcan0  00000374   [8]  00 00 00 00 00 00 00 00
(2.559146) vcan0  00000309   [8]  08 F4 00 00 00 00 00 00
(2.559374) vcan0  00000326   [8]  00 00 00 00 00 00 00 00
(2.559396) vcan0  000001A3   [8]  00 00 00 00 00 00 00 00
(2.570197) vcan0  00000326   [8]  00 00 00 00 00 00 00 00
(2.570225) vcan0  000001A3   [8]  00 00 00 00 00 00 00 00
(2.570620) vcan0  000001A4   [8]  00 67 00 00 00 00 00 00
(2.570714) vcan0  0000037B   [8]  00 00 00 00 00 00 00 00
(2.571288) vcan0  0000014A   [8]  01 FF FF D0 40 1C 6F FC
(2.571526) vcan0  0000017C   [8]  4B 00 00 00 00 00 00 00
(2.571576) vcan0  00000309   [8]  09 1D 00 00 00 00 00 00
(2.571760) vcan0  00000374   [8]  00 00 00 00 00 00 00 00
(2.582843) vcan0  00000326   [8]  00 00 00 00 00 00 00 00
(2.583093) vcan0  0000017C   [8]  4B 00 00 00 00 00 00 00
(2.583167) vcan0  00000374   [8]  00 00 00 00 00 00 00 00
(2.583556) vcan0  0000014A   [8]  01 FF FF D3 8F 58 A8 CE
