(000.000000)  vcan0  1FFFFFFF   [8]  00 00 00 00 00 00 00 00
(000.003246)  vcan0  00000002   [8]  00 00 00 00 00 00 00 00
(000.003458)  vcan0  00000130   [8]  00 00 00 00 00 00 00 00
(000.003696)  vcan0  00000309   [8]  00 71 00 00 00 00 00 00
(000.003924)  vcan0  0000017C   [8]  4B 00 00 00 00 00 00 00
(000.004136)  vcan0  0000014A   [8]  00 00 00 51 7C E3 C0 F0
(000.004355)  vcan0  00000326   [8]  00 00 00 00 00 00 00 00
(000.004562)  vcan0  0000018F   [8]  00 00 00 00 00 00 00 00
(000.004776)  vcan0  00000374   [8]  00 00 00 00 00 00 00 00
(000.004987)  vcan0  000001A3   [8]  00 00 00 00 00 00 00 00
(000.005198)  vcan0  0000037B   [8]  00 00 00 00 00 00 00 00
(000.005411)  vcan0  000001A4   [8]  00 67 00 00 00 00 00 00
(000.168063)  vcan0  00000309   [8]  00 8E 00 00 00 00 00 00
(000.168278)  vcan0  00000130   [8]  00 00 00 00 00 00 00 00
(000.168523)  vcan0  0000017C   [8]  4B 00 00 00 00 00 00 00
(000.168755)  vcan0  0000014A   [8]  00 00 00 51 64 21 3A FE
(000.170642)  vcan0  00000309   [8]  00 AA 00 00 00 00 00 00
(000.170860)  vcan0  0000014A   [8]  00 00 00 51 57 BF D2 C4
(000.171083)  vcan0  0000017C   [8]  4B 00 00 00 00 00 00 00
(000.171290)  vcan0  00000130   [8]  00 00 00 00 00 00 00 00
(000.176422)  vcan0  0000014A   [8]  00 00 00 51 4B 5E 6A 8A
(000.176639)  vcan0  00000309   [8]  00 C6 00 00 00 00 00 00
(000.176846)  vcan0  00000130   [8]  00 00 00 00 00 00 00 00
(000.177122)  vcan0  0000017C   [8]  4B 00 00 00 00 00 00 00
(000.182104)  vcan0  00000309   [8]  00 E2 00 00 00 00 00 00
(000.182332)  vcan0  0000017C   [8]  4B 00 00 00 00 00 00 00
(000.182545)  vcan0  0000014A   [8]  00 00 00 51 3E FD 02 50
(000.182751)  vcan0  00000130   [8]  00 00 00 00 00 00 00 00
(000.188181)  vcan0  0000017C   [8]  4B 00 00 00 00 00 00 00
(000.188398)  vcan0  00000309   [8]  00 FF 00 00 00 00 00 00
(000.188607)  vcan0  00000130   [8]  00 00 00 00 00 00 00 00
(000.188849)  vcan0  0000014A   [8]  00 00 00 51 32 9B 9A 16
(000.194217)  vcan0  0000017C   [8]  4B 00 00 00 00 00 00 00
(000.194429)  vcan0  00000130   [8]  00 00 00 00 00 00 00 00
(000.194644)  vcan0  00000309   [8]  01 1B 00 00 00 00 00 00
(000.194858)  vcan0  0000014A   [8]  00 00 00 51 26 3A 31 DC
(000.200339)  vcan0  00000309   [8]  01 37 00 00 00 00 00 00
(000.200549)  vcan0  00000130   [8]  00 00 00 00 00 00 00 00
(000.200771)  vcan0  0000017C   [8]  4B 00 00 00 00 00 00 00
(000.200981)  vcan0  0000014A   [8]  00 00 00 51 19 D8 C9 A2
(000.206445)  vcan0  0000017C   [8]  4B 00 00 00 00 00 00 00
(000.206673)  vcan0  00000309   [8]  01 53 00 00 00 00 00 00
(000.206892)  vcan0  00000130   [8]  00 00 00 00 00 00 00 00
(000.207113)  vcan0  0000014A   [8]  00 00 00 51 0D 77 61 68
(000.212476)  vcan0  0000017C   [8]  4B 00 00 00 00 00 00 00
(000.212685)  vcan0  00000130   [8]  00 00 00 00 00 00 00 00
(000.212897)  vcan0  00000309   [8]  01 6F 00 00 00 00 00 00
(000.213106)  vcan0  0000014A   [8]  00 00 00 51 01 15 F9 2E
(000.218009)  vcan0  0000014A   [8]  00 00 00 51 01 15 F9 2E
(000.218221)  vcan0  00000309   [8]  01 8C 00 00 00 00 00 00
(000.218428)  vcan0  00000130   [8]  00 00 00 00 00 00 00 00
(000.218648)  vcan0  0000017C   [8]  4B 00 00 00 00 00 00 00
(000.224100)  vcan0  00000130   [8]  00 00 00 00 00 00 00 00
(000.224328)  vcan0  0000017C   [8]  4B 00 00 00 00 00 00 00
(000.224539)  vcan0  0000014A   [8]  00 00 00 51 01 15 F9 2E
(000.224747)  vcan0  00000309   [8]  01 A8 00 00 00 00 00 00
(000.230278)  vcan0  0000014A   [8]  00 00 00 51 01 15 F9 2E
(000.230491)  vcan0  00000309   [8]  01 C4 00 00 00 00 00 00
(000.230709)  vcan0  0000017C   [8]  4B 00 00 00 00 00 00 00
(000.230915)  vcan0  00000130   [8]  00 00 00 00 00 00 00 00
(000.236115)  vcan0  0000017C   [8]  4B 00 00 00 00 00 00 00
(000.236348)  vcan0  00000309   [8]  01 E0 00 00 00 00 00 00
(000.236597)  vcan0  0000014A   [8]  00 00 00 51 01 15 F9 2E
(000.236808)  vcan0  00000130   [8]  00 00 00 00 00 00 00 00
(000.242060)  vcan0  00000309   [8]  01 FD 00 00 00 00 00 00
(000.242277)  vcan0  0000014A   [8]  00 00 00 51 01 15 F9 2E
(000.242486)  vcan0  00000130   [8]  00 00 00 00 00 00 00 00
(000.242708)  vcan0  0000017C   [8]  4B 00 00 00 00 00 00 00
(000.248029)  vcan0  00000309   [8]  02 19 00 00 00 00 00 00
(000.248239)  vcan0  00000130   [8]  00 00 00 00 00 00 00 00
(000.248463)  vcan0  0000017C   [8]  4B 00 00 00 00 00 00 00
(000.248674)  vcan0  0000014A   [8]  00 00 00 51 01 15 F9 2E
(000.254617)  vcan0  00000130   [8]  00 00 00 00 00 00 00 00
(000.254871)  vcan0  0000017C   [8]  4B 00 00 00 00 00 00 00
(000.255100)  vcan0  00000309   [8]  02 35 00 00 00 00 00 00
(000.255319)  vcan0  0000014A   [8]  00 00 00 51 01 15 F9 2E
(000.260334)  vcan0  00000309   [8]  02 51 00 00 00 00 00 00
(000.260638)  vcan0  0000017C   [8]  4B 00 00 00 00 00 00 00
(000.260861)  vcan0  00000130   [8]  00 00 00 00 00 00 00 00
(000.261083)  vcan0  0000014A   [8]  00 00 00 51 01 15 F9 2E
(000.266390)  vcan0  0000014A   [8]  00 00 00 51 01 15 F9 2E
(000.266607)  vcan0  00000309   [8]  02 6D 00 00 00 00 00 00
(000.266829)  vcan0  0000017C   [8]  4B 00 00 00 00 00 00 00
(000.267037)  vcan0  00000130   [8]  00 00 00 00 00 00 00 00
(000.272002)  vcan0  0000014A   [8]  00 00 00 51 01 15 F9 2E
(000.272213)  vcan0  00000130   [8]  00 00 00 00 00 00 00 00
(000.272444)  vcan0  0000017C   [8]  4B 00 00 00 00 00 00 00
(000.272660)  vcan0  00000309   [8]  02 8A 00 00 00 00 00 00
(000.278109)  vcan0  00000309   [8]  02 A6 00 00 00 00 00 00
(000.278334)  vcan0  0000017C   [8]  4B 00 00 00 00 00 00 00
(000.278543)  vcan0  00000130   [8]  00 00 00 00 00 00 00 00
(000.278756)  vcan0  0000014A   [8]  00 00 00 51 01 15 F9 2E
(000.283949)  vcan0  00000130   [8]  00 00 00 00 00 00 00 00
(000.284195)  vcan0  0000014A   [8]  00 00 00 51 01 15 F9 2E
(000.284435)  vcan0  0000017C   [8]  4B 00 00 00 00 00 00 00
(000.284675)  vcan0  00000309   [8]  02 C2 00 00 00 00 00 00
(000.290770)  vcan0  0000014A   [8]  00 00 00 51 01 15 F9 2E
(000.290988)  vcan0  00000309   [8]  02 DE 00 00 00 00 00 00
(000.291194)  vcan0  00000130   [8]  00 00 00 00 00 00 00 00
(000.291413)  vcan0  0000017C   [8]  4B 00 00 00 00 00 00 00
(000.297137)  vcan0  0000017C   [8]  4B 00 00 00 00 00 00 00
(000.297353)  vcan0  00000309   [8]  02 FB 00 00 00 00 00 00
(000.297559)  vcan0  00000130   [8]  00 00 00 00 00 00 00 00
(000.297769)  vcan0  0000014A   [8]  00 00 00 51 01 15 F9 2E
(000.302697)  vcan0  00000130   [8]  00 00 00 00 00 00 00 00
(000.302928)  vcan0  0000014A   [8]  00 00 00 51 01 15 F9 2E
(000.303151)  vcan0  0000017C   [8]  4B 00 00 00 00 00 00 00
(000.303363)  vcan0  00000309   [8]  03 17 00 00 00 00 00 00
(000.308565)  vcan0  0000014A   [8]  00 00 00 85 6F E6 57 48
(000.308808)  vcan0  00000309   [8]  03 33 00 00 00 00 00 00
(000.309015)  vcan0  00000130   [8]  00 00 00 00 00 00 00 00
(000.309237)  vcan0  0000017C   [8]  4B 00 00 00 00 00 00 00
(000.314262)  vcan0  00000130   [8]  00 00 00 00 00 00 00 00
(000.314491)  vcan0  00000309   [8]  03 4F 00 00 00 00 00 00
(000.314707)  vcan0  0000014A   [8]  00 00 00 62 39 96 3B 92
(000.314929)  vcan0  0000017C   [8]  4B 00 00 00 00 00 00 00
(000.320237)  vcan0  00000130   [8]  00 00 00 00 00 00 00 00
(000.320462)  vcan0  0000014A   [8]  00 00 00 62 3F 39 7D DE
(000.320683)  vcan0  0000017C   [8]  4B 00 00 00 00 00 00 00
(000.320893)  vcan0  00000309   [8]  03 6B 00 00 00 00 00 00
(000.326083)  vcan0  0000017C   [8]  4B 00 00 00 00 00 00 00
(000.326292)  vcan0  00000130   [8]  00 00 00 00 00 00 00 00
(000.326503)  vcan0  00000309   [8]  03 88 00 00 00 00 00 00
(000.326714)  vcan0  0000014A   [8]  00 00 00 62 44 DC 9A E8
(000.332192)  vcan0  00000309   [8]  03 A4 00 00 00 00 00 00
(000.332409)  vcan0  0000014A   [8]  00 00 00 62 4A 7F DD 32
(000.332631)  vcan0  0000017C   [8]  4B 00 00 00 00 00 00 00
(000.332837)  vcan0  00000130   [8]  00 00 00 00 00 00 00 00
(000.338058)  vcan0  00000130   [8]  00 00 00 00 00 00 00 00
(000.338295)  vcan0  0000017C   [8]  4B 00 00 00 00 00 00 00
(000.338511)  vcan0  0000014A   [8]  00 00 00 62 50 22 FA 3C
(000.338722)  vcan0  00000309   [8]  03 C0 00 00 00 00 00 00
(000.344041)  vcan0  0000017C   [8]  4B 00 00 00 00 00 00 00
(000.344251)  vcan0  00000130   [8]  00 00 00 00 00 00 00 00
(000.344507)  vcan0  0000014A   [8]  00 00 00 62 55 C6 3C 86
(000.344717)  vcan0  00000309   [8]  03 DC 00 00 00 00 00 00
(000.350986)  vcan0  00000130   [8]  00 00 00 00 00 00 00 00
(000.351241)  vcan0  0000017C   [8]  4B 00 00 00 00 00 00 00
(000.351487)  vcan0  00000309   [8]  03 F9 00 00 00 00 00 00
(000.351705)  vcan0  0000014A   [8]  00 00 00 62 5B 69 59 90
(000.356556)  vcan0  00000309   [8]  04 15 00 00 00 00 00 00
(000.356773)  vcan0  0000014A   [8]  00 00 00 62 61 0C 9B DC
(000.356991)  vcan0  0000017C   [8]  4B 00 00 00 00 00 00 00
(000.357197)  vcan0  00000130   [8]  00 00 00 00 00 00 00 00
(000.362707)  vcan0  0000014A   [8]  00 00 00 62 66 AF B8 E6
(000.362917)  vcan0  00000130   [8]  00 00 00 00 00 00 00 00
(000.363136)  vcan0  0000017C   [8]  4B 00 00 00 00 00 00 00
(000.363346)  vcan0  00000309   [8]  04 31 00 00 00 00 00 00
(000.368173)  vcan0  0000017C   [8]  4B 00 00 00 00 00 00 00
(000.368387)  vcan0  00000309   [8]  04 4D 00 00 00 00 00 00
(000.368625)  vcan0  0000014A   [8]  00 00 00 62 66 AF B8 E6
(000.368830)  vcan0  00000130   [8]  00 00 00 00 00 00 00 00
(000.374279)  vcan0  0000017C   [8]  4B 00 00 00 00 00 00 00
(000.374492)  vcan0  00000130   [8]  00 00 00 00 00 00 00 00
(000.374727)  vcan0  0000014A   [8]  00 00 00 62 66 AF B8 E6
(000.374937)  vcan0  00000309   [8]  04 69 00 00 00 00 00 00
(000.380043)  vcan0  0000017C   [8]  4B 00 00 00 00 00 00 00
(000.380256)  vcan0  0000014A   [8]  00 00 00 62 66 AF B8 E6
(000.380466)  vcan0  00000309   [8]  04 49 00 00 00 00 00 00
(000.380672)  vcan0  00000130   [8]  00 00 00 00 00 00 00 00
(000.386302)  vcan0  00000130   [8]  00 00 00 00 00 00 00 00
(000.386558)  vcan0  0000017C   [8]  4B 00 00 00 00 00 00 00
(000.386785)  vcan0  0000014A   [8]  00 00 00 62 66 AF B8 E6
(000.387008)  vcan0  00000309   [8]  03 BC 00 00 00 00 00 00
(000.392264)  vcan0  0000017C   [8]  4B 00 00 00 00 00 00 00
(000.392475)  vcan0  00000130   [8]  00 00 00 00 00 00 00 00
(000.392687)  vcan0  0000014A   [8]  00 00 00 62 66 AF B8 E6
(000.392897)  vcan0  00000309   [8]  03 40 00 00 00 00 00 00
(000.398218)  vcan0  0000017C   [8]  4B 00 00 00 00 00 00 00
(000.398437)  vcan0  0000014A   [8]  00 00 00 62 66 AF DE 26
(000.398648)  vcan0  00000309   [8]  02 D1 00 00 00 00 00 00
(000.398854)  vcan0  00000130   [8]  00 00 00 00 00 00 00 00
(000.404104)  vcan0  00000130   [8]  00 00 00 00 00 00 00 00
(000.404331)  vcan0  0000014A   [8]  00 00 00 62 66 AF DE 26
(000.404539)  vcan0  00000002   [8]  00 00 00 00 00 00 00 00
(000.404752)  vcan0  00000309   [8]  02 6E 00 00 00 00 00 00
(000.404974)  vcan0  0000017C   [8]  4B 00 00 00 00 00 00 00
(000.410137)  vcan0  0000014A   [8]  00 00 00 62 66 AF DE 26
(000.410352)  vcan0  00000309   [8]  02 15 00 00 00 00 00 00
(000.410573)  vcan0  0000017C   [8]  4B 00 00 00 00 00 00 00
(000.410780)  vcan0  00000130   [8]  00 00 00 00 00 00 00 00
(000.416106)  vcan0  0000014A   [8]  00 00 00 62 66 AF DE 26
(000.416316)  vcan0  00000130   [8]  00 00 00 00 00 00 00 00
(000.416538)  vcan0  0000017C   [8]  4B 00 00 00 00 00 00 00
(000.416749)  vcan0  00000309   [8]  01 C6 00 00 00 00 00 00
(000.421915)  vcan0  0000014A   [8]  00 00 00 62 66 AF DE 26
(000.422130)  vcan0  00000309   [8]  01 7F 00 00 00 00 00 00
(000.422336)  vcan0  00000130   [8]  00 00 00 00 00 00 00 00
(000.422557)  vcan0  0000017C   [8]  4B 00 00 00 00 00 00 00
(000.428133)  vcan0  00000130   [8]  00 00 00 00 00 00 00 00
(000.428366)  vcan0  0000017C   [8]  4B 00 00 00 00 00 00 00
(000.428578)  vcan0  00000309   [8]  01 40 00 00 00 00 00 00
(000.428789)  vcan0  0000014A   [8]  00 00 00 62 66 AF DE 26
(000.434075)  vcan0  0000014A   [8]  00 00 00 62 66 AF DE 26
(000.434289)  vcan0  00000130   [8]  00 00 00 00 00 00 00 00
(000.434510)  vcan0  0000017C   [8]  4B 00 00 00 00 00 00 00
(000.434720)  vcan0  00000309   [8]  01 09 00 00 00 00 00 00
(000.440012)  vcan0  0000017C   [8]  4B 00 00 00 00 00 00 00
(000.440228)  vcan0  0000014A   [8]  00 00 00 62 66 AF DE 26
(000.440440)  vcan0  00000309   [8]  00 D7 00 00 00 00 00 00
(000.440646)  vcan0  00000130   [8]  00 00 00 00 00 00 00 00
(000.446114)  vcan0  00000130   [8]  00 00 00 00 00 00 00 00
(000.446340)  vcan0  00000309   [8]  00 AC 00 00 00 00 00 00
(000.446553)  vcan0  0000014A   [8]  00 00 00 62 66 AF DE 26
(000.446774)  vcan0  0000017C   [8]  4B 00 00 00 00 00 00 00
(000.452359)  vcan0  00000130   [8]  00 00 00 00 00 00 00 00
(000.452584)  vcan0  0000014A   [8]  00 00 00 62 66 AF DE 26
(000.452807)  vcan0  0000017C   [8]  4B 00 00 00 00 00 00 00
(000.453017)  vcan0  00000309   [8]  00 85 00 00 00 00 00 00
(000.458269)  vcan0  0000017C   [8]  4B 00 00 00 00 00 00 00
(000.458500)  vcan0  0000014A   [8]  00 00 00 62 66 AF DE 26
(000.458716)  vcan0  00000130   [8]  00 00 00 00 00 00 00 00
(000.458939)  vcan0  00000309   [8]  00 63 00 00 00 00 00 00
(000.464115)  vcan0  00000130   [8]  00 00 00 00 00 00 00 00
(000.464351)  vcan0  0000017C   [8]  4B 00 00 00 00 00 00 00
(000.464563)  vcan0  00000309   [8]  00 46 00 00 00 00 00 00
(000.464773)  vcan0  0000014A   [8]  00 00 00 62 66 AF DE 26
(000.470368)  vcan0  0000017C   [8]  4B 00 00 00 00 00 00 00
(000.470585)  vcan0  0000014A   [8]  00 00 00 62 66 AF DE 26
(000.470796)  vcan0  00000309   [8]  00 2C 00 00 00 00 00 00
(000.471003)  vcan0  00000130   [8]  00 00 00 00 00 00 00 00
(000.476234)  vcan0  00000309   [8]  00 15 00 00 00 00 00 00
(000.476466)  vcan0  0000017C   [8]  4B 00 00 00 00 00 00 00
(000.476673)  vcan0  00000130   [8]  00 00 00 00 00 00 00 00
(000.476885)  vcan0  0000014A   [8]  00 00 00 62 66 AF DE 26
(000.482023)  vcan0  00000130   [8]  00 00 00 00 00 00 00 00
(000.482254)  vcan0  0000017C   [8]  4B 00 00 00 00 00 00 00
(000.482466)  vcan0  00000309   [8]  00 02 00 00 00 00 00 00
(000.482677)  vcan0  0000014A   [8]  00 00 00 62 66 AF DE 26
(000.488187)  vcan0  0000017C   [8]  4B 00 00 00 00 00 00 00
(000.488404)  vcan0  0000014A   [8]  00 00 00 62 66 AF DE 26
(000.488616)  vcan0  00000309   [8]  00 0F 00 00 00 00 00 00
(000.488823)  vcan0  00000130   [8]  00 00 00 00 00 00 00 00
(000.494213)  vcan0  0000014A   [8]  00 00 00 62 66 AF DE 26
(000.494425)  vcan0  00000130   [8]  00 00 00 00 00 00 00 00
(000.494639)  vcan0  00000309   [8]  00 1D 00 00 00 00 00 00
(000.494859)  vcan0  0000017C   [8]  4B 00 00 00 00 00 00 00
(000.500061)  vcan0  0000014A   [8]  00 00 00 62 66 AF DE 26
(000.500273)  vcan0  00000130   [8]  00 00 00 00 00 00 00 00
(000.500488)  vcan0  00000309   [8]  00 2A 00 00 00 00 00 00
(000.500709)  vcan0  0000017C   [8]  4B 00 00 00 00 00 00 00
(000.506239)  vcan0  0000014A   [8]  00 00 00 62 66 AF DE 26
(000.506455)  vcan0  00000309   [8]  00 34 00 00 00 00 00 00
(000.506674)  vcan0  0000017C   [8]  4B 00 00 00 00 00 00 00
(000.506880)  vcan0  00000130   [8]  00 00 00 00 00 00 00 00
(000.512486)  vcan0  0000017C   [8]  4B 00 00 00 00 00 00 00
(000.512697)  vcan0  00000130   [8]  00 00 00 00 00 00 00 00
(000.512910)  vcan0  0000014A   [8]  00 00 00 62 66 AF DE 26
(000.513121)  vcan0  00000309   [8]  00 3C 00 00 00 00 00 00
(000.518866)  vcan0  00000130   [8]  00 00 00 00 00 00 00 00
(000.519098)  vcan0  00000309   [8]  00 44 00 00 00 00 00 00
(000.519310)  vcan0  0000014A   [8]  00 00 00 62 66 AF DE 26
(000.519531)  vcan0  0000017C   [8]  4B 00 00 00 00 00 00 00
(000.524902)  vcan0  0000014A   [8]  00 00 00 62 66 AF DE 26
(000.525117)  vcan0  00000309   [8]  00 49 00 00 00 00 00 00
(000.525337)  vcan0  0000017C   [8]  4B 00 00 00 00 00 00 00
(000.525543)  vcan0  00000130   [8]  00 00 00 00 00 00 00 00
(000.530213)  vcan0  00000309   [8]  00 4E 00 00 00 00 00 00
(000.530423)  vcan0  00000130   [8]  00 00 00 00 00 00 00 00
(000.530643)  vcan0  0000017C   [8]  4B 00 00 00 00 00 00 00
(000.530853)  vcan0  0000014A   [8]  00 00 00 62 66 AF DE 26
(000.536316)  vcan0  0000017C   [8]  4B 00 00 00 00 00 00 00
(000.536526)  vcan0  00000130   [8]  00 00 00 00 00 00 00 00
(000.536738)  vcan0  0000014A   [8]  00 00 00 62 66 AF DE 26
(000.536947)  vcan0  00000309   [8]  00 51 00 00 00 00 00 00
(000.542148)  vcan0  0000014A   [8]  00 00 00 62 66 AF DE 26
(000.542362)  vcan0  00000309   [8]  00 54 00 00 00 00 00 00
(000.542569)  vcan0  00000130   [8]  00 00 00 00 00 00 00 00
(000.542786)  vcan0  0000017C   [8]  4B 00 00 00 00 00 00 00
(000.548468)  vcan0  0000017C   [8]  4B 00 00 00 00 00 00 00
(000.548684)  vcan0  00000309   [8]  00 56 00 00 00 00 00 00
(000.548890)  vcan0  00000130   [8]  00 00 00 00 00 00 00 00
(000.549100)  vcan0  0000014A   [8]  00 00 00 62 66 B3 F1 3C
(000.554527)  vcan0  0000017C   [8]  4B 00 00 00 00 00 00 00
(000.554744)  vcan0  00000309   [8]  00 76 00 00 00 00 00 00
(000.554955)  vcan0  0000014A   [8]  00 00 00 62 85 D0 C9 A0
(000.555161)  vcan0  00000130   [8]  00 00 00 00 00 00 00 00
(000.560740)  vcan0  00000130   [8]  00 00 00 00 00 00 00 00
(000.560974)  vcan0  0000014A   [8]  00 00 00 62 A0 24 81 D2
(000.561189)  vcan0  00000309   [8]  00 9B 00 00 00 00 00 00
(000.561413)  vcan0  0000017C   [8]  4B 00 00 00 00 00 00 00
(000.566259)  vcan0  0000017C   [8]  4B 00 00 00 00 00 00 00
(000.566478)  vcan0  00000309   [8]  00 D9 00 00 00 00 00 00
(000.566691)  vcan0  0000014A   [8]  00 00 00 62 BF D6 F2 34
(000.566899)  vcan0  00000130   [8]  00 00 00 00 00 00 00 00
(000.572043)  vcan0  00000309   [8]  00 FA 00 00 00 00 00 00
(000.572253)  vcan0  00000130   [8]  00 00 00 00 00 00 00 00
(000.572474)  vcan0  0000017C   [8]  4B 00 00 00 00 00 00 00
(000.572684)  vcan0  0000014A   [8]  00 00 00 62 D8 49 B9 8E
(000.578052)  vcan0  00000309   [8]  01 29 00 00 00 00 00 00
(000.578263)  vcan0  00000130   [8]  00 00 00 00 00 00 00 00
(000.578475)  vcan0  0000014A   [8]  00 00 00 63 03 AB 99 DC
(000.578696)  vcan0  0000017C   [8]  4B 00 00 00 00 00 00 00
(000.584070)  vcan0  00000309   [8]  01 60 00 00 00 00 00 00
(000.584287)  vcan0  0000014A   [8]  00 00 00 63 29 65 6A 86
(000.584494)  vcan0  00000130   [8]  00 00 00 00 00 00 00 00
(000.584713)  vcan0  0000017C   [8]  4B 00 00 00 00 00 00 00
(000.590009)  vcan0  00000309   [8]  01 8D 00 00 00 00 00 00
(000.590223)  vcan0  0000014A   [8]  00 00 00 63 56 4C 69 18
(000.590442)  vcan0  0000017C   [8]  4B 00 00 00 00 00 00 00
(000.590648)  vcan0  00000130   [8]  00 00 00 00 00 00 00 00
(000.596031)  vcan0  0000017C   [8]  4B 00 00 00 00 00 00 00
(000.596244)  vcan0  0000014A   [8]  00 00 00 63 87 5F 39 76
(000.596454)  vcan0  00000309   [8]  01 BA 00 00 00 00 00 00
(000.596661)  vcan0  00000130   [8]  00 00 00 00 00 00 00 00
(000.602409)  vcan0  0000017C   [8]  4B 00 00 00 00 00 00 00
(000.602619)  vcan0  00000130   [8]  00 00 00 00 00 00 00 00
(000.602829)  vcan0  00000309   [8]  01 D7 00 00 00 00 00 00
(000.603039)  vcan0  0000014A   [8]  00 00 00 63 B5 91 46 60
(000.608070)  vcan0  0000014A   [8]  00 00 00 63 E6 50 45 12
(000.608299)  vcan0  0000017C   [8]  4B 00 00 00 00 00 00 00
(000.608510)  vcan0  00000309   [8]  02 04 00 00 00 00 00 00
(000.608716)  vcan0  00000130   [8]  00 00 00 00 00 00 00 00
(000.614009)  vcan0  0000017C   [8]  4B 00 00 00 00 00 00 00
(000.614217)  vcan0  00000130   [8]  00 00 00 00 00 00 00 00
(000.614429)  vcan0  0000014A   [8]  00 00 00 64 22 EF BD EC
(000.614640)  vcan0  00000309   [8]  02 27 00 00 00 00 00 00
(000.620065)  vcan0  00000130   [8]  00 00 00 00 00 00 00 00
(000.620292)  vcan0  0000014A   [8]  00 00 00 64 54 D1 0C 2A
(000.620513)  vcan0  0000017C   [8]  4B 00 00 00 00 00 00 00
(000.620723)  vcan0  00000309   [8]  02 4C 00 00 00 00 00 00
(000.625966)  vcan0  00000130   [8]  00 00 00 00 00 00 00 00
(000.626182)  vcan0  0000014A   [8]  00 00 00 64 8F 23 BF C4
(000.626394)  vcan0  00000309   [8]  02 6B 00 00 00 00 00 00
(000.626612)  vcan0  0000017C   [8]  4B 00 00 00 00 00 00 00
(000.632080)  vcan0  0000014A   [8]  00 00 00 64 C8 9A B7 7C
(000.632303)  vcan0  00000130   [8]  00 00 00 00 00 00 00 00
(000.632548)  vcan0  0000017C   [8]  4B 00 00 00 00 00 00 00
(000.632773)  vcan0  00000309   [8]  02 8C 00 00 00 00 00 00
(000.638179)  vcan0  0000014A   [8]  00 00 00 65 08 80 61 10
(000.638405)  vcan0  0000017C   [8]  4B 00 00 00 00 00 00 00
(000.638617)  vcan0  00000309   [8]  02 A8 00 00 00 00 00 00
(000.638824)  vcan0  00000130   [8]  00 00 00 00 00 00 00 00
(000.644167)  vcan0  0000017C   [8]  4B 00 00 00 00 00 00 00
(000.644382)  vcan0  00000309   [8]  02 C5 00 00 00 00 00 00
(000.644590)  vcan0  00000130   [8]  00 00 00 00 00 00 00 00
(000.644802)  vcan0  0000014A   [8]  00 00 00 65 42 E3 3B BC
(000.649974)  vcan0  00000309   [8]  02 DF 00 00 00 00 00 00
(000.650184)  vcan0  00000130   [8]  00 00 00 00 00 00 00 00
(000.650390)  vcan0  00000002   [8]  00 00 00 00 00 00 00 00
(000.650602)  vcan0  0000014A   [8]  00 00 00 65 82 15 FA DE
(000.650822)  vcan0  0000017C   [8]  4B 00 00 00 00 00 00 00
(000.656012)  vcan0  000001A3   [8]  00 00 00 00 00 00 00 00
(000.656237)  vcan0  0000017C   [8]  4B 00 00 00 00 00 00 00
(000.656447)  vcan0  0000018F   [8]  00 00 00 00 00 00 00 00
(000.656659)  vcan0  0000014A   [8]  00 00 00 65 C1 37 A0 C6
(000.656868)  vcan0  00000309   [8]  02 FA 00 00 00 00 00 00
(000.657074)  vcan0  00000130   [8]  00 00 00 00 00 00 00 00
(000.662201)  vcan0  0000017C   [8]  4B 00 00 00 00 00 00 00
(000.662412)  vcan0  00000130   [8]  00 00 00 00 00 00 00 00
(000.662626)  vcan0  00000309   [8]  03 11 00 00 00 00 00 00
(000.662837)  vcan0  0000014A   [8]  00 00 00 65 FD DA 02 B0
(000.668149)  vcan0  0000014A   [8]  00 00 00 66 3E B2 8B 5A
(000.668365)  vcan0  00000309   [8]  03 2A 00 00 00 00 00 00
(000.668572)  vcan0  00000130   [8]  00 00 00 00 00 00 00 00
(000.668794)  vcan0  0000017C   [8]  4B 00 00 00 00 00 00 00
(000.674079)  vcan0  0000017C   [8]  4B 00 00 00 00 00 00 00
(000.674296)  vcan0  00000309   [8]  03 3F 00 00 00 00 00 00
(000.674504)  vcan0  00000130   [8]  00 00 00 00 00 00 00 00
(000.674714)  vcan0  0000014A   [8]  00 00 00 66 81 0B 64 F0
(000.679901)  vcan0  00000130   [8]  00 00 00 00 00 00 00 00
(000.680123)  vcan0  00000309   [8]  03 56 00 00 00 00 00 00
(000.680335)  vcan0  0000014A   [8]  00 00 00 66 C0 99 AC 24
(000.680556)  vcan0  0000017C   [8]  4B 00 00 00 00 00 00 00
(000.686030)  vcan0  00000130   [8]  00 00 00 00 00 00 00 00
(000.686263)  vcan0  0000017C   [8]  4B 00 00 00 00 00 00 00
(000.686521)  vcan0  0000014A   [8]  00 00 00 67 03 89 EF 5E
(000.686732)  vcan0  00000309   [8]  03 6A 00 00 00 00 00 00
(000.692627)  vcan0  0000014A   [8]  00 00 00 67 41 A1 5B 18
(000.692841)  vcan0  00000309   [8]  03 80 00 00 00 00 00 00
(000.693061)  vcan0  0000017C   [8]  4B 00 00 00 00 00 00 00
(000.693267)  vcan0  00000130   [8]  00 00 00 00 00 00 00 00
(000.698162)  vcan0  0000014A   [8]  00 00 00 67 88 3E C3 78
(000.698372)  vcan0  00000130   [8]  00 00 00 00 00 00 00 00
(000.698584)  vcan0  00000309   [8]  03 93 00 00 00 00 00 00
(000.698803)  vcan0  0000017C   [8]  4B 00 00 00 00 00 00 00
(000.733870)  vcan0  00000309   [8]  03 A7 00 00 00 00 00 00
(000.734100)  vcan0  0000017C   [8]  4B 00 00 00 00 00 00 00
(000.734308)  vcan0  00000130   [8]  00 00 00 00 00 00 00 00
(000.734519)  vcan0  0000014A   [8]  00 00 00 67 C7 7C 34 B0
(000.736583)  vcan0  00000130   [8]  00 00 00 00 00 00 00 00
(000.736828)  vcan0  0000014A   [8]  00 00 00 68 10 7E 65 0A
(000.737054)  vcan0  00000309   [8]  03 B9 00 00 00 00 00 00
(000.737299)  vcan0  0000017C   [8]  4B 00 00 00 00 00 00 00
(000.742082)  vcan0  0000017C   [8]  4B 00 00 00 00 00 00 00
(000.742305)  vcan0  0000014A   [8]  00 00 00 68 4B D3 51 EC
(000.742514)  vcan0  00000130   [8]  00 00 00 00 00 00 00 00
(000.742726)  vcan0  00000309   [8]  03 CC 00 00 00 00 00 00
(000.747817)  vcan0  00000130   [8]  00 00 00 00 00 00 00 00
(000.748052)  vcan0  00000309   [8]  03 DD 00 00 00 00 00 00
(000.748276)  vcan0  0000017C   [8]  4B 00 00 00 00 00 00 00
(000.748489)  vcan0  0000014A   [8]  00 00 00 68 93 21 18 D2
(000.753784)  vcan0  0000017C   [8]  4B 00 00 00 00 00 00 00
(000.754000)  vcan0  0000014A   [8]  00 00 00 68 D2 F3 EA 24
(000.754207)  vcan0  00000130   [8]  00 00 00 00 00 00 00 00
(000.754418)  vcan0  00000309   [8]  03 EF 00 00 00 00 00 00
(000.759818)  vcan0  0000017C   [8]  4B 00 00 00 00 00 00 00
(000.760035)  vcan0  00000309   [8]  04 00 00 00 00 00 00 00
(000.760247)  vcan0  0000014A   [8]  00 00 00 69 16 B9 A7 60
(000.760454)  vcan0  00000130   [8]  00 00 00 00 00 00 00 00
(000.765785)  vcan0  00000309   [8]  04 11 00 00 00 00 00 00
(000.766010)  vcan0  0000017C   [8]  4B 00 00 00 00 00 00 00
(000.766218)  vcan0  00000130   [8]  00 00 00 00 00 00 00 00
(000.766429)  vcan0  0000014A   [8]  00 00 00 69 54 57 7E 4E
(000.771941)  vcan0  00000309   [8]  04 22 00 00 00 00 00 00
(000.772166)  vcan0  0000017C   [8]  4B 00 00 00 00 00 00 00
(000.772373)  vcan0  00000130   [8]  00 00 00 00 00 00 00 00
(000.772584)  vcan0  0000014A   [8]  00 00 00 69 98 C2 52 F6
(000.777824)  vcan0  0000014A   [8]  00 00 00 69 D5 DF 86 52
(000.778032)  vcan0  00000130   [8]  00 00 00 00 00 00 00 00
(000.778244)  vcan0  00000309   [8]  04 32 00 00 00 00 00 00
(000.778462)  vcan0  0000017C   [8]  4B 00 00 00 00 00 00 00
(000.783799)  vcan0  00000309   [8]  04 42 00 00 00 00 00 00
(000.784007)  vcan0  00000130   [8]  00 00 00 00 00 00 00 00
(000.784219)  vcan0  0000014A   [8]  00 00 00 6A 1D 18 33 8C
(000.784438)  vcan0  0000017C   [8]  4B 00 00 00 00 00 00 00
(000.789764)  vcan0  0000017C   [8]  4B 00 00 00 00 00 00 00
(000.789977)  vcan0  00000309   [8]  04 52 00 00 00 00 00 00
(000.790183)  vcan0  00000130   [8]  00 00 00 00 00 00 00 00
(000.790394)  vcan0  0000014A   [8]  00 00 00 6A 59 04 2C F0
(000.795801)  vcan0  00000130   [8]  00 00 00 00 00 00 00 00
(000.796020)  vcan0  0000014A   [8]  00 00 00 6A 9C 52 4C 4A
(000.796230)  vcan0  00000309   [8]  04 61 00 00 00 00 00 00
(000.796450)  vcan0  0000017C   [8]  4B 00 00 00 00 00 00 00
(000.802000)  vcan0  00000130   [8]  00 00 00 00 00 00 00 00
(000.802242)  vcan0  0000017C   [8]  4B 00 00 00 00 00 00 00
(000.802456)  vcan0  0000014A   [8]  00 00 00 6A D9 8F 70 A8
(000.802666)  vcan0  00000309   [8]  04 71 00 00 00 00 00 00
(000.808506)  vcan0  00000130   [8]  00 00 00 00 00 00 00 00
(000.808762)  vcan0  0000014A   [8]  00 00 00 6B 1B CD 83 B6
(000.808980)  vcan0  00000309   [8]  04 80 00 00 00 00 00 00
(000.809204)  vcan0  0000017C   [8]  4B 00 00 00 00 00 00 00
(000.814217)  vcan0  0000017C   [8]  4B 00 00 00 00 00 00 00
(000.814429)  vcan0  00000130   [8]  00 00 00 00 00 00 00 00
(000.814644)  vcan0  0000014A   [8]  00 00 00 6B 58 2A D9 1E
(000.814856)  vcan0  00000309   [8]  04 8F 00 00 00 00 00 00
(000.819855)  vcan0  0000014A   [8]  00 00 00 6B 97 AF 73 00
(000.820071)  vcan0  00000309   [8]  04 9E 00 00 00 00 00 00
(000.820297)  vcan0  0000017C   [8]  4B 00 00 00 00 00 00 00
(000.820505)  vcan0  00000130   [8]  00 00 00 00 00 00 00 00
(000.825847)  vcan0  00000130   [8]  00 00 00 00 00 00 00 00
(000.826076)  vcan0  0000017C   [8]  4B 00 00 00 00 00 00 00
(000.826291)  vcan0  00000309   [8]  04 AC 00 00 00 00 00 00
(000.826501)  vcan0  0000014A   [8]  00 00 00 6B D2 6D 8B 40
(000.831829)  vcan0  0000014A   [8]  00 00 00 6C 0E F5 71 20
(000.832056)  vcan0  0000017C   [8]  4B 00 00 00 00 00 00 00
(000.832264)  vcan0  00000130   [8]  00 00 00 00 00 00 00 00
(000.832473)  vcan0  00000309   [8]  04 BB 00 00 00 00 00 00
(000.837948)  vcan0  0000014A   [8]  00 00 00 6C 4D F6 59 22
(000.838176)  vcan0  0000017C   [8]  4B 00 00 00 00 00 00 00
(000.838386)  vcan0  00000130   [8]  00 00 00 00 00 00 00 00
(000.838597)  vcan0  00000309   [8]  04 CA 00 00 00 00 00 00
(000.844162)  vcan0  00000130   [8]  00 00 00 00 00 00 00 00
(000.844389)  vcan0  00000309   [8]  04 D8 00 00 00 00 00 00
(000.844603)  vcan0  0000014A   [8]  00 00 00 6C 87 AB 86 7A
(000.844825)  vcan0  0000017C   [8]  4B 00 00 00 00 00 00 00
(000.850096)  vcan0  0000017C   [8]  4B 00 00 00 00 00 00 00
(000.850315)  vcan0  0000014A   [8]  00 00 00 6C C7 A9 DA 6A
(000.850522)  vcan0  00000130   [8]  00 00 00 00 00 00 00 00
(000.850733)  vcan0  00000309   [8]  04 E6 00 00 00 00 00 00
(000.856028)  vcan0  0000014A   [8]  00 00 00 6C FE 64 82 8A
(000.856300)  vcan0  0000017C   [8]  4B 00 00 00 00 00 00 00
(000.856512)  vcan0  00000130   [8]  00 00 00 00 00 00 00 00
(000.856728)  vcan0  00000309   [8]  04 F4 00 00 00 00 00 00
(000.862124)  vcan0  00000130   [8]  00 00 00 00 00 00 00 00
(000.862354)  vcan0  0000014A   [8]  00 00 00 6D 37 99 31 90
(000.862579)  vcan0  0000017C   [8]  4B 00 00 00 00 00 00 00
(000.862793)  vcan0  00000309   [8]  05 03 00 00 00 00 00 00
(000.868438)  vcan0  0000017C   [8]  4B 00 00 00 00 00 00 00
(000.868672)  vcan0  0000014A   [8]  00 00 00 6D 71 60 8F 84
(000.868887)  vcan0  00000130   [8]  00 00 00 00 00 00 00 00
(000.869110)  vcan0  00000309   [8]  05 11 00 00 00 00 00 00
(000.873977)  vcan0  0000014A   [8]  00 00 00 6D A6 AC 12 90
(000.874189)  vcan0  00000130   [8]  00 00 00 00 00 00 00 00
(000.874414)  vcan0  0000017C   [8]  4B 00 00 00 00 00 00 00
(000.874625)  vcan0  00000309   [8]  05 1F 00 00 00 00 00 00
(000.879864)  vcan0  0000014A   [8]  00 00 00 6D E3 78 95 30
(000.880074)  vcan0  00000130   [8]  00 00 00 00 00 00 00 00
(000.880302)  vcan0  0000017C   [8]  4B 00 00 00 00 00 00 00
(000.880513)  vcan0  00000309   [8]  05 2C 00 00 00 00 00 00
(000.885995)  vcan0  0000017C   [8]  4B 00 00 00 00 00 00 00
(000.886210)  vcan0  00000309   [8]  05 3A 00 00 00 00 00 00
(000.886418)  vcan0  00000130   [8]  00 00 00 00 00 00 00 00
(000.886629)  vcan0  0000014A   [8]  00 00 00 6E 18 CD 55 CC
(000.891746)  vcan0  00000130   [8]  00 00 00 00 00 00 00 00
(000.891968)  vcan0  0000014A   [8]  00 00 00 6E 4F 54 BB 96
(000.892180)  vcan0  00000309   [8]  05 48 00 00 00 00 00 00
(000.892399)  vcan0  0000017C   [8]  4B 00 00 00 00 00 00 00
(000.897829)  vcan0  00000309   [8]  05 56 00 00 00 00 00 00
(000.898038)  vcan0  00000130   [8]  00 00 00 00 00 00 00 00
(000.898256)  vcan0  0000017C   [8]  4B 00 00 00 00 00 00 00
(000.898466)  vcan0  0000014A   [8]  00 00 00 6E 81 28 8A 9E
(000.903874)  vcan0  0000017C   [8]  4B 00 00 00 00 00 00 00
(000.904097)  vcan0  00000130   [8]  00 00 00 00 00 00 00 00
(000.904326)  vcan0  00000309   [8]  05 63 00 00 00 00 00 00
(000.904550)  vcan0  0000014A   [8]  00 00 00 6E B9 50 0D 16
(000.910030)  vcan0  0000017C   [8]  4B 00 00 00 00 00 00 00
(000.910242)  vcan0  00000130   [8]  00 00 00 00 00 00 00 00
(000.910455)  vcan0  00000309   [8]  05 71 00 00 00 00 00 00
(000.910665)  vcan0  0000014A   [8]  00 00 00 6E EB CE EA E8
(000.915846)  vcan0  0000017C   [8]  4B 00 00 00 00 00 00 00
(000.916061)  vcan0  0000014A   [8]  00 00 00 6F 1E DE B8 9C
(000.916275)  vcan0  00000309   [8]  05 7F 00 00 00 00 00 00
(000.916483)  vcan0  00000130   [8]  00 00 00 00 00 00 00 00
(000.921851)  vcan0  00000309   [8]  05 8C 00 00 00 00 00 00
(000.922077)  vcan0  0000017C   [8]  4B 00 00 00 00 00 00 00
(000.922293)  vcan0  0000014A   [8]  00 00 00 6F 50 8F 7F 02
(000.922499)  vcan0  00000130   [8]  00 00 00 00 00 00 00 00
(000.922704)  vcan0  00000002   [8]  00 00 00 00 00 00 00 00
(000.927829)  vcan0  0000017C   [8]  4B 00 00 00 00 00 00 00
(000.928040)  vcan0  00000130   [8]  00 00 00 00 00 00 00 00
(000.928252)  vcan0  00000309   [8]  05 99 00 00 00 00 00 00
(000.928463)  vcan0  0000014A   [8]  00 00 00 6F 81 82 01 3A
(000.933808)  vcan0  0000017C   [8]  4B 00 00 00 00 00 00 00
(000.934024)  vcan0  00000309   [8]  05 A7 00 00 00 00 00 00
(000.934235)  vcan0  0000014A   [8]  00 00 00 6F B3 91 A8 84
(000.934441)  vcan0  00000130   [8]  00 00 00 00 00 00 00 00
(000.939900)  vcan0  00000130   [8]  00 00 00 00 00 00 00 00
(000.940127)  vcan0  00000309   [8]  05 B4 00 00 00 00 00 00
(000.940351)  vcan0  0000017C   [8]  4B 00 00 00 00 00 00 00
(000.940563)  vcan0  0000014A   [8]  00 00 00 6F E5 E0 52 50
(000.945897)  vcan0  0000017C   [8]  4B 00 00 00 00 00 00 00
(000.946117)  vcan0  0000014A   [8]  00 00 00 70 13 EC F9 3C
(000.946324)  vcan0  00000130   [8]  00 00 00 00 00 00 00 00
(000.946535)  vcan0  00000309   [8]  05 C2 00 00 00 00 00 00
(000.952022)  vcan0  00000309   [8]  05 CF 00 00 00 00 00 00
(000.952239)  vcan0  0000014A   [8]  00 00 00 70 42 F3 27 92
(000.952448)  vcan0  00000130   [8]  00 00 00 00 00 00 00 00
(000.952669)  vcan0  0000017C   [8]  4B 00 00 00 00 00 00 00
(000.957945)  vcan0  0000014A   [8]  00 00 00 70 6D 7C DC B0
(000.958161)  vcan0  00000309   [8]  05 DC 00 00 00 00 00 00
(000.958368)  vcan0  00000130   [8]  00 00 00 00 00 00 00 00
(000.958588)  vcan0  0000017C   [8]  4B 00 00 00 00 00 00 00
(000.963821)  vcan0  0000014A   [8]  00 00 00 70 9D 20 C9 2C
(000.964046)  vcan0  0000017C   [8]  4B 00 00 00 00 00 00 00
(000.964256)  vcan0  00000309   [8]  05 EA 00 00 00 00 00 00
(000.964463)  vcan0  00000130   [8]  00 00 00 00 00 00 00 00
(000.969820)  vcan0  0000014A   [8]  00 00 00 70 C6 1A 88 B0
(000.970047)  vcan0  0000017C   [8]  4B 00 00 00 00 00 00 00
(000.970255)  vcan0  00000130   [8]  00 00 00 00 00 00 00 00
(000.970467)  vcan0  00000309   [8]  05 F7 00 00 00 00 00 00
(000.976174)  vcan0  0000014A   [8]  00 00 00 70 F3 10 EA BE
(000.976402)  vcan0  00000130   [8]  00 00 00 00 00 00 00 00
(000.976627)  vcan0  00000309   [8]  06 04 00 00 00 00 00 00
(000.976848)  vcan0  0000017C   [8]  4B 00 00 00 00 00 00 00
(000.982017)  vcan0  00000130   [8]  00 00 00 00 00 00 00 00
(000.982240)  vcan0  0000014A   [8]  00 00 00 71 1F 00 ED D2
(000.982454)  vcan0  00000309   [8]  06 11 00 00 00 00 00 00
(000.982676)  vcan0  0000017C   [8]  4B 00 00 00 00 00 00 00
(000.987917)  vcan0  0000017C   [8]  4B 00 00 00 00 00 00 00
(000.988133)  vcan0  0000014A   [8]  00 00 00 71 45 3E 00 9A
(000.988343)  vcan0  00000130   [8]  00 00 00 00 00 00 00 00
(000.988553)  vcan0  00000309   [8]  06 1E 00 00 00 00 00 00
(000.994292)  vcan0  0000014A   [8]  00 00 00 71 72 D4 21 0A
(000.994539)  vcan0  0000017C   [8]  4B 00 00 00 00 00 00 00
(000.994763)  vcan0  00000309   [8]  06 2B 00 00 00 00 00 00
(000.994977)  vcan0  00000130   [8]  00 00 00 00 00 00 00 00
(001.000112)  vcan0  00000309   [8]  06 39 00 00 00 00 00 00
(001.000336)  vcan0  00000130   [8]  00 00 00 00 00 00 00 00
(001.000566)  vcan0  0000014A   [8]  00 00 00 71 97 49 C3 8C
(001.000804)  vcan0  0000017C   [8]  4B 00 00 00 00 00 00 00
(001.006053)  vcan0  0000014A   [8]  00 00 00 71 C1 0E 13 1A
(001.006264)  vcan0  00000130   [8]  00 00 00 00 00 00 00 00
(001.006477)  vcan0  00000309   [8]  06 46 00 00 00 00 00 00
(001.006697)  vcan0  0000017C   [8]  4B 00 00 00 00 00 00 00
(001.011937)  vcan0  00000130   [8]  00 00 00 00 00 00 00 00
(001.012159)  vcan0  0000014A   [8]  00 00 00 71 E5 05 78 B8
(001.012374)  vcan0  00000309   [8]  06 53 00 00 00 00 00 00
(001.012595)  vcan0  0000017C   [8]  4B 00 00 00 00 00 00 00
(001.017831)  vcan0  0000017C   [8]  4B 00 00 00 00 00 00 00
(001.018048)  vcan0  0000014A   [8]  00 00 00 72 0B 7F 43 48
(001.018260)  vcan0  00000309   [8]  06 60 00 00 00 00 00 00
(001.018468)  vcan0  00000130   [8]  00 00 00 00 00 00 00 00
(001.024181)  vcan0  0000014A   [8]  00 00 00 72 30 16 79 E6
(001.024414)  vcan0  00000309   [8]  06 6D 00 00 00 00 00 00
(001.024665)  vcan0  0000017C   [8]  4B 00 00 00 00 00 00 00
(001.024874)  vcan0  00000130   [8]  00 00 00 00 00 00 00 00
(001.030058)  vcan0  00000309   [8]  06 7A 00 00 00 00 00 00
(001.030285)  vcan0  0000017C   [8]  4B 00 00 00 00 00 00 00
(001.030492)  vcan0  00000130   [8]  00 00 00 00 00 00 00 00
(001.030704)  vcan0  0000014A   [8]  00 00 00 72 56 A8 2B 3E
(001.035977)  vcan0  00000130   [8]  00 00 00 00 00 00 00 00
(001.036210)  vcan0  0000017C   [8]  4B 00 00 00 00 00 00 00
(001.036423)  vcan0  0000014A   [8]  00 00 00 72 79 23 A6 D8
(001.036635)  vcan0  00000309   [8]  06 87 00 00 00 00 00 00
(001.041872)  vcan0  0000014A   [8]  00 00 00 72 9E BB CC 1E
(001.042082)  vcan0  00000130   [8]  00 00 00 00 00 00 00 00
(001.042297)  vcan0  00000309   [8]  06 94 00 00 00 00 00 00
(001.042517)  vcan0  0000017C   [8]  4B 00 00 00 00 00 00 00
(001.047879)  vcan0  0000017C   [8]  4B 00 00 00 00 00 00 00
(001.048095)  vcan0  00000130   [8]  00 00 00 00 00 00 00 00
(001.048309)  vcan0  0000014A   [8]  00 00 00 72 BE 50 0F 2C
(001.048519)  vcan0  00000309   [8]  06 A1 00 00 00 00 00 00
(001.054103)  vcan0  00000130   [8]  00 00 00 00 00 00 00 00
(001.054337)  vcan0  0000017C   [8]  4B 00 00 00 00 00 00 00
(001.054550)  vcan0  0000014A   [8]  00 00 00 72 E0 2E 8B 8C
(001.054839)  vcan0  00000309   [8]  06 AD 00 00 00 00 00 00
(001.059920)  vcan0  00000309   [8]  06 BA 00 00 00 00 00 00
(001.060130)  vcan0  00000130   [8]  00 00 00 00 00 00 00 00
(001.060350)  vcan0  0000017C   [8]  4B 00 00 00 00 00 00 00
(001.060561)  vcan0  0000014A   [8]  00 00 00 73 01 54 FC 50
(001.065838)  vcan0  0000017C   [8]  4B 00 00 00 00 00 00 00
(001.066047)  vcan0  00000130   [8]  00 00 00 00 00 00 00 00
(001.066259)  vcan0  0000014A   [8]  00 00 00 73 1E F6 F4 1E
(001.066470)  vcan0  00000309   [8]  06 C7 00 00 00 00 00 00
(001.071879)  vcan0  0000014A   [8]  00 00 00 73 3D F7 D7 4C
(001.072088)  vcan0  00000130   [8]  00 00 00 00 00 00 00 00
(001.072300)  vcan0  00000309   [8]  06 D4 00 00 00 00 00 00
(001.072519)  vcan0  0000017C   [8]  4B 00 00 00 00 00 00 00
(001.078230)  vcan0  0000017C   [8]  4B 00 00 00 00 00 00 00
(001.078439)  vcan0  00000130   [8]  00 00 00 00 00 00 00 00
(001.078729)  vcan0  00000309   [8]  06 E1 00 00 00 00 00 00
(001.078939)  vcan0  0000014A   [8]  00 00 00 84 34 C7 E8 3A
(001.083864)  vcan0  00000130   [8]  00 00 00 00 00 00 00 00
(001.084088)  vcan0  0000014A   [8]  00 00 00 78 B4 BA 9A 3E
(001.084311)  vcan0  0000017C   [8]  4B 00 00 00 00 00 00 00
(001.084521)  vcan0  00000309   [8]  06 EE 00 00 00 00 00 00
(001.089742)  vcan0  0000017C   [8]  4B 00 00 00 00 00 00 00
(001.089953)  vcan0  00000130   [8]  00 00 00 00 00 00 00 00
(001.090166)  vcan0  0000014A   [8]  00 00 00 78 AD E7 74 40
(001.090378)  vcan0  00000309   [8]  06 FA 00 00 00 00 00 00
(001.095823)  vcan0  0000014A   [8]  00 00 00 78 AC B7 54 02
(001.096044)  vcan0  00000309   [8]  07 07 00 00 00 00 00 00
(001.096251)  vcan0  00000130   [8]  00 00 00 00 00 00 00 00
(001.096473)  vcan0  0000017C   [8]  4B 00 00 00 00 00 00 00
(001.101829)  vcan0  00000309   [8]  07 14 00 00 00 00 00 00
(001.102044)  vcan0  0000014A   [8]  00 00 00 78 A8 28 0B DA
(001.102263)  vcan0  0000017C   [8]  4B 00 00 00 00 00 00 00
(001.102470)  vcan0  00000130   [8]  00 00 00 00 00 00 00 00
(001.107842)  vcan0  0000017C   [8]  4B 00 00 00 00 00 00 00
(001.108059)  vcan0  00000309   [8]  07 21 00 00 00 00 00 00
(001.108266)  vcan0  00000130   [8]  00 00 00 00 00 00 00 00
(001.108477)  vcan0  0000014A   [8]  00 00 00 78 9E E4 C4 28
(001.113737)  vcan0  00000309   [8]  07 2D 00 00 00 00 00 00
(001.113947)  vcan0  00000130   [8]  00 00 00 00 00 00 00 00
(001.114167)  vcan0  0000017C   [8]  4B 00 00 00 00 00 00 00
(001.114378)  vcan0  0000014A   [8]  00 00 00 78 96 91 8C 1C
(001.120105)  vcan0  0000017C   [8]  4B 00 00 00 00 00 00 00
(001.120339)  vcan0  00000309   [8]  07 3A 00 00 00 00 00 00
(001.120554)  vcan0  00000130   [8]  00 00 00 00 00 00 00 00
(001.120793)  vcan0  0000014A   [8]  00 00 00 78 8F 33 48 56
(001.125986)  vcan0  00000309   [8]  07 47 00 00 00 00 00 00
(001.126202)  vcan0  0000014A   [8]  00 00 00 78 8A EA 0F 1E
(001.126423)  vcan0  0000017C   [8]  4B 00 00 00 00 00 00 00
(001.126630)  vcan0  00000130   [8]  00 00 00 00 00 00 00 00
(001.131805)  vcan0  0000017C   [8]  4B 00 00 00 00 00 00 00
(001.132017)  vcan0  00000130   [8]  00 00 00 00 00 00 00 00
(001.132231)  vcan0  00000309   [8]  07 54 00 00 00 00 00 00
(001.132444)  vcan0  0000014A   [8]  00 00 00 78 81 88 07 6C
(001.137843)  vcan0  00000130   [8]  00 00 00 00 00 00 00 00
(001.138068)  vcan0  0000014A   [8]  00 00 00 78 76 EC D5 26
(001.138281)  vcan0  00000309   [8]  07 60 00 00 00 00 00 00
(001.138505)  vcan0  0000017C   [8]  4B 00 00 00 00 00 00 00
(001.144038)  vcan0  00000130   [8]  00 00 00 00 00 00 00 00
(001.144269)  vcan0  0000017C   [8]  4B 00 00 00 00 00 00 00
(001.144481)  vcan0  00000309   [8]  07 6C 00 00 00 00 00 00
(001.144691)  vcan0  0000014A   [8]  00 00 00 78 71 AF 35 AE
(001.149943)  vcan0  0000014A   [8]  00 00 00 78 60 8F 94 E6
(001.150167)  vcan0  0000017C   [8]  4B 00 00 00 00 00 00 00
(001.150378)  vcan0  00000309   [8]  07 7A 00 00 00 00 00 00
(001.150584)  vcan0  00000130   [8]  00 00 00 00 00 00 00 00
(001.155872)  vcan0  0000017C   [8]  4B 00 00 00 00 00 00 00
(001.156094)  vcan0  00000130   [8]  00 00 00 00 00 00 00 00
(001.156321)  vcan0  0000014A   [8]  00 00 00 78 60 47 CD E8
(001.156545)  vcan0  00000309   [8]  07 7F 00 00 00 00 00 00
(001.161995)  vcan0  0000014A   [8]  00 00 00 78 50 86 B6 B6
(001.162206)  vcan0  00000130   [8]  00 00 00 00 00 00 00 00
(001.162419)  vcan0  00000309   [8]  07 88 00 00 00 00 00 00
(001.162639)  vcan0  0000017C   [8]  4B 00 00 00 00 00 00 00
(001.167987)  vcan0  00000130   [8]  00 00 00 00 00 00 00 00
(001.168221)  vcan0  00000309   [8]  07 80 00 00 00 00 00 00
(001.168428)  vcan0  00000002   [8]  00 00 00 00 00 00 00 00
(001.168652)  vcan0  0000017C   [8]  4B 00 00 00 00 00 00 00
(001.168864)  vcan0  0000014A   [8]  00 00 00 78 48 3F 0F 1C
(001.174138)  vcan0  00000130   [8]  00 00 00 00 00 00 00 00
(001.174362)  vcan0  0000014A   [8]  00 00 00 78 40 91 E4 1E
(001.174574)  vcan0  00000309   [8]  07 89 00 00 00 00 00 00
(001.174794)  vcan0  0000017C   [8]  4B 00 00 00 00 00 00 00
(001.180052)  vcan0  00000130   [8]  00 00 00 00 00 00 00 00
(001.180264)  vcan0  0000018F   [8]  00 00 00 00 00 00 00 00
(001.180488)  vcan0  0000037B   [8]  00 00 00 00 00 00 00 00
(001.180701)  vcan0  00000309   [8]  07 8A 00 00 00 00 00 00
(001.180994)  vcan0  00000326   [8]  00 00 00 00 00 00 00 00
(001.181210)  vcan0  000001A4   [8]  00 67 00 00 00 00 00 00
(001.181424)  vcan0  00000374   [8]  00 00 00 00 00 00 00 00
(001.181640)  vcan0  0000017C   [8]  4B 00 00 00 00 00 00 00
(001.181851)  vcan0  000001A3   [8]  00 00 00 00 00 00 00 00
(001.182060)  vcan0  0000014A   [8]  00 00 00 78 3C 67 2D 34
(001.186241)  vcan0  00000309   [8]  07 94 00 00 00 00 00 00
(001.186450)  vcan0  00000130   [8]  00 00 00 00 00 00 00 00
(001.186748)  vcan0  0000014A   [8]  00 00 00 78 2E 35 27 72
(001.186968)  vcan0  0000017C   [8]  4B 00 00 00 00 00 00 00
(001.192144)  vcan0  0000014A   [8]  00 00 00 78 28 5F 8A 7C
(001.192394)  vcan0  0000017C   [8]  4B 00 00 00 00 00 00 00
(001.192612)  vcan0  00000309   [8]  07 93 00 00 00 00 00 00
(001.192819)  vcan0  00000130   [8]  00 00 00 00 00 00 00 00
(001.197891)  vcan0  00000130   [8]  00 00 00 00 00 00 00 00
(001.198120)  vcan0  00000309   [8]  07 9F 00 00 00 00 00 00
(001.198337)  vcan0  0000014A   [8]  00 00 00 78 1F C7 0A 90
(001.198559)  vcan0  0000017C   [8]  4B 00 00 00 00 00 00 00
(001.203858)  vcan0  00000130   [8]  00 00 00 00 00 00 00 00
(001.204093)  vcan0  00000309   [8]  07 A0 00 00 00 00 00 00
(001.204316)  vcan0  0000017C   [8]  4B 00 00 00 00 00 00 00
(001.204529)  vcan0  0000014A   [8]  00 00 00 78 1C E1 25 F2
(001.209946)  vcan0  00000130   [8]  00 00 00 00 00 00 00 00
(001.210171)  vcan0  0000014A   [8]  00 00 00 78 0E 94 30 E8
(001.210385)  vcan0  00000309   [8]  07 AC 00 00 00 00 00 00
(001.210606)  vcan0  0000017C   [8]  4B 00 00 00 00 00 00 00
(001.215919)  vcan0  00000130   [8]  00 00 00 00 00 00 00 00
(001.216138)  vcan0  0000014A   [8]  00 00 00 78 09 52 19 14
(001.216351)  vcan0  00000309   [8]  07 AD 00 00 00 00 00 00
(001.216569)  vcan0  0000017C   [8]  4B 00 00 00 00 00 00 00
(001.221831)  vcan0  00000309   [8]  07 BA 00 00 00 00 00 00
(001.222041)  vcan0  00000130   [8]  00 00 00 00 00 00 00 00
(001.222252)  vcan0  0000014A   [8]  00 00 00 78 01 70 64 A0
(001.222472)  vcan0  0000017C   [8]  4B 00 00 00 00 00 00 00
(001.227916)  vcan0  00000309   [8]  07 BC 00 00 00 00 00 00
(001.228140)  vcan0  0000017C   [8]  4B 00 00 00 00 00 00 00
(001.228347)  vcan0  00000130   [8]  00 00 00 00 00 00 00 00
(001.228557)  vcan0  0000014A   [8]  00 00 00 77 FB C9 78 06
(001.233888)  vcan0  0000017C   [8]  4B 00 00 00 00 00 00 00
(001.234102)  vcan0  00000130   [8]  00 00 00 00 00 00 00 00
(001.234314)  vcan0  0000014A   [8]  00 00 00 77 F0 49 1B 6A
(001.234524)  vcan0  00000309   [8]  07 CA 00 00 00 00 00 00
(001.240046)  vcan0  00000309   [8]  07 CD 00 00 00 00 00 00
(001.240266)  vcan0  0000017C   [8]  4B 00 00 00 00 00 00 00
(001.240476)  vcan0  0000014A   [8]  00 00 00 77 F0 84 A9 2A
(001.240682)  vcan0  00000130   [8]  00 00 00 00 00 00 00 00
(001.245984)  vcan0  00000130   [8]  00 00 00 00 00 00 00 00
(001.246223)  vcan0  0000017C   [8]  4B 00 00 00 00 00 00 00
(001.246435)  vcan0  0000014A   [8]  00 00 00 77 E3 D3 F0 F0
(001.246645)  vcan0  00000309   [8]  07 DB 00 00 00 00 00 00
(001.252155)  vcan0  0000017C   [8]  4B 00 00 00 00 00 00 00
(001.252370)  vcan0  00000309   [8]  07 DE 00 00 00 00 00 00
(001.252577)  vcan0  00000130   [8]  00 00 00 00 00 00 00 00
(001.252787)  vcan0  0000014A   [8]  00 00 00 77 E4 C6 98 28
(001.257987)  vcan0  0000017C   [8]  4B 00 00 00 00 00 00 00
(001.258203)  vcan0  00000309   [8]  07 ED 00 00 00 00 00 00
(001.258409)  vcan0  00000130   [8]  00 00 00 00 00 00 00 00
(001.258620)  vcan0  0000014A   [8]  00 00 00 77 D9 17 36 32
(001.264008)  vcan0  0000014A   [8]  00 00 00 77 D4 37 F6 66
(001.264218)  vcan0  00000130   [8]  00 00 00 00 00 00 00 00
(001.264432)  vcan0  00000309   [8]  07 F1 00 00 00 00 00 00
(001.264654)  vcan0  0000017C   [8]  4B 00 00 00 00 00 00 00
(001.270138)  vcan0  00000130   [8]  00 00 00 00 00 00 00 00
(001.270391)  vcan0  0000017C   [8]  4B 00 00 00 00 00 00 00
(001.270615)  vcan0  00000309   [8]  08 00 00 00 00 00 00 00
(001.270855)  vcan0  0000014A   [8]  00 00 00 77 D0 00 EC A2
(001.275968)  vcan0  00000309   [8]  08 04 00 00 00 00 00 00
(001.276195)  vcan0  0000017C   [8]  4B 00 00 00 00 00 00 00
(001.276403)  vcan0  00000130   [8]  00 00 00 00 00 00 00 00
(001.276616)  vcan0  0000014A   [8]  00 00 00 77 C9 70 60 D4
(001.282156)  vcan0  0000014A   [8]  00 00 00 77 C1 FF 8C FC
(001.282391)  vcan0  00000309   [8]  08 14 00 00 00 00 00 00
(001.282631)  vcan0  0000017C   [8]  4B 00 00 00 00 00 00 00
(001.282845)  vcan0  00000130   [8]  00 00 00 00 00 00 00 00
(001.288001)  vcan0  0000014A   [8]  00 00 00 77 BE 45 2D E4
(001.288218)  vcan0  00000309   [8]  08 18 00 00 00 00 00 00
(001.288425)  vcan0  00000130   [8]  00 00 00 00 00 00 00 00
(001.288646)  vcan0  0000017C   [8]  4B 00 00 00 00 00 00 00
(001.294128)  vcan0  0000017C   [8]  4B 00 00 00 00 00 00 00
(001.294346)  vcan0  00000309   [8]  08 29 00 00 00 00 00 00
(001.294557)  vcan0  0000014A   [8]  00 00 00 83 47 9A 8C D6
(001.294763)  vcan0  00000130   [8]  00 00 00 00 00 00 00 00
(001.299847)  vcan0  0000014A   [8]  00 00 00 7B 58 D1 63 FE
(001.300071)  vcan0  00000309   [8]  08 2D 00 00 00 00 00 00
(001.300278)  vcan0  00000130   [8]  00 00 00 00 00 00 00 00
(001.300503)  vcan0  0000017C   [8]  4B 00 00 00 00 00 00 00
(001.305824)  vcan0  00000309   [8]  08 3E 00 00 00 00 00 00
(001.306040)  vcan0  0000014A   [8]  00 00 00 7B 3F 5E 2B B4
(001.306263)  vcan0  0000017C   [8]  4B 00 00 00 00 00 00 00
(001.306471)  vcan0  00000130   [8]  00 00 00 00 00 00 00 00
(001.311812)  vcan0  00000309   [8]  08 43 00 00 00 00 00 00
(001.312038)  vcan0  0000017C   [8]  4B 00 00 00 00 00 00 00
(001.312245)  vcan0  00000130   [8]  00 00 00 00 00 00 00 00
(001.312457)  vcan0  0000014A   [8]  00 00 00 7B 25 99 F3 86
(001.317787)  vcan0  00000130   [8]  00 00 00 00 00 00 00 00
(001.318009)  vcan0  00000309   [8]  08 54 00 00 00 00 00 00
(001.318230)  vcan0  0000017C   [8]  4B 00 00 00 00 00 00 00
(001.318442)  vcan0  0000014A   [8]  00 00 00 7B 09 6B D6 DC
(001.323922)  vcan0  0000017C   [8]  4B 00 00 00 00 00 00 00
(001.324138)  vcan0  0000014A   [8]  00 00 00 7A EE 52 C7 10
(001.324345)  vcan0  00000130   [8]  00 00 00 00 00 00 00 00
(001.324557)  vcan0  00000309   [8]  08 59 00 00 00 00 00 00
(001.329832)  vcan0  0000017C   [8]  4B 00 00 00 00 00 00 00
(001.330048)  vcan0  0000014A   [8]  00 00 00 7A D2 CE B9 12
(001.330260)  vcan0  00000309   [8]  08 6A 00 00 00 00 00 00
(001.330468)  vcan0  00000130   [8]  00 00 00 00 00 00 00 00
(001.335957)  vcan0  0000017C   [8]  4B 00 00 00 00 00 00 00
(001.336175)  vcan0  0000014A   [8]  00 00 00 7A B5 31 31 7C
(001.336383)  vcan0  00000130   [8]  00 00 00 00 00 00 00 00
(001.336594)  vcan0  00000309   [8]  08 70 00 00 00 00 00 00
(001.341982)  vcan0  00000130   [8]  00 00 00 00 00 00 00 00
(001.342207)  vcan0  0000014A   [8]  00 00 00 7A 98 61 07 0E
(001.342431)  vcan0  0000017C   [8]  4B 00 00 00 00 00 00 00
(001.342642)  vcan0  00000309   [8]  08 81 00 00 00 00 00 00
(001.347756)  vcan0  0000017C   [8]  4B 00 00 00 00 00 00 00
(001.347975)  vcan0  00000309   [8]  08 87 00 00 00 00 00 00
(001.348188)  vcan0  0000014A   [8]  00 00 00 7A 80 57 91 7C
(001.348396)  vcan0  00000130   [8]  00 00 00 00 00 00 00 00
(001.354080)  vcan0  0000014A   [8]  00 00 00 7A 5F 9A 56 90
(001.354301)  vcan0  00000309   [8]  08 98 00 00 00 00 00 00
(001.354507)  vcan0  00000130   [8]  00 00 00 00 00 00 00 00
(001.354726)  vcan0  0000017C   [8]  4B 00 00 00 00 00 00 00
(001.360322)  vcan0  0000017C   [8]  4B 00 00 00 00 00 00 00
(001.360538)  vcan0  00000309   [8]  08 9E 00 00 00 00 00 00
(001.360749)  vcan0  0000014A   [8]  00 00 00 7A 44 DA E5 E6
(001.360955)  vcan0  00000130   [8]  00 00 00 00 00 00 00 00
(001.366181)  vcan0  00000309   [8]  08 B0 00 00 00 00 00 00
(001.366398)  vcan0  0000014A   [8]  00 00 00 7A 28 C7 73 D4
(001.366605)  vcan0  00000130   [8]  00 00 00 00 00 00 00 00
(001.366824)  vcan0  0000017C   [8]  4B 00 00 00 00 00 00 00
(001.371866)  vcan0  00000309   [8]  08 B6 00 00 00 00 00 00
(001.372076)  vcan0  00000130   [8]  00 00 00 00 00 00 00 00
(001.372303)  vcan0  0000017C   [8]  4B 00 00 00 00 00 00 00
(001.372515)  vcan0  0000014A   [8]  00 00 00 7A 0C B9 06 FC
(001.377898)  vcan0  0000017C   [8]  4B 00 00 00 00 00 00 00
(001.378115)  vcan0  0000014A   [8]  00 00 00 79 EE FC 02 CC
(001.378323)  vcan0  00000130   [8]  00 00 00 00 00 00 00 00
(001.378535)  vcan0  00000309   [8]  08 C8 00 00 00 00 00 00
(001.383865)  vcan0  00000309   [8]  08 CE 00 00 00 00 00 00
(001.384077)  vcan0  00000130   [8]  00 00 00 00 00 00 00 00
(001.384311)  vcan0  0000017C   [8]  4B 00 00 00 00 00 00 00
(001.384526)  vcan0  0000014A   [8]  00 00 00 79 D9 2F A4 7A
(001.389886)  vcan0  00000130   [8]  00 00 00 00 00 00 00 00
(001.390110)  vcan0  00000309   [8]  08 E0 00 00 00 00 00 00
(001.390324)  vcan0  0000014A   [8]  00 00 00 79 BB 17 2F 80
(001.390544)  vcan0  0000017C   [8]  4B 00 00 00 00 00 00 00
(001.395807)  vcan0  0000014A   [8]  00 00 00 79 A4 09 05 08
(001.396021)  vcan0  00000309   [8]  08 E7 00 00 00 00 00 00
(001.396228)  vcan0  00000130   [8]  00 00 00 00 00 00 00 00
(001.396449)  vcan0  0000017C   [8]  4B 00 00 00 00 00 00 00
(001.401867)  vcan0  0000017C   [8]  4B 00 00 00 00 00 00 00
(001.402082)  vcan0  0000014A   [8]  00 00 00 79 8C 8C C9 68
(001.402292)  vcan0  00000130   [8]  00 00 00 00 00 00 00 00
(001.402502)  vcan0  00000309   [8]  08 F8 00 00 00 00 00 00
(001.407813)  vcan0  0000014A   [8]  00 00 00 79 73 C5 68 26
(001.408034)  vcan0  00000309   [8]  08 FF 00 00 00 00 00 00
(001.408243)  vcan0  00000130   [8]  00 00 00 00 00 00 00 00
(001.408468)  vcan0  0000017C   [8]  4B 00 00 00 00 00 00 00
(001.413909)  vcan0  0000017C   [8]  4B 00 00 00 00 00 00 00
(001.414127)  vcan0  0000014A   [8]  00 00 00 79 5D 53 D8 CA
(001.414340)  vcan0  00000309   [8]  09 11 00 00 00 00 00 00
(001.414547)  vcan0  00000002   [8]  00 00 00 00 00 00 00 00
(001.414754)  vcan0  00000130   [8]  00 00 00 00 00 00 00 00
(001.419865)  vcan0  00000130   [8]  00 00 00 00 00 00 00 00
(001.420088)  vcan0  0000014A   [8]  00 00 00 79 45 0E 88 A4
(001.420302)  vcan0  00000309   [8]  09 18 00 00 00 00 00 00
(001.420524)  vcan0  0000017C   [8]  4B 00 00 00 00 00 00 00
(001.425889)  vcan0  00000309   [8]  09 29 00 00 00 00 00 00
(001.426099)  vcan0  00000130   [8]  00 00 00 00 00 00 00 00
(001.426311)  vcan0  0000014A   [8]  00 00 00 79 2F F8 C1 64
(001.426531)  vcan0  0000017C   [8]  4B 00 00 00 00 00 00 00
(001.431827)  vcan0  0000017C   [8]  4B 00 00 00 00 00 00 00
(001.432045)  vcan0  0000014A   [8]  00 00 00 79 1C 1D 5F 0C
(001.432257)  vcan0  00000309   [8]  09 31 00 00 00 00 00 00
(001.432464)  vcan0  00000130   [8]  00 00 00 00 00 00 00 00
(001.437948)  vcan0  0000014A   [8]  00 00 00 79 06 35 E6 5E
(001.438175)  vcan0  0000017C   [8]  4B 00 00 00 00 00 00 00
(001.438384)  vcan0  00000130   [8]  00 00 00 00 00 00 00 00
(001.438597)  vcan0  00000309   [8]  09 42 00 00 00 00 00 00
(001.443945)  vcan0  00000130   [8]  00 00 00 00 00 00 00 00
(001.444170)  vcan0  00000309   [8]  09 49 00 00 00 00 00 00
(001.444385)  vcan0  0000014A   [8]  00 00 00 78 F1 00 43 12
(001.444607)  vcan0  0000017C   [8]  4B 00 00 00 00 00 00 00
(001.449871)  vcan0  00000130   [8]  00 00 00 00 00 00 00 00
(001.450101)  vcan0  0000017C   [8]  4B 00 00 00 00 00 00 00
(001.450315)  vcan0  00000309   [8]  09 5B 00 00 00 00 00 00
(001.450524)  vcan0  0000014A   [8]  00 00 00 78 DF 23 5E 3C
(001.455846)  vcan0  0000017C   [8]  4B 00 00 00 00 00 00 00
(001.456058)  vcan0  00000130   [8]  00 00 00 00 00 00 00 00
(001.456272)  vcan0  00000309   [8]  09 62 00 00 00 00 00 00
(001.456483)  vcan0  0000014A   [8]  00 00 00 78 CC C7 5A AA
(001.461914)  vcan0  0000017C   [8]  4B 00 00 00 00 00 00 00
(001.462134)  vcan0  00000309   [8]  09 74 00 00 00 00 00 00
(001.462346)  vcan0  0000014A   [8]  00 00 00 78 BC 17 23 A4
(001.462554)  vcan0  00000130   [8]  00 00 00 00 00 00 00 00
(001.468058)  vcan0  0000017C   [8]  4B 00 00 00 00 00 00 00
(001.468269)  vcan0  00000130   [8]  00 00 00 00 00 00 00 00
(001.468482)  vcan0  00000309   [8]  09 7C 00 00 00 00 00 00
(001.468693)  vcan0  0000014A   [8]  00 00 00 78 AC 16 BF 6E
(001.473997)  vcan0  00000130   [8]  00 00 00 00 00 00 00 00
(001.474222)  vcan0  00000309   [8]  09 8D 00 00 00 00 00 00
(001.474446)  vcan0  0000017C   [8]  39 8F 00 00 00 00 00 00
(001.474658)  vcan0  0000014A   [8]  00 00 00 80 9A 94 E9 10
(001.480183)  vcan0  0000017C   [8]  31 D7 00 00 00 00 00 00
(001.480400)  vcan0  0000014A   [8]  00 00 00 7B 0E B0 ED DC
(001.480610)  vcan0  00000309   [8]  09 95 00 00 00 00 00 00
(001.480816)  vcan0  00000130   [8]  00 00 00 00 00 00 00 00
(001.486070)  vcan0  00000130   [8]  00 00 00 00 00 00 00 00
(001.486296)  vcan0  0000014A   [8]  00 00 00 7A ED 47 18 58
(001.486508)  vcan0  00000309   [8]  09 A6 00 00 00 00 00 00
(001.486727)  vcan0  0000017C   [8]  1F FD 00 00 00 00 00 00
(001.491826)  vcan0  0000014A   [8]  00 00 00 7A D0 BD 49 B2
(001.492048)  vcan0  0000017C   [8]  18 AE 00 00 00 00 00 00
(001.492258)  vcan0  00000309   [8]  09 AD 00 00 00 00 00 00
(001.492465)  vcan0  00000130   [8]  00 00 00 00 00 00 00 00
(001.497913)  vcan0  0000017C   [8]  07 D8 00 00 00 00 00 00
(001.498124)  vcan0  00000130   [8]  00 00 00 00 00 00 00 00
(001.498338)  vcan0  0000014A   [8]  00 00 00 7A AC 9D 17 4C
(001.498547)  vcan0  00000309   [8]  09 BE 00 00 00 00 00 00
(001.503918)  vcan0  0000014A   [8]  00 00 00 7A 90 29 09 F4
(001.504144)  vcan0  0000017C   [8]  01 9B 00 00 00 00 00 00
(001.504355)  vcan0  00000309   [8]  09 C4 00 00 00 00 00 00
(001.504562)  vcan0  00000130   [8]  00 00 00 00 00 00 00 00
(001.510139)  vcan0  00000309   [8]  09 D3 00 00 00 00 00 00
(001.510353)  vcan0  00000130   [8]  00 00 00 00 00 00 00 00
(001.510577)  vcan0  0000017C   [8]  00 00 00 00 00 00 08 B8
(001.510790)  vcan0  0000014A   [8]  00 00 00 7A 6E D8 DE EA
(001.515855)  vcan0  00000309   [8]  09 D7 00 00 00 00 00 00
(001.516068)  vcan0  0000014A   [8]  00 00 00 7A 51 02 DC 8C
(001.516275)  vcan0  00000130   [8]  00 00 00 00 00 00 00 00
(001.516495)  vcan0  0000017C   [8]  00 00 00 00 00 00 0B C0
(001.521791)  vcan0  00000309   [8]  09 E4 00 00 00 00 00 00
(001.522008)  vcan0  0000014A   [8]  00 00 00 7A 2E B0 65 9C
(001.522230)  vcan0  0000017C   [8]  00 00 00 00 00 00 13 30
(001.522438)  vcan0  00000130   [8]  00 00 00 00 00 00 00 00
(001.527768)  vcan0  00000130   [8]  00 00 00 00 00 00 00 00
(001.527988)  vcan0  0000014A   [8]  00 00 00 7A 14 F3 FF C4
(001.528201)  vcan0  00000309   [8]  09 E5 00 00 00 00 00 00
(001.528420)  vcan0  0000017C   [8]  00 00 00 00 00 00 13 30
(001.533770)  vcan0  0000014A   [8]  00 00 00 79 F1 C8 54 36
(001.533982)  vcan0  00000130   [8]  00 00 00 00 00 00 00 00
(001.534202)  vcan0  0000017C   [8]  00 00 00 00 00 00 13 30
(001.534412)  vcan0  00000309   [8]  09 EE 00 00 00 00 00 00
(001.539831)  vcan0  00000130   [8]  00 00 00 00 00 00 00 00
(001.540064)  vcan0  00000309   [8]  09 ED 00 00 00 00 00 00
(001.540276)  vcan0  0000014A   [8]  00 00 00 79 D7 DF 62 54
(001.540497)  vcan0  0000017C   [8]  00 00 00 00 00 00 13 30
(001.546052)  vcan0  0000014A   [8]  00 00 00 79 B9 D5 DC 6E
(001.546280)  vcan0  0000017C   [8]  00 00 00 00 00 00 13 30
(001.546524)  vcan0  00000309   [8]  09 F4 00 00 00 00 00 00
(001.546731)  vcan0  00000130   [8]  00 00 00 00 00 00 00 00
(001.552021)  vcan0  0000014A   [8]  00 00 00 79 9F 87 D5 C0
(001.552240)  vcan0  00000130   [8]  00 00 00 00 00 00 00 00
(001.552469)  vcan0  00000309   [8]  09 F0 00 00 00 00 00 00
(001.552706)  vcan0  0000017C   [8]  00 00 00 00 00 00 13 30
(001.557993)  vcan0  0000017C   [8]  00 00 00 00 00 00 13 30
(001.558212)  vcan0  0000014A   [8]  00 00 00 79 81 F9 03 08
(001.558419)  vcan0  00000130   [8]  00 00 00 00 00 00 00 00
(001.558630)  vcan0  00000309   [8]  09 F5 00 00 00 00 00 00
(001.563950)  vcan0  0000014A   [8]  00 00 00 79 6A 21 00 76
(001.564160)  vcan0  00000130   [8]  00 00 00 00 00 00 00 00
(001.564382)  vcan0  00000309   [8]  09 F0 00 00 00 00 00 00
(001.564602)  vcan0  0000017C   [8]  00 00 00 00 00 00 13 30
(001.570017)  vcan0  00000130   [8]  00 00 00 00 00 00 00 00
(001.570254)  vcan0  0000017C   [8]  00 00 00 00 00 00 13 30
(001.570467)  vcan0  00000309   [8]  09 F3 00 00 00 00 00 00
(001.570677)  vcan0  0000014A   [8]  00 00 00 79 4E 85 A5 5A
(001.575926)  vcan0  00000309   [8]  09 EC 00 00 00 00 00 00
(001.576154)  vcan0  0000017C   [8]  00 00 00 00 00 00 13 30
(001.576366)  vcan0  0000014A   [8]  00 00 00 79 38 0E 2A 46
(001.576572)  vcan0  00000130   [8]  00 00 00 00 00 00 00 00
(001.582035)  vcan0  0000014A   [8]  00 00 00 79 20 5A 24 D0
(001.582244)  vcan0  00000130   [8]  00 00 00 00 00 00 00 00
(001.582465)  vcan0  0000017C   [8]  00 00 00 00 00 00 13 30
(001.582674)  vcan0  00000309   [8]  09 EF 00 00 00 00 00 00
(001.587968)  vcan0  00000130   [8]  00 00 00 00 00 00 00 00
(001.588185)  vcan0  0000014A   [8]  00 00 00 79 0B 14 AE 42
(001.588397)  vcan0  00000309   [8]  09 E7 00 00 00 00 00 00
(001.588614)  vcan0  0000017C   [8]  00 00 00 00 00 00 13 30
(001.594150)  vcan0  0000017C   [8]  00 00 00 00 00 00 13 30
(001.594364)  vcan0  0000014A   [8]  00 00 00 78 F4 00 72 D0
(001.594574)  vcan0  00000309   [8]  09 E8 00 00 00 00 00 00
(001.594781)  vcan0  00000130   [8]  00 00 00 00 00 00 00 00
(001.599815)  vcan0  00000309   [8]  09 E0 00 00 00 00 00 00
(001.600029)  vcan0  0000014A   [8]  00 00 00 78 E0 33 BE 5C
(001.600235)  vcan0  00000130   [8]  00 00 00 00 00 00 00 00
(001.600456)  vcan0  0000017C   [8]  00 00 00 00 00 00 12 40
(001.605881)  vcan0  0000014A   [8]  00 00 00 78 CB AC 5B 14
(001.606102)  vcan0  0000017C   [8]  00 00 00 00 00 00 12 98
(001.606312)  vcan0  00000309   [8]  09 E0 00 00 00 00 00 00
(001.606518)  vcan0  00000130   [8]  00 00 00 00 00 00 00 00
(001.612026)  vcan0  00000309   [8]  09 D6 00 00 00 00 00 00
(001.612246)  vcan0  00000130   [8]  00 00 00 00 00 00 00 00
(001.612474)  vcan0  0000014A   [8]  00 00 00 78 BA 53 EE 06
(001.612718)  vcan0  0000017C   [8]  00 00 00 00 00 00 0C 60
(001.618273)  vcan0  00000309   [8]  09 D6 00 00 00 00 00 00
(001.618493)  vcan0  0000014A   [8]  00 00 00 78 A7 62 85 B0
(001.618700)  vcan0  00000130   [8]  00 00 00 00 00 00 00 00
(001.618921)  vcan0  0000017C   [8]  00 00 00 00 00 00 0C 40
(001.623949)  vcan0  00000130   [8]  00 00 00 00 00 00 00 00
(001.624176)  vcan0  0000014A   [8]  00 00 00 78 96 9E 37 70
(001.624400)  vcan0  0000017C   [8]  00 00 00 00 00 00 05 E8
(001.624614)  vcan0  00000309   [8]  09 CC 00 00 00 00 00 00
(001.629882)  vcan0  0000017C   [8]  00 00 00 00 00 00 05 C8
(001.630096)  vcan0  00000130   [8]  00 00 00 00 00 00 00 00
(001.630309)  vcan0  0000014A   [8]  00 00 00 78 84 B3 29 6E
(001.630520)  vcan0  00000309   [8]  09 CC 00 00 00 00 00 00
(001.635868)  vcan0  0000017C   [8]  00 D4 00 00 00 00 00 00
(001.636078)  vcan0  00000130   [8]  00 00 00 00 00 00 00 00
(001.636293)  vcan0  0000014A   [8]  00 00 00 78 75 AD 86 F6
(001.636503)  vcan0  00000309   [8]  09 C3 00 00 00 00 00 00
(001.641977)  vcan0  0000017C   [8]  00 F9 00 00 00 00 00 00
(001.642193)  vcan0  00000309   [8]  09 C3 00 00 00 00 00 00
(001.642401)  vcan0  00000130   [8]  00 00 00 00 00 00 00 00
(001.642612)  vcan0  0000014A   [8]  00 00 00 78 68 1D CB 80
(001.647965)  vcan0  00000309   [8]  09 B9 00 00 00 00 00 00
(001.648175)  vcan0  00000130   [8]  00 00 00 00 00 00 00 00
(001.648396)  vcan0  0000017C   [8]  0A 9F 00 00 00 00 00 00
(001.648606)  vcan0  0000014A   [8]  00 00 00 78 56 91 6B 2A
(001.653776)  vcan0  00000130   [8]  00 00 00 00 00 00 00 00
(001.653993)  vcan0  0000014A   [8]  00 00 00 78 49 93 AC 84
(001.654214)  vcan0  0000017C   [8]  0A AF 00 00 00 00 00 00
(001.654424)  vcan0  00000309   [8]  09 B9 00 00 00 00 00 00
(001.659867)  vcan0  0000017C   [8]  14 BE 00 00 00 00 00 00
(001.660079)  vcan0  0000014A   [8]  00 00 00 78 3C FF 68 66
(001.660289)  vcan0  00000002   [8]  00 00 00 00 00 00 00 00
(001.660498)  vcan0  00000309   [8]  09 AF 00 00 00 00 00 00
(001.660703)  vcan0  00000130   [8]  00 00 00 00 00 00 00 00
(001.665923)  vcan0  0000017C   [8]  14 F4 00 00 00 00 00 00
(001.666137)  vcan0  0000014A   [8]  00 00 00 78 2E C5 72 06
(001.666347)  vcan0  00000309   [8]  09 AF 00 00 00 00 00 00
(001.666553)  vcan0  00000130   [8]  00 00 00 00 00 00 00 00
(001.671834)  vcan0  0000014A   [8]  00 00 00 78 25 F4 A4 B8
(001.672054)  vcan0  0000017C   [8]  1F 15 00 00 00 00 00 00
(001.672264)  vcan0  00000309   [8]  09 A5 00 00 00 00 00 00
(001.672470)  vcan0  00000130   [8]  00 00 00 00 00 00 00 00
(001.677905)  vcan0  00000130   [8]  00 00 00 00 00 00 00 00
(001.678123)  vcan0  0000014A   [8]  00 00 00 78 18 31 4A F4
(001.678335)  vcan0  00000309   [8]  09 A5 00 00 00 00 00 00
(001.678552)  vcan0  0000017C   [8]  1F 29 00 00 00 00 00 00
(001.678759)  vcan0  0000018F   [8]  00 00 00 00 00 00 00 00
(001.678976)  vcan0  000001A3   [8]  00 00 00 00 00 00 00 00
(001.683853)  vcan0  0000017C   [8]  29 0F 00 00 00 00 00 00
(001.684062)  vcan0  00000130   [8]  00 00 00 00 00 00 00 00
(001.684273)  vcan0  0000014A   [8]  00 00 00 78 0D 64 A8 02
(001.684482)  vcan0  00000309   [8]  09 9B 00 00 00 00 00 00
(001.689869)  vcan0  00000130   [8]  00 00 00 00 00 00 00 00
(001.690089)  vcan0  0000014A   [8]  00 00 00 7D FD C4 0E E0
(001.690300)  vcan0  00000309   [8]  09 9C 00 00 00 00 00 00
(001.690524)  vcan0  0000017C   [8]  28 C5 00 00 00 00 00 00
(001.695986)  vcan0  00000130   [8]  00 00 00 00 00 00 00 00
(001.696211)  vcan0  0000017C   [8]  32 2B 00 00 00 00 00 00
(001.696421)  vcan0  00000309   [8]  09 92 00 00 00 00 00 00
(001.696630)  vcan0  0000014A   [8]  00 00 00 79 E2 21 E9 F2
(001.702236)  vcan0  0000017C   [8]  31 4E 00 00 00 00 00 00
(001.702444)  vcan0  00000130   [8]  00 00 00 00 00 00 00 00
(001.702653)  vcan0  0000014A   [8]  00 00 00 79 CB D9 25 0C
(001.702862)  vcan0  00000309   [8]  09 93 00 00 00 00 00 00
(001.707926)  vcan0  00000130   [8]  00 00 00 00 00 00 00 00
(001.708160)  vcan0  0000017C   [8]  39 F7 00 00 00 00 00 00
(001.708373)  vcan0  00000309   [8]  09 8B 00 00 00 00 00 00
(001.708584)  vcan0  0000014A   [8]  00 00 00 79 BB B6 9A 0E
(001.714080)  vcan0  0000014A   [8]  00 00 00 79 A6 68 8F E8
(001.714299)  vcan0  00000309   [8]  09 8D 00 00 00 00 00 00
(001.714509)  vcan0  00000130   [8]  00 00 00 00 00 00 00 00
(001.714730)  vcan0  0000017C   [8]  38 55 00 00 00 00 00 00
(001.719838)  vcan0  00000309   [8]  09 85 00 00 00 00 00 00
(001.720065)  vcan0  0000017C   [8]  40 0B 00 00 00 00 00 00
(001.720278)  vcan0  0000014A   [8]  00 00 00 79 91 79 38 16
(001.720485)  vcan0  00000130   [8]  00 00 00 00 00 00 00 00
(001.725895)  vcan0  00000130   [8]  00 00 00 00 00 00 00 00
(001.726136)  vcan0  0000017C   [8]  3D 7C 00 00 00 00 00 00
(001.726350)  vcan0  00000309   [8]  09 88 00 00 00 00 00 00
(001.726561)  vcan0  0000014A   [8]  00 00 00 79 7B D4 67 90
(001.731958)  vcan0  0000017C   [8]  44 1D 00 00 00 00 00 00
(001.732176)  vcan0  0000014A   [8]  00 00 00 79 6A 9C E4 A8
(001.732387)  vcan0  00000309   [8]  09 81 00 00 00 00 00 00
(001.732594)  vcan0  00000130   [8]  00 00 00 00 00 00 00 00
(001.737862)  vcan0  00000309   [8]  09 85 00 00 00 00 00 00
(001.738076)  vcan0  00000130   [8]  00 00 00 00 00 00 00 00
(001.738290)  vcan0  0000014A   [8]  00 00 00 79 54 7C 52 DE
(001.738509)  vcan0  0000017C   [8]  40 87 00 00 00 00 00 00
(001.743916)  vcan0  0000017C   [8]  46 06 00 00 00 00 00 00
(001.744132)  vcan0  0000014A   [8]  00 00 00 79 40 9A A7 AA
(001.744339)  vcan0  00000130   [8]  00 00 00 00 00 00 00 00
(001.744549)  vcan0  00000309   [8]  09 7F 00 00 00 00 00 00
(001.749896)  vcan0  0000014A   [8]  00 00 00 79 2D B7 58 34
(001.750109)  vcan0  00000309   [8]  09 84 00 00 00 00 00 00
(001.750328)  vcan0  0000017C   [8]  41 60 00 00 00 00 00 00
(001.750534)  vcan0  00000130   [8]  00 00 00 00 00 00 00 00
(001.756001)  vcan0  0000014A   [8]  00 00 00 79 18 C8 AC AE
(001.756217)  vcan0  00000309   [8]  09 80 00 00 00 00 00 00
(001.756438)  vcan0  0000017C   [8]  45 BF 00 00 00 00 00 00
(001.756645)  vcan0  00000130   [8]  00 00 00 00 00 00 00 00
(001.762022)  vcan0  0000014A   [8]  00 00 00 79 05 23 16 44
(001.762250)  vcan0  0000017C   [8]  40 0D 00 00 00 00 00 00
(001.762461)  vcan0  00000130   [8]  00 00 00 00 00 00 00 00
(001.762675)  vcan0  00000309   [8]  09 86 00 00 00 00 00 00
(001.767924)  vcan0  0000017C   [8]  43 62 00 00 00 00 00 00
(001.768137)  vcan0  00000130   [8]  00 00 00 00 00 00 00 00
(001.768351)  vcan0  00000309   [8]  09 82 00 00 00 00 00 00
(001.768563)  vcan0  0000014A   [8]  00 00 00 78 F5 14 35 12
(001.773892)  vcan0  0000017C   [8]  3C BE 00 00 00 00 00 00
(001.774103)  vcan0  00000130   [8]  00 00 00 00 00 00 00 00
(001.774318)  vcan0  0000014A   [8]  00 00 00 78 E0 18 01 06
(001.774528)  vcan0  00000309   [8]  09 89 00 00 00 00 00 00
(001.779842)  vcan0  00000130   [8]  00 00 00 00 00 00 00 00
(001.780073)  vcan0  0000017C   [8]  3F 2E 00 00 00 00 00 00
(001.780289)  vcan0  00000309   [8]  09 86 00 00 00 00 00 00
(001.780500)  vcan0  0000014A   [8]  00 00 00 78 CF D5 AA 44
(001.786037)  vcan0  0000017C   [8]  37 C5 00 00 00 00 00 00
(001.786254)  vcan0  00000309   [8]  09 8E 00 00 00 00 00 00
(001.786460)  vcan0  00000130   [8]  00 00 00 00 00 00 00 00
(001.786671)  vcan0  0000014A   [8]  00 00 00 78 BD 3C 0D 12
(001.792088)  vcan0  0000014A   [8]  00 00 00 78 AC A1 AE A4
(001.792301)  vcan0  00000130   [8]  00 00 00 00 00 00 00 00
(001.792524)  vcan0  0000017C   [8]  39 87 00 00 00 00 00 00
(001.792738)  vcan0  00000309   [8]  09 8C 00 00 00 00 00 00
(001.798079)  vcan0  00000130   [8]  00 00 00 00 00 00 00 00
(001.798306)  vcan0  00000309   [8]  09 94 00 00 00 00 00 00
(001.798526)  vcan0  0000017C   [8]  31 94 00 00 00 00 00 00
(001.798737)  vcan0  0000014A   [8]  00 00 00 78 9C 3E A0 F8
(001.803917)  vcan0  0000017C   [8]  32 E6 00 00 00 00 00 00
(001.804130)  vcan0  00000309   [8]  09 93 00 00 00 00 00 00
(001.804344)  vcan0  0000014A   [8]  00 00 00 78 8C 68 B8 4A
(001.804550)  vcan0  00000130   [8]  00 00 00 00 00 00 00 00
(001.809834)  vcan0  0000017C   [8]  2A AD 00 00 00 00 00 00
(001.810048)  vcan0  00000309   [8]  09 9B 00 00 00 00 00 00
(001.810259)  vcan0  0000014A   [8]  00 00 00 78 7D D6 A2 F4
(001.810465)  vcan0  00000130   [8]  00 00 00 00 00 00 00 00
(001.815767)  vcan0  00000309   [8]  09 9A 00 00 00 00 00 00
(001.815981)  vcan0  0000014A   [8]  00 00 00 78 70 85 D2 B6
(001.816189)  vcan0  00000130   [8]  00 00 00 00 00 00 00 00
(001.816409)  vcan0  0000017C   [8]  2B D0 00 00 00 00 00 00
(001.821872)  vcan0  00000309   [8]  09 A2 00 00 00 00 00 00
(001.822085)  vcan0  0000014A   [8]  00 00 00 78 63 12 67 46
(001.822291)  vcan0  00000130   [8]  00 00 00 00 00 00 00 00
(001.822510)  vcan0  0000017C   [8]  23 97 00 00 00 00 00 00
(001.828087)  vcan0  0000017C   [8]  24 CC 00 00 00 00 00 00
(001.828304)  vcan0  00000309   [8]  09 A0 00 00 00 00 00 00
(001.828511)  vcan0  00000130   [8]  00 00 00 00 00 00 00 00
(001.828721)  vcan0  0000014A   [8]  00 00 00 78 56 2B DE 76
(001.833931)  vcan0  00000130   [8]  00 00 00 00 00 00 00 00
(001.834162)  vcan0  00000309   [8]  09 A8 00 00 00 00 00 00
(001.834385)  vcan0  0000017C   [8]  1C D2 00 00 00 00 00 00
(001.834597)  vcan0  0000014A   [8]  00 00 00 78 45 F1 AC B4
(001.839954)  vcan0  0000017C   [8]  1E 53 00 00 00 00 00 00
(001.840172)  vcan0  0000014A   [8]  00 00 00 78 3B E4 2B 1E
(001.840381)  vcan0  00000130   [8]  00 00 00 00 00 00 00 00
(001.840594)  vcan0  00000309   [8]  09 A7 00 00 00 00 00 00
(001.845935)  vcan0  00000130   [8]  00 00 00 00 00 00 00 00
(001.846174)  vcan0  0000017C   [8]  16 CF 00 00 00 00 00 00
(001.846390)  vcan0  0000014A   [8]  00 00 00 78 2F BA E0 8A
(001.846601)  vcan0  00000309   [8]  09 AE 00 00 00 00 00 00
(001.851952)  vcan0  00000130   [8]  00 00 00 00 00 00 00 00
(001.852175)  vcan0  0000014A   [8]  00 00 00 78 22 84 DE FC
(001.852389)  vcan0  00000309   [8]  09 AC 00 00 00 00 00 00
(001.852609)  vcan0  0000017C   [8]  18 CD 00 00 00 00 00 00
(001.858203)  vcan0  00000130   [8]  00 00 00 00 00 00 00 00
(001.858462)  vcan0  0000017C   [8]  11 E7 00 00 00 00 00 00
(001.858689)  vcan0  0000014A   [8]  00 00 00 78 18 FF DE F2
(001.858913)  vcan0  00000309   [8]  09 B3 00 00 00 00 00 00
(001.863886)  vcan0  00000130   [8]  00 00 00 00 00 00 00 00
(001.864109)  vcan0  0000014A   [8]  00 00 00 78 0B 95 01 46
(001.864330)  vcan0  0000017C   [8]  14 84 00 00 00 00 00 00
(001.864541)  vcan0  00000309   [8]  09 B0 00 00 00 00 00 00
(001.869810)  vcan0  00000130   [8]  00 00 00 00 00 00 00 00
(001.870033)  vcan0  00000309   [8]  09 B6 00 00 00 00 00 00
(001.870253)  vcan0  0000014A   [8]  00 00 00 78 02 A8 CF 1C
(001.870474)  vcan0  0000017C   [8]  0E 51 00 00 00 00 00 00
(001.875880)  vcan0  0000014A   [8]  00 00 00 77 FA A3 40 7A
(001.876097)  vcan0  00000309   [8]  09 B3 00 00 00 00 00 00
(001.876318)  vcan0  0000017C   [8]  11 A1 00 00 00 00 00 00
(001.876525)  vcan0  00000130   [8]  00 00 00 00 00 00 00 00
(001.881881)  vcan0  0000017C   [8]  0C 2A 00 00 00 00 00 00
(001.882093)  vcan0  00000130   [8]  00 00 00 00 00 00 00 00
(001.882307)  vcan0  00000309   [8]  09 B8 00 00 00 00 00 00
(001.882519)  vcan0  0000014A   [8]  00 00 00 77 EE 21 23 A8
(001.887807)  vcan0  00000309   [8]  09 B4 00 00 00 00 00 00
(001.888017)  vcan0  00000130   [8]  00 00 00 00 00 00 00 00
(001.888239)  vcan0  0000017C   [8]  10 33 00 00 00 00 00 00
(001.888450)  vcan0  0000014A   [8]  00 00 00 77 E8 40 CF F4
(001.893852)  vcan0  00000130   [8]  00 00 00 00 00 00 00 00
(001.894092)  vcan0  0000014A   [8]  00 00 00 77 DE E1 D6 90
(001.894305)  vcan0  00000309   [8]  09 B9 00 00 00 00 00 00
(001.894524)  vcan0  0000017C   [8]  0B 72 00 00 00 00 00 00
(001.900178)  vcan0  00000130   [8]  00 00 00 00 00 00 00 00
(001.900419)  vcan0  00000309   [8]  09 B4 00 00 00 00 00 00
(001.900660)  vcan0  0000017C   [8]  10 2E 00 00 00 00 00 00
(001.900884)  vcan0  0000014A   [8]  00 00 00 77 D6 6B A7 58
(001.905935)  vcan0  0000014A   [8]  00 00 00 7B 1E B5 E5 34
(001.906163)  vcan0  0000017C   [8]  0C 12 00 00 00 00 00 00
(001.906370)  vcan0  00000130   [8]  00 00 00 00 00 00 00 00
(001.906580)  vcan0  00000309   [8]  09 B8 00 00 00 00 00 00
(001.906785)  vcan0  00000002   [8]  00 00 00 00 00 00 00 00
(001.911937)  vcan0  00000130   [8]  00 00 00 00 00 00 00 00
(001.912166)  vcan0  0000017C   [8]  11 6F 00 00 00 00 00 00
(001.912380)  vcan0  0000014A   [8]  00 00 00 78 D2 E7 D7 68
(001.912589)  vcan0  00000309   [8]  09 B3 00 00 00 00 00 00
(001.918329)  vcan0  00000309   [8]  09 B6 00 00 00 00 00 00
(001.918540)  vcan0  00000130   [8]  00 00 00 00 00 00 00 00
(001.918761)  vcan0  0000017C   [8]  0D DF 00 00 00 00 00 00
(001.918972)  vcan0  0000014A   [8]  00 00 00 78 C8 D7 53 26
(001.923965)  vcan0  0000017C   [8]  13 C8 00 00 00 00 00 00
(001.924189)  vcan0  0000014A   [8]  00 00 00 78 BB 92 5C B0
(001.924396)  vcan0  00000130   [8]  00 00 00 00 00 00 00 00
(001.924606)  vcan0  00000309   [8]  09 B1 00 00 00 00 00 00
(001.929916)  vcan0  00000309   [8]  09 B4 00 00 00 00 00 00
(001.930139)  vcan0  0000017C   [8]  10 A7 00 00 00 00 00 00
(001.930350)  vcan0  0000014A   [8]  00 00 00 78 AC 9E 4E D8
(001.930556)  vcan0  00000130   [8]  00 00 00 00 00 00 00 00
(001.936031)  vcan0  00000130   [8]  00 00 00 00 00 00 00 00
(001.936254)  vcan0  0000014A   [8]  00 00 00 78 A1 B5 16 06
(001.936466)  vcan0  00000309   [8]  09 AD 00 00 00 00 00 00
(001.936686)  vcan0  0000017C   [8]  16 FD 00 00 00 00 00 00
(001.941770)  vcan0  00000130   [8]  00 00 00 00 00 00 00 00
(001.941991)  vcan0  00000309   [8]  09 B0 00 00 00 00 00 00
(001.942203)  vcan0  0000014A   [8]  00 00 00 78 92 B4 E1 8E
(001.942421)  vcan0  0000017C   [8]  14 2A 00 00 00 00 00 00
(001.947776)  vcan0  0000014A   [8]  00 00 00 78 88 C9 06 B4
(001.947985)  vcan0  00000130   [8]  00 00 00 00 00 00 00 00
(001.948205)  vcan0  0000017C   [8]  1A CD 00 00 00 00 00 00
(001.948414)  vcan0  00000309   [8]  09 AA 00 00 00 00 00 00
(001.953901)  vcan0  0000017C   [8]  18 27 00 00 00 00 00 00
(001.954115)  vcan0  0000014A   [8]  00 00 00 78 7A 14 58 7E
(001.954322)  vcan0  00000130   [8]  00 00 00 00 00 00 00 00
(001.954531)  vcan0  00000309   [8]  09 AC 00 00 00 00 00 00
(001.959988)  vcan0  00000130   [8]  00 00 00 00 00 00 00 00
(001.960211)  vcan0  0000014A   [8]  00 00 00 78 6D 47 25 2C
(001.960423)  vcan0  00000309   [8]  09 A6 00 00 00 00 00 00
(001.960643)  vcan0  0000017C   [8]  1E F1 00 00 00 00 00 00
(001.965960)  vcan0  00000130   [8]  00 00 00 00 00 00 00 00
(001.966194)  vcan0  0000017C   [8]  1C 56 00 00 00 00 00 00
(001.966407)  vcan0  00000309   [8]  09 A8 00 00 00 00 00 00
(001.966618)  vcan0  0000014A   [8]  00 00 00 78 60 2D CA F4
(001.971984)  vcan0  0000017C   [8]  23 24 00 00 00 00 00 00
(001.972200)  vcan0  00000309   [8]  09 A1 00 00 00 00 00 00
(001.972410)  vcan0  0000014A   [8]  00 00 00 78 55 EF 0A BE
(001.972617)  vcan0  00000130   [8]  00 00 00 00 00 00 00 00
(001.978023)  vcan0  0000014A   [8]  00 00 00 78 49 6C 65 B8
(001.978248)  vcan0  0000017C   [8]  20 75 00 00 00 00 00 00
(001.978457)  vcan0  00000130   [8]  00 00 00 00 00 00 00 00
(001.978668)  vcan0  00000309   [8]  09 A4 00 00 00 00 00 00
(001.984128)  vcan0  0000017C   [8]  27 26 00 00 00 00 00 00
(001.984351)  vcan0  0000014A   [8]  00 00 00 78 3C 86 A0 7C
(001.984560)  vcan0  00000130   [8]  00 00 00 00 00 00 00 00
(001.984775)  vcan0  00000309   [8]  09 9E 00 00 00 00 00 00
(001.990396)  vcan0  0000014A   [8]  00 00 00 78 31 51 54 8E
(001.990616)  vcan0  00000309   [8]  09 A0 00 00 00 00 00 00
(001.990875)  vcan0  0000017C   [8]  24 45 00 00 00 00 00 00
(001.991082)  vcan0  00000130   [8]  00 00 00 00 00 00 00 00
(001.996212)  vcan0  00000309   [8]  09 9A 00 00 00 00 00 00
(001.996441)  vcan0  0000014A   [8]  00 00 00 78 27 FB 5F AE
(001.996650)  vcan0  00000130   [8]  00 00 00 00 00 00 00 00
(001.996873)  vcan0  0000017C   [8]  2A BA 00 00 00 00 00 00
(002.002247)  vcan0  0000017C   [8]  27 91 00 00 00 00 00 00
(002.002465)  vcan0  00000309   [8]  09 9D 00 00 00 00 00 00
(002.002677)  vcan0  0000014A   [8]  00 00 00 78 1D 33 CA 1A
(002.002885)  vcan0  00000130   [8]  00 00 00 00 00 00 00 00
(002.008118)  vcan0  00000130   [8]  00 00 00 00 00 00 00 00
(002.008349)  vcan0  0000014A   [8]  00 00 00 78 11 FB 33 52
(002.008577)  vcan0  0000017C   [8]  2D B1 00 00 00 00 00 00
(002.008790)  vcan0  00000309   [8]  09 97 00 00 00 00 00 00
(002.014191)  vcan0  0000014A   [8]  00 00 00 78 09 21 E8 8C
(002.014426)  vcan0  0000017C   [8]  2A 2D 00 00 00 00 00 00
(002.014639)  vcan0  00000309   [8]  09 9B 00 00 00 00 00 00
(002.014846)  vcan0  00000130   [8]  00 00 00 00 00 00 00 00
(002.020110)  vcan0  0000017C   [8]  2F E8 00 00 00 00 00 00
(002.020354)  vcan0  00000309   [8]  09 95 00 00 00 00 00 00
(002.020571)  vcan0  0000014A   [8]  00 00 00 77 FC 47 B2 96
(002.020778)  vcan0  00000130   [8]  00 00 00 00 00 00 00 00
(002.026367)  vcan0  00000309   [8]  09 99 00 00 00 00 00 00
(002.026579)  vcan0  00000130   [8]  00 00 00 00 00 00 00 00
(002.026791)  vcan0  0000014A   [8]  00 00 00 77 F6 C9 6B 30
(002.027012)  vcan0  0000017C   [8]  2B FB 00 00 00 00 00 00
(002.032236)  vcan0  0000017C   [8]  31 45 00 00 00 00 00 00
(002.032458)  vcan0  00000309   [8]  09 94 00 00 00 00 00 00
(002.032672)  vcan0  0000014A   [8]  00 00 00 77 ED E3 17 F4
(002.032879)  vcan0  00000130   [8]  00 00 00 00 00 00 00 00
(002.038471)  vcan0  0000017C   [8]  2C EA 00 00 00 00 00 00
(002.038706)  vcan0  00000309   [8]  09 98 00 00 00 00 00 00
(002.038922)  vcan0  00000130   [8]  00 00 00 00 00 00 00 00
(002.039148)  vcan0  0000014A   [8]  00 00 00 77 E3 EA 0E 38
(002.044232)  vcan0  00000309   [8]  09 93 00 00 00 00 00 00
(002.044445)  vcan0  00000130   [8]  00 00 00 00 00 00 00 00
(002.044667)  vcan0  0000017C   [8]  31 C0 00 00 00 00 00 00
(002.044877)  vcan0  0000014A   [8]  00 00 00 77 DD AE DF E4
(002.050189)  vcan0  00000130   [8]  00 00 00 00 00 00 00 00
(002.050430)  vcan0  0000017C   [8]  2C F8 00 00 00 00 00 00
(002.050646)  vcan0  0000014A   [8]  00 00 00 77 D5 25 8D EA
(002.050857)  vcan0  00000309   [8]  09 98 00 00 00 00 00 00
(002.056315)  vcan0  0000017C   [8]  31 5D 00 00 00 00 00 00
(002.056534)  vcan0  0000014A   [8]  00 00 00 77 CE AB B5 90
(002.056744)  vcan0  00000130   [8]  00 00 00 00 00 00 00 00
(002.056955)  vcan0  00000309   [8]  09 94 00 00 00 00 00 00
(002.062206)  vcan0  00000130   [8]  00 00 00 00 00 00 00 00
(002.062437)  vcan0  0000014A   [8]  00 00 00 77 C3 E0 B3 60
(002.062650)  vcan0  00000309   [8]  09 99 00 00 00 00 00 00
(002.062871)  vcan0  0000017C   [8]  2C 2E 00 00 00 00 00 00
(002.068062)  vcan0  00000130   [8]  00 00 00 00 00 00 00 00
(002.068291)  vcan0  00000309   [8]  09 95 00 00 00 00 00 00
(002.068504)  vcan0  0000014A   [8]  00 00 00 77 C1 74 3D BC
(002.068725)  vcan0  0000017C   [8]  30 30 00 00 00 00 00 00
(002.073944)  vcan0  0000017C   [8]  2A AA 00 00 00 00 00 00
(002.074157)  vcan0  00000309   [8]  09 9A 00 00 00 00 00 00
(002.074364)  vcan0  00000130   [8]  00 00 00 00 00 00 00 00
(002.074574)  vcan0  0000014A   [8]  00 00 00 77 B8 DD C6 C4
(002.080120)  vcan0  0000014A   [8]  00 00 00 77 B2 3B 16 92
(002.080349)  vcan0  0000017C   [8]  2E 5A 00 00 00 00 00 00
(002.080561)  vcan0  00000309   [8]  09 97 00 00 00 00 00 00
(002.080768)  vcan0  00000130   [8]  00 00 00 00 00 00 00 00
(002.086584)  vcan0  0000014A   [8]  00 00 00 77 AE 27 1F EA
(002.086811)  vcan0  0000017C   [8]  28 92 00 00 00 00 00 00
(002.087018)  vcan0  00000130   [8]  00 00 00 00 00 00 00 00
(002.087229)  vcan0  00000309   [8]  09 9D 00 00 00 00 00 00
(002.092677)  vcan0  0000014A   [8]  00 00 00 77 A7 5C 19 1A
(002.092904)  vcan0  0000017C   [8]  2C 06 00 00 00 00 00 00
(002.093116)  vcan0  00000309   [8]  09 99 00 00 00 00 00 00
(002.093322)  vcan0  00000130   [8]  00 00 00 00 00 00 00 00
(002.098071)  vcan0  00000130   [8]  00 00 00 00 00 00 00 00
(002.098302)  vcan0  0000014A   [8]  00 00 00 77 9F 82 15 3A
(002.098525)  vcan0  0000017C   [8]  26 13 00 00 00 00 00 00
(002.098737)  vcan0  00000309   [8]  09 9F 00 00 00 00 00 00
(002.104108)  vcan0  0000017C   [8]  29 64 00 00 00 00 00 00
(002.104328)  vcan0  0000014A   [8]  00 00 00 77 9E D2 34 70
(002.104542)  vcan0  00000309   [8]  09 9C 00 00 00 00 00 00
(002.104750)  vcan0  00000130   [8]  00 00 00 00 00 00 00 00
(002.110040)  vcan0  0000014A   [8]  00 00 00 77 98 48 65 54
(002.110277)  vcan0  0000017C   [8]  23 5E 00 00 00 00 00 00
(002.110486)  vcan0  00000130   [8]  00 00 00 00 00 00 00 00
(002.110699)  vcan0  00000309   [8]  09 A2 00 00 00 00 00 00
(002.116000)  vcan0  00000130   [8]  00 00 00 00 00 00 00 00
(002.116230)  vcan0  00000309   [8]  09 9E 00 00 00 00 00 00
(002.116452)  vcan0  0000017C   [8]  26 A5 00 00 00 00 00 00
(002.116663)  vcan0  0000014A   [8]  00 00 00 77 93 29 2D F8
(002.121915)  vcan0  00000130   [8]  00 00 00 00 00 00 00 00
(002.122138)  vcan0  00000309   [8]  09 A4 00 00 00 00 00 00
(002.122360)  vcan0  0000017C   [8]  20 A6 00 00 00 00 00 00
(002.122571)  vcan0  0000014A   [8]  00 00 00 77 91 73 9F BA
(002.128183)  vcan0  0000017C   [8]  23 F9 00 00 00 00 00 00
(002.128401)  vcan0  0000014A   [8]  00 00 00 00 5B DF DA 66
(002.128608)  vcan0  00000130   [8]  00 00 00 00 00 00 00 00
(002.128818)  vcan0  00000309   [8]  09 A1 00 00 00 00 00 00
(002.134099)  vcan0  00000130   [8]  00 00 00 00 00 00 00 00
(002.134329)  vcan0  0000014A   [8]  00 00 00 4B C4 81 F8 5E
(002.134550)  vcan0  0000017C   [8]  1E 99 00 00 00 00 00 00
(002.134761)  vcan0  00000309   [8]  09 A6 00 00 00 00 00 00
(002.140019)  vcan0  0000014A   [8]  00 00 00 4C 58 BC FF E0
(002.140245)  vcan0  0000017C   [8]  21 C9 00 00 00 00 00 00
(002.140452)  vcan0  00000130   [8]  00 00 00 00 00 00 00 00
(002.140663)  vcan0  00000309   [8]  09 A3 00 00 00 00 00 00
(002.146094)  vcan0  0000014A   [8]  00 00 00 4D 47 50 8D 48
(002.146308)  vcan0  00000130   [8]  00 00 00 00 00 00 00 00
(002.146524)  vcan0  00000309   [8]  09 A8 00 00 00 00 00 00
(002.146746)  vcan0  0000017C   [8]  1C 6C 00 00 00 00 00 00
(002.152181)  vcan0  0000017C   [8]  20 0D 00 00 00 00 00 00
(002.152398)  vcan0  0000014A   [8]  00 00 00 4E 13 1C 14 10
(002.152608)  vcan0  00000309   [8]  09 A5 00 00 00 00 00 00
(002.152817)  vcan0  00000130   [8]  00 00 00 00 00 00 00 00
(002.153023)  vcan0  00000002   [8]  00 00 00 00 00 00 00 00
(002.158222)  vcan0  00000130   [8]  00 00 00 00 00 00 00 00
(002.158461)  vcan0  0000017C   [8]  1A C1 00 00 00 00 00 00
(002.158674)  vcan0  00000309   [8]  09 AA 00 00 00 00 00 00
(002.158886)  vcan0  0000014A   [8]  00 00 00 4F 2B AD B6 6C
(002.164091)  vcan0  00000130   [8]  00 00 00 00 00 00 00 00
(002.164322)  vcan0  00000309   [8]  09 A6 00 00 00 00 00 00
(002.164545)  vcan0  0000017C   [8]  1E 9D 00 00 00 00 00 00
(002.164758)  vcan0  0000014A   [8]  00 00 00 50 1A 4F 3C 1C
(002.169937)  vcan0  00000130   [8]  00 00 00 00 00 00 00 00
(002.170167)  vcan0  0000017C   [8]  19 7D 00 00 00 00 00 00
(002.170380)  vcan0  00000309   [8]  09 AB 00 00 00 00 00 00
(002.170592)  vcan0  0000014A   [8]  00 00 00 51 4C C2 F0 26
(002.175990)  vcan0  0000017C   [8]  1D 9E 00 00 00 00 00 00
(002.176211)  vcan0  0000037B   [8]  00 00 00 00 00 00 00 00
(002.176424)  vcan0  000001A3   [8]  00 00 00 00 00 00 00 00
(002.176641)  vcan0  00000326   [8]  00 00 00 00 00 00 00 00
(002.176856)  vcan0  00000374   [8]  00 00 00 00 00 00 00 00
(002.177062)  vcan0  0000018F   [8]  00 00 00 00 00 00 00 00
(002.177279)  vcan0  000001A4   [8]  00 67 00 00 00 00 00 00
(002.177485)  vcan0  00000130   [8]  00 00 00 00 00 00 00 00
(002.177695)  vcan0  0000014A   [8]  00 00 00 52 4E 03 15 EE
(002.177903)  vcan0  00000309   [8]  09 A7 00 00 00 00 00 00
(002.182036)  vcan0  0000017C   [8]  18 B5 00 00 00 00 00 00
(002.182252)  vcan0  0000014A   [8]  00 00 00 53 8B 6D B5 38
(002.182462)  vcan0  00000309   [8]  09 AC 00 00 00 00 00 00
(002.182669)  vcan0  00000130   [8]  00 00 00 00 00 00 00 00
(002.188087)  vcan0  00000309   [8]  09 A8 00 00 00 00 00 00
(002.188303)  vcan0  0000014A   [8]  00 00 00 54 A5 B2 27 40
(002.188511)  vcan0  00000130   [8]  00 00 00 00 00 00 00 00
(002.188733)  vcan0  0000017C   [8]  1D 1A 00 00 00 00 00 00
(002.194304)  vcan0  00000309   [8]  09 AC 00 00 00 00 00 00
(002.194526)  vcan0  0000014A   [8]  00 00 00 55 F2 98 DC E0
(002.194749)  vcan0  0000017C   [8]  18 6C 00 00 00 00 00 00
(002.194956)  vcan0  00000130   [8]  00 00 00 00 00 00 00 00
(002.200262)  vcan0  0000014A   [8]  00 00 00 57 0A 7F 83 12
(002.200487)  vcan0  0000017C   [8]  1D 12 00 00 00 00 00 00
(002.200695)  vcan0  00000130   [8]  00 00 00 00 00 00 00 00
(002.200904)  vcan0  00000309   [8]  09 A8 00 00 00 00 00 00
(002.206048)  vcan0  0000014A   [8]  00 00 00 58 53 56 32 32
(002.206268)  vcan0  0000017C   [8]  18 9C 00 00 00 00 00 00
(002.206475)  vcan0  00000130   [8]  00 00 00 00 00 00 00 00
(002.206685)  vcan0  00000309   [8]  09 AC 00 00 00 00 00 00
(002.212070)  vcan0  0000017C   [8]  1D 7D 00 00 00 00 00 00
(002.212287)  vcan0  0000014A   [8]  00 00 00 59 68 27 1C E4
(002.212497)  vcan0  00000309   [8]  09 A7 00 00 00 00 00 00
(002.212703)  vcan0  00000130   [8]  00 00 00 00 00 00 00 00
(002.218118)  vcan0  0000014A   [8]  00 00 00 5A A4 CC 43 FE
(002.218332)  vcan0  00000309   [8]  09 AB 00 00 00 00 00 00
(002.218549)  vcan0  0000017C   [8]  19 39 00 00 00 00 00 00
(002.218755)  vcan0  00000130   [8]  00 00 00 00 00 00 00 00
(002.224151)  vcan0  00000309   [8]  09 A6 00 00 00 00 00 00
(002.224369)  vcan0  0000014A   [8]  00 00 00 5B AE 00 5F 22
(002.224592)  vcan0  0000017C   [8]  1E 4C 00 00 00 00 00 00
(002.224799)  vcan0  00000130   [8]  00 00 00 00 00 00 00 00
(002.230146)  vcan0  00000309   [8]  09 AA 00 00 00 00 00 00
(002.230372)  vcan0  0000017C   [8]  1A 31 00 00 00 00 00 00
(002.230587)  vcan0  0000014A   [8]  00 00 00 5C DB C7 E8 52
(002.230796)  vcan0  00000130   [8]  00 00 00 00 00 00 00 00
(002.236002)  vcan0  0000014A   [8]  00 00 00 5D DB 71 54 3A
(002.236227)  vcan0  0000017C   [8]  1F 6D 00 00 00 00 00 00
(002.236440)  vcan0  00000309   [8]  09 A5 00 00 00 00 00 00
(002.236647)  vcan0  00000130   [8]  00 00 00 00 00 00 00 00
(002.242089)  vcan0  0000014A   [8]  00 00 00 5E F9 16 73 04
(002.242323)  vcan0  0000017C   [8]  1B 6F 00 00 00 00 00 00
(002.242530)  vcan0  00000130   [8]  00 00 00 00 00 00 00 00
(002.242741)  vcan0  00000309   [8]  09 A9 00 00 00 00 00 00
(002.248232)  vcan0  00000130   [8]  00 00 00 00 00 00 00 00
(002.248489)  vcan0  0000017C   [8]  20 C8 00 00 00 00 00 00
(002.248716)  vcan0  0000014A   [8]  00 00 00 5F EB 93 07 24
(002.248939)  vcan0  00000309   [8]  09 A4 00 00 00 00 00 00
(002.254295)  vcan0  00000309   [8]  09 A8 00 00 00 00 00 00
(002.254517)  vcan0  0000014A   [8]  00 00 00 60 F9 A0 FE 8E
(002.254742)  vcan0  0000017C   [8]  1C DD 00 00 00 00 00 00
(002.254950)  vcan0  00000130   [8]  00 00 00 00 00 00 00 00
(002.260382)  vcan0  00000130   [8]  00 00 00 00 00 00 00 00
(002.260607)  vcan0  00000309   [8]  09 A2 00 00 00 00 00 00
(002.260830)  vcan0  0000017C   [8]  22 45 00 00 00 00 00 00
(002.261041)  vcan0  0000014A   [8]  00 00 00 61 D8 E8 7B 16
(002.266147)  vcan0  00000309   [8]  09 A6 00 00 00 00 00 00
(002.266362)  vcan0  0000014A   [8]  00 00 00 62 D3 C2 CF 70
(002.266581)  vcan0  0000017C   [8]  1E 5F 00 00 00 00 00 00
(002.266788)  vcan0  00000130   [8]  00 00 00 00 00 00 00 00
(002.272022)  vcan0  00000309   [8]  09 A1 00 00 00 00 00 00
(002.272242)  vcan0  0000017C   [8]  23 CA 00 00 00 00 00 00
(002.272449)  vcan0  00000130   [8]  00 00 00 00 00 00 00 00
(002.272659)  vcan0  0000014A   [8]  00 00 00 63 A4 E5 C7 BE
(002.278200)  vcan0  00000130   [8]  00 00 00 00 00 00 00 00
(002.278440)  vcan0  00000309   [8]  09 A5 00 00 00 00 00 00
(002.278693)  vcan0  0000017C   [8]  1F DE 00 00 00 00 00 00
(002.278918)  vcan0  0000014A   [8]  00 00 00 64 90 7E 3A EE
(002.284256)  vcan0  00000130   [8]  00 00 00 00 00 00 00 00
(002.284484)  vcan0  00000309   [8]  09 A0 00 00 00 00 00 00
(002.284696)  vcan0  0000014A   [8]  00 00 00 65 52 EC 9E A2
(002.284916)  vcan0  0000017C   [8]  25 3F 00 00 00 00 00 00
(002.290187)  vcan0  0000017C   [8]  21 42 00 00 00 00 00 00
(002.290400)  vcan0  00000130   [8]  00 00 00 00 00 00 00 00
(002.290616)  vcan0  0000014A   [8]  00 00 00 66 2E 13 33 56
(002.290827)  vcan0  00000309   [8]  09 A4 00 00 00 00 00 00
(002.296127)  vcan0  00000309   [8]  09 9E 00 00 00 00 00 00
(002.296339)  vcan0  00000130   [8]  00 00 00 00 00 00 00 00
(002.296562)  vcan0  0000017C   [8]  26 8E 00 00 00 00 00 00
(002.296776)  vcan0  0000014A   [8]  00 00 00 66 DF 53 20 CC
(002.302070)  vcan0  00000130   [8]  00 00 00 00 00 00 00 00
(002.302298)  vcan0  0000014A   [8]  00 00 00 67 A8 E4 BA 94
(002.302520)  vcan0  0000017C   [8]  22 76 00 00 00 00 00 00
(002.302730)  vcan0  00000309   [8]  09 A2 00 00 00 00 00 00
(002.308133)  vcan0  00000309   [8]  09 9D 00 00 00 00 00 00
(002.308359)  vcan0  0000017C   [8]  27 A5 00 00 00 00 00 00
(002.308567)  vcan0  00000130   [8]  00 00 00 00 00 00 00 00
(002.308777)  vcan0  0000014A   [8]  00 00 00 68 4C B1 04 B8
(002.314083)  vcan0  00000130   [8]  00 00 00 00 00 00 00 00
(002.314310)  vcan0  0000014A   [8]  00 00 00 69 04 87 00 F0
(002.314534)  vcan0  0000017C   [8]  23 6B 00 00 00 00 00 00
(002.314747)  vcan0  00000309   [8]  09 A1 00 00 00 00 00 00
(002.320237)  vcan0  0000017C   [8]  28 76 00 00 00 00 00 00
(002.320457)  vcan0  0000014A   [8]  00 00 00 69 9F BB 30 70
(002.320666)  vcan0  00000130   [8]  00 00 00 00 00 00 00 00
(002.320881)  vcan0  00000309   [8]  09 9C 00 00 00 00 00 00
(002.326388)  vcan0  00000130   [8]  00 00 00 00 00 00 00 00
(002.326657)  vcan0  0000017C   [8]  24 16 00 00 00 00 00 00
(002.326903)  vcan0  0000014A   [8]  00 00 00 6A 4A A9 29 80
(002.327160)  vcan0  00000309   [8]  09 A1 00 00 00 00 00 00
(002.332478)  vcan0  00000309   [8]  09 9C 00 00 00 00 00 00
(002.332703)  vcan0  00000130   [8]  00 00 00 00 00 00 00 00
(002.332955)  vcan0  0000017C   [8]  28 F9 00 00 00 00 00 00
(002.333183)  vcan0  0000014A   [8]  00 00 00 6A D5 D4 C2 FE
(002.338424)  vcan0  00000130   [8]  00 00 00 00 00 00 00 00
(002.338665)  vcan0  0000014A   [8]  00 00 00 6B 70 E8 EE DA
(002.338890)  vcan0  00000309   [8]  09 A0 00 00 00 00 00 00
(002.339126)  vcan0  0000017C   [8]  24 71 00 00 00 00 00 00
(002.344478)  vcan0  0000017C   [8]  29 2A 00 00 00 00 00 00
(002.344705)  vcan0  00000309   [8]  09 9C 00 00 00 00 00 00
(002.344918)  vcan0  00000130   [8]  00 00 00 00 00 00 00 00
(002.345139)  vcan0  0000014A   [8]  00 00 00 6B F3 4B 3E 38
(002.350126)  vcan0  00000309   [8]  09 A0 00 00 00 00 00 00
(002.350353)  vcan0  0000017C   [8]  24 7A 00 00 00 00 00 00
(002.350567)  vcan0  0000014A   [8]  00 00 00 6C 80 D6 2A B4
(002.350774)  vcan0  00000130   [8]  00 00 00 00 00 00 00 00
(002.356175)  vcan0  00000130   [8]  00 00 00 00 00 00 00 00
(002.356432)  vcan0  0000014A   [8]  00 00 00 6C F8 58 1D 06
(002.356676)  vcan0  0000017C   [8]  29 0A 00 00 00 00 00 00
(002.356901)  vcan0  00000309   [8]  09 9C 00 00 00 00 00 00
(002.362167)  vcan0  0000014A   [8]  00 00 00 6D 77 04 79 72
(002.362398)  vcan0  00000309   [8]  09 A1 00 00 00 00 00 00
(002.362637)  vcan0  0000017C   [8]  24 36 00 00 00 00 00 00
(002.362852)  vcan0  00000130   [8]  00 00 00 00 00 00 00 00
(002.368450)  vcan0  00000309   [8]  09 9C 00 00 00 00 00 00
(002.368671)  vcan0  00000130   [8]  00 00 00 00 00 00 00 00
(002.368911)  vcan0  0000017C   [8]  28 A3 00 00 00 00 00 00
(002.369136)  vcan0  0000014A   [8]  00 00 00 6D E6 88 21 72
(002.374345)  vcan0  00000309   [8]  09 A1 00 00 00 00 00 00
(002.374564)  vcan0  00000130   [8]  00 00 00 00 00 00 00 00
(002.374802)  vcan0  0000017C   [8]  23 B0 00 00 00 00 00 00
(002.375027)  vcan0  0000014A   [8]  01 FF FF F6 B0 F3 F1 04
(002.380194)  vcan0  00000130   [8]  00 00 00 00 00 00 00 00
(002.380435)  vcan0  0000017C   [8]  28 05 00 00 00 00 00 00
(002.380647)  vcan0  00000309   [8]  09 9D 00 00 00 00 00 00
(002.380859)  vcan0  0000014A   [8]  00 00 00 01 59 C1 5C F8
(002.386288)  vcan0  00000130   [8]  00 00 00 00 00 00 00 00
(002.386520)  vcan0  0000014A   [8]  00 00 00 02 18 B6 7C 30
(002.386747)  vcan0  0000017C   [8]  23 78 00 00 00 00 00 00
(002.386958)  vcan0  00000309   [8]  09 A1 00 00 00 00 00 00
(002.392202)  vcan0  0000017C   [8]  27 93 00 00 00 00 00 00
(002.392414)  vcan0  00000130   [8]  00 00 00 00 00 00 00 00
(002.392629)  vcan0  0000014A   [8]  00 00 00 03 0E A6 CD 30
(002.392841)  vcan0  00000309   [8]  09 9D 00 00 00 00 00 00
(002.398060)  vcan0  00000130   [8]  00 00 00 00 00 00 00 00
(002.398271)  vcan0  00000002   [8]  00 00 00 00 00 00 00 00
(002.398494)  vcan0  0000014A   [8]  00 00 00 05 2F F5 12 0E
(002.398707)  vcan0  00000309   [8]  09 A1 00 00 00 00 00 00
(002.398926)  vcan0  0000017C   [8]  24 10 00 00 00 00 00 00
(002.404120)  vcan0  0000014A   [8]  00 00 00 07 2C 1A 76 26
(002.404330)  vcan0  00000130   [8]  00 00 00 00 00 00 00 00
(002.404552)  vcan0  0000017C   [8]  27 D9 00 00 00 00 00 00
(002.404762)  vcan0  00000309   [8]  09 9D 00 00 00 00 00 00
(002.410022)  vcan0  0000017C   [8]  24 20 00 00 00 00 00 00
(002.410237)  vcan0  00000309   [8]  09 A1 00 00 00 00 00 00
(002.410443)  vcan0  00000130   [8]  00 00 00 00 00 00 00 00
(002.410654)  vcan0  0000014A   [8]  00 00 00 09 FD C6 AA BA
(002.416073)  vcan0  00000309   [8]  09 9D 00 00 00 00 00 00
(002.416329)  vcan0  0000017C   [8]  28 1C 00 00 00 00 00 00
(002.416539)  vcan0  00000130   [8]  00 00 00 00 00 00 00 00
(002.416753)  vcan0  0000014A   [8]  00 00 00 0C 60 42 29 72
(002.422149)  vcan0  0000017C   [8]  23 BB 00 00 00 00 00 00
(002.422371)  vcan0  00000309   [8]  09 A1 00 00 00 00 00 00
(002.422579)  vcan0  00000130   [8]  00 00 00 00 00 00 00 00
(002.422792)  vcan0  0000014A   [8]  00 00 00 0F 7C D3 F8 84
(002.428252)  vcan0  00000309   [8]  09 9D 00 00 00 00 00 00
(002.428471)  vcan0  0000014A   [8]  00 00 00 12 19 3F F1 22
(002.428679)  vcan0  00000130   [8]  00 00 00 00 00 00 00 00
(002.428900)  vcan0  0000017C   [8]  27 BC 00 00 00 00 00 00
(002.434188)  vcan0  0000017C   [8]  22 F0 00 00 00 00 00 00
(002.434409)  vcan0  00000309   [8]  09 A2 00 00 00 00 00 00
(002.434621)  vcan0  0000014A   [8]  00 00 00 15 85 96 BE 96
(002.434829)  vcan0  00000130   [8]  00 00 00 00 00 00 00 00
(002.440038)  vcan0  0000014A   [8]  00 00 00 18 66 90 53 4E
(002.440265)  vcan0  0000017C   [8]  26 EA 00 00 00 00 00 00
(002.440477)  vcan0  00000309   [8]  09 9E 00 00 00 00 00 00
(002.440683)  vcan0  00000130   [8]  00 00 00 00 00 00 00 00
(002.446039)  vcan0  0000017C   [8]  21 DF 00 00 00 00 00 00
(002.446257)  vcan0  0000014A   [8]  00 00 00 1B DA 1C 4F 90
(002.446469)  vcan0  00000309   [8]  09 A3 00 00 00 00 00 00
(002.446677)  vcan0  00000130   [8]  00 00 00 00 00 00 00 00
(002.452150)  vcan0  0000017C   [8]  25 D3 00 00 00 00 00 00
(002.452362)  vcan0  00000130   [8]  00 00 00 00 00 00 00 00
(002.452577)  vcan0  0000014A   [8]  00 00 00 1E C0 E8 02 02
(002.452788)  vcan0  00000309   [8]  09 9F 00 00 00 00 00 00
(002.458094)  vcan0  0000014A   [8]  00 00 00 22 2A 7B 96 5A
(002.458311)  vcan0  00000309   [8]  09 A4 00 00 00 00 00 00
(002.458517)  vcan0  00000130   [8]  00 00 00 00 00 00 00 00
(002.458739)  vcan0  0000017C   [8]  20 A7 00 00 00 00 00 00
(002.464303)  vcan0  0000017C   [8]  24 9C 00 00 00 00 00 00
(002.464524)  vcan0  0000014A   [8]  00 00 00 25 0C 16 FC 4C
(002.464736)  vcan0  00000309   [8]  09 A0 00 00 00 00 00 00
(002.464944)  vcan0  00000130   [8]  00 00 00 00 00 00 00 00
(002.470034)  vcan0  0000017C   [8]  1F 66 00 00 00 00 00 00
(002.470248)  vcan0  0000014A   [8]  00 00 00 28 57 8D 8A DA
(002.470455)  vcan0  00000130   [8]  00 00 00 00 00 00 00 00
(002.470665)  vcan0  00000309   [8]  09 A5 00 00 00 00 00 00
(002.476061)  vcan0  00000130   [8]  00 00 00 00 00 00 00 00
(002.476296)  vcan0  0000017C   [8]  23 65 00 00 00 00 00 00
(002.476506)  vcan0  0000014A   [8]  00 00 00 2B 28 27 96 F4
(002.476716)  vcan0  00000309   [8]  09 A1 00 00 00 00 00 00
(002.482246)  vcan0  0000017C   [8]  1E 37 00 00 00 00 00 00
(002.482466)  vcan0  0000014A   [8]  00 00 00 2E 55 53 6E 4E
(002.482674)  vcan0  00000130   [8]  00 00 00 00 00 00 00 00
(002.482884)  vcan0  00000309   [8]  09 A7 00 00 00 00 00 00
(002.488766)  vcan0  00000130   [8]  00 00 00 00 00 00 00 00
(002.489004)  vcan0  0000017C   [8]  22 49 00 00 00 00 00 00
(002.489217)  vcan0  0000014A   [8]  00 00 00 31 02 AE B5 6A
(002.489428)  vcan0  00000309   [8]  09 A3 00 00 00 00 00 00
(002.494150)  vcan0  0000014A   [8]  00 00 00 34 06 DB B5 68
(002.494364)  vcan0  00000309   [8]  09 A8 00 00 00 00 00 00
(002.494583)  vcan0  0000017C   [8]  1D 31 00 00 00 00 00 00
(002.494789)  vcan0  00000130   [8]  00 00 00 00 00 00 00 00
(002.500434)  vcan0  0000017C   [8]  21 5F 00 00 00 00 00 00
(002.500651)  vcan0  0000014A   [8]  00 00 00 36 96 6E 5D 68
(002.500861)  vcan0  00000130   [8]  00 00 00 00 00 00 00 00
(002.501072)  vcan0  00000309   [8]  09 A3 00 00 00 00 00 00
(002.506239)  vcan0  0000014A   [8]  00 00 00 39 6F 60 57 9E
(002.506472)  vcan0  00000309   [8]  09 A8 00 00 00 00 00 00
(002.506688)  vcan0  00000130   [8]  00 00 00 00 00 00 00 00
(002.506933)  vcan0  0000017C   [8]  1C 65 00 00 00 00 00 00
(002.512402)  vcan0  0000017C   [8]  20 B3 00 00 00 00 00 00
(002.512622)  vcan0  00000130   [8]  00 00 00 00 00 00 00 00
(002.512849)  vcan0  0000014A   [8]  00 00 00 3B D6 A1 53 36
(002.513073)  vcan0  00000309   [8]  09 A4 00 00 00 00 00 00
(002.518305)  vcan0  00000130   [8]  00 00 00 00 00 00 00 00
(002.518548)  vcan0  00000309   [8]  09 A9 00 00 00 00 00 00
(002.518776)  vcan0  0000014A   [8]  00 00 00 3E 81 57 5B 4E
(002.519025)  vcan0  0000017C   [8]  1B DC 00 00 00 00 00 00
(002.524551)  vcan0  0000014A   [8]  00 00 00 40 C1 7D 34 2E
(002.524772)  vcan0  00000130   [8]  00 00 00 00 00 00 00 00
(002.525001)  vcan0  00000309   [8]  09 A4 00 00 00 00 00 00
(002.525240)  vcan0  0000017C   [8]  20 4F 00 00 00 00 00 00
(002.530120)  vcan0  00000309   [8]  09 A9 00 00 00 00 00 00
(002.530346)  vcan0  0000017C   [8]  1B 9B 00 00 00 00 00 00
(002.530559)  vcan0  0000014A   [8]  00 00 00 43 40 C2 A9 6E
(002.530766)  vcan0  00000130   [8]  00 00 00 00 00 00 00 00
(002.536083)  vcan0  00000309   [8]  09 A5 00 00 00 00 00 00
(002.536304)  vcan0  0000014A   [8]  00 00 00 45 57 20 D9 F0
(002.536513)  vcan0  00000130   [8]  00 00 00 00 00 00 00 00
(002.536734)  vcan0  0000017C   [8]  20 34 00 00 00 00 00 00
(002.542149)  vcan0  0000014A   [8]  00 00 00 47 A6 F0 EA 52
(002.542374)  vcan0  0000017C   [8]  1B A2 00 00 00 00 00 00
(002.542581)  vcan0  00000130   [8]  00 00 00 00 00 00 00 00
(002.542791)  vcan0  00000309   [8]  09 A9 00 00 00 00 00 00
(002.548722)  vcan0  00000309   [8]  09 A4 00 00 00 00 00 00
(002.548943)  vcan0  00000130   [8]  00 00 00 00 00 00 00 00
(002.549170)  vcan0  0000014A   [8]  00 00 00 49 9A 82 6C 1A
(002.549466)  vcan0  0000017C   [8]  20 5E 00 00 00 00 00 00
(002.554434)  vcan0  0000017C   [8]  1B EB 00 00 00 00 00 00
(002.554648)  vcan0  00000130   [8]  00 00 00 00 00 00 00 00
(002.554864)  vcan0  00000309   [8]  09 A9 00 00 00 00 00 00
(002.555077)  vcan0  0000014A   [8]  00 00 00 4B BD 64 A7 08
(002.560203)  vcan0  0000014A   [8]  00 00 00 4D 8A DF 80 CE
(002.560416)  vcan0  00000130   [8]  00 00 00 00 00 00 00 00
(002.560631)  vcan0  00000309   [8]  09 A4 00 00 00 00 00 00
(002.560851)  vcan0  0000017C   [8]  20 C6 00 00 00 00 00 00
(002.566125)  vcan0  0000014A   [8]  00 00 00 4F 86 B1 13 3A
(002.566349)  vcan0  0000017C   [8]  1C 6D 00 00 00 00 00 00
(002.566560)  vcan0  00000309   [8]  09 A8 00 00 00 00 00 00
(002.566767)  vcan0  00000130   [8]  00 00 00 00 00 00 00 00
(002.572458)  vcan0  0000014A   [8]  00 00 00 51 2E A5 EA 5C
(002.572678)  vcan0  00000130   [8]  00 00 00 00 00 00 00 00
(002.572920)  vcan0  0000017C   [8]  21 60 00 00 00 00 00 00
(002.573145)  vcan0  00000309   [8]  09 A3 00 00 00 00 00 00
(002.578456)  vcan0  00000309   [8]  09 A8 00 00 00 00 00 00
(002.578687)  vcan0  0000014A   [8]  00 00 00 53 02 98 EB 6C
(002.578902)  vcan0  00000130   [8]  00 00 00 00 00 00 00 00
(002.579143)  vcan0  0000017C   [8]  1D 1A 00 00 00 00 00 00
(002.584579)  vcan0  0000017C   [8]  22 21 00 00 00 00 00 00
(002.584812)  vcan0  0000014A   [8]  00 00 00 54 85 2B FB E6
(002.585036)  vcan0  00000309   [8]  09 A3 00 00 00 00 00 00
(002.585251)  vcan0  00000130   [8]  00 00 00 00 00 00 00 00
(002.590123)  vcan0  0000014A   [8]  00 00 00 56 34 88 5B 5A
(002.590334)  vcan0  00000130   [8]  00 00 00 00 00 00 00 00
