(000.000000)  vcan0  1FFFFFFF   [8]  00 00 00 00 00 00 00 00
(000.004310)  vcan0  000001A4   [8]  00 67 00 00 00 00 00 00
(000.004535)  vcan0  00000326   [8]  00 00 00 00 00 00 00 00
(000.004751)  vcan0  00000374   [8]  00 00 00 00 00 00 00 00
(000.004972)  vcan0  0000017C   [8]  4B 00 00 00 00 00 00 00
(000.005183)  vcan0  0000018F   [8]  00 00 00 00 00 00 00 00
(000.005394)  vcan0  00000309   [8]  00 73 00 00 00 00 00 00
(000.005606)  vcan0  000001A3   [8]  00 00 00 00 00 00 00 00
(000.005812)  vcan0  00000130   [8]  00 00 00 00 00 00 00 00
(000.006023)  vcan0  0000014A   [8]  00 00 00 51 7C E3 C0 F0
(000.006237)  vcan0  0000037B   [8]  00 00 00 00 00 00 00 00
(000.006443)  vcan0  00000002   [8]  00 00 00 00 00 00 00 00
(000.008938)  vcan0  0000014A   [8]  00 00 00 51 64 21 3A FE
(000.009163)  vcan0  0000017C   [8]  4B 00 00 00 00 00 00 00
(000.009374)  vcan0  00000309   [8]  00 8F 00 00 00 00 00 00
(000.009580)  vcan0  00000130   [8]  00 00 00 00 00 00 00 00
(000.242525)  vcan0  0000014A   [8]  00 00 00 51 57 BF D2 C4
(000.242760)  vcan0  00000309   [8]  00 AC 00 00 00 00 00 00
(000.242973)  vcan0  00000130   [8]  00 00 00 00 00 00 00 00
(000.243219)  vcan0  0000017C   [8]  4B 00 00 00 00 00 00 00
(000.245274)  vcan0  0000014A   [8]  00 00 00 51 4B 5E 6A 8A
(000.245506)  vcan0  00000309   [8]  00 C8 00 00 00 00 00 00
(000.245746)  vcan0  0000017C   [8]  4B 00 00 00 00 00 00 00
(000.245961)  vcan0  00000130   [8]  00 00 00 00 00 00 00 00
(000.250918)  vcan0  00000130   [8]  00 00 00 00 00 00 00 00
(000.251146)  vcan0  00000309   [8]  00 E4 00 00 00 00 00 00
(000.251367)  vcan0  0000017C   [8]  4B 00 00 00 00 00 00 00
(000.251578)  vcan0  0000014A   [8]  00 00 00 51 3E FD 02 50
(000.257091)  vcan0  0000017C   [8]  4B 00 00 00 00 00 00 00
(000.257310)  vcan0  0000014A   [8]  00 00 00 51 32 9B 9A 16
(000.257517)  vcan0  00000130   [8]  00 00 00 00 00 00 00 00
(000.257727)  vcan0  00000309   [8]  01 00 00 00 00 00 00 00
(000.263309)  vcan0  00000130   [8]  00 00 00 00 00 00 00 00
(000.263569)  vcan0  0000017C   [8]  4B 00 00 00 00 00 00 00
(000.263784)  vcan0  00000309   [8]  01 1D 00 00 00 00 00 00
(000.263996)  vcan0  0000014A   [8]  00 00 00 51 26 3A 31 DC
(000.268888)  vcan0  00000309   [8]  01 39 00 00 00 00 00 00
(000.269106)  vcan0  0000014A   [8]  00 00 00 51 19 D8 C9 A2
(000.269329)  vcan0  0000017C   [8]  4B 00 00 00 00 00 00 00
(000.269535)  vcan0  00000130   [8]  00 00 00 00 00 00 00 00
(000.274817)  vcan0  0000014A   [8]  00 00 00 51 0D 77 61 68
(000.275034)  vcan0  00000309   [8]  01 55 00 00 00 00 00 00
(000.275241)  vcan0  00000130   [8]  00 00 00 00 00 00 00 00
(000.275462)  vcan0  0000017C   [8]  4B 00 00 00 00 00 00 00
(000.280527)  vcan0  0000017C   [8]  4B 00 00 00 00 00 00 00
(000.280737)  vcan0  00000130   [8]  00 00 00 00 00 00 00 00
(000.280948)  vcan0  0000014A   [8]  00 00 00 51 01 15 F9 2E
(000.281157)  vcan0  00000309   [8]  01 71 00 00 00 00 00 00
(000.286456)  vcan0  00000309   [8]  01 8D 00 00 00 00 00 00
(000.286681)  vcan0  0000017C   [8]  4B 00 00 00 00 00 00 00
(000.286889)  vcan0  00000130   [8]  00 00 00 00 00 00 00 00
(000.287101)  vcan0  0000014A   [8]  00 00 00 51 01 15 F9 2E
(000.292640)  vcan0  00000130   [8]  00 00 00 00 00 00 00 00
(000.292861)  vcan0  0000014A   [8]  00 00 00 51 01 15 F9 2E
(000.293073)  vcan0  00000309   [8]  01 AA 00 00 00 00 00 00
(000.293291)  vcan0  0000017C   [8]  4B 00 00 00 00 00 00 00
(000.298388)  vcan0  00000130   [8]  00 00 00 00 00 00 00 00
(000.298610)  vcan0  00000309   [8]  01 C6 00 00 00 00 00 00
(000.298831)  vcan0  0000017C   [8]  4B 00 00 00 00 00 00 00
(000.299041)  vcan0  0000014A   [8]  00 00 00 51 01 15 F9 2E
(000.304703)  vcan0  00000309   [8]  01 E2 00 00 00 00 00 00
(000.304926)  vcan0  0000017C   [8]  4B 00 00 00 00 00 00 00
(000.305137)  vcan0  0000014A   [8]  00 00 00 51 01 15 F9 2E
(000.305344)  vcan0  00000130   [8]  00 00 00 00 00 00 00 00
(000.310487)  vcan0  0000017C   [8]  4B 00 00 00 00 00 00 00
(000.310696)  vcan0  00000130   [8]  00 00 00 00 00 00 00 00
(000.310908)  vcan0  00000309   [8]  01 FE 00 00 00 00 00 00
(000.311117)  vcan0  0000014A   [8]  00 00 00 51 01 15 F9 2E
(000.317021)  vcan0  00000309   [8]  02 1B 00 00 00 00 00 00
(000.317247)  vcan0  0000017C   [8]  4B 00 00 00 00 00 00 00
(000.317458)  vcan0  0000014A   [8]  00 00 00 51 01 15 F9 2E
(000.317664)  vcan0  00000130   [8]  00 00 00 00 00 00 00 00
(000.322871)  vcan0  0000017C   [8]  4B 00 00 00 00 00 00 00
(000.323081)  vcan0  00000130   [8]  00 00 00 00 00 00 00 00
(000.323293)  vcan0  0000014A   [8]  00 00 00 51 01 15 F9 2E
(000.323503)  vcan0  00000309   [8]  02 37 00 00 00 00 00 00
(000.328646)  vcan0  00000309   [8]  02 53 00 00 00 00 00 00
(000.328860)  vcan0  0000014A   [8]  00 00 00 51 01 15 F9 2E
(000.329066)  vcan0  00000130   [8]  00 00 00 00 00 00 00 00
(000.329285)  vcan0  0000017C   [8]  4B 00 00 00 00 00 00 00
(000.334688)  vcan0  0000014A   [8]  00 00 00 51 01 15 F9 2E
(000.334903)  vcan0  00000309   [8]  02 6F 00 00 00 00 00 00
(000.335123)  vcan0  0000017C   [8]  4B 00 00 00 00 00 00 00
(000.335329)  vcan0  00000130   [8]  00 00 00 00 00 00 00 00
(000.340746)  vcan0  00000130   [8]  00 00 00 00 00 00 00 00
(000.340967)  vcan0  0000014A   [8]  00 00 00 51 01 15 F9 2E
(000.341187)  vcan0  0000017C   [8]  4B 00 00 00 00 00 00 00
(000.341397)  vcan0  00000309   [8]  02 8B 00 00 00 00 00 00
(000.346705)  vcan0  0000014A   [8]  00 00 00 51 01 15 F9 2E
(000.346916)  vcan0  00000130   [8]  00 00 00 00 00 00 00 00
(000.347129)  vcan0  00000309   [8]  02 A8 00 00 00 00 00 00
(000.347349)  vcan0  0000017C   [8]  4B 00 00 00 00 00 00 00
(000.352801)  vcan0  00000309   [8]  02 C4 00 00 00 00 00 00
(000.353017)  vcan0  0000014A   [8]  00 00 00 51 01 15 F9 2E
(000.353224)  vcan0  00000130   [8]  00 00 00 00 00 00 00 00
(000.353446)  vcan0  0000017C   [8]  4B 00 00 00 00 00 00 00
(000.358519)  vcan0  00000309   [8]  02 E0 00 00 00 00 00 00
(000.358728)  vcan0  00000130   [8]  00 00 00 00 00 00 00 00
(000.358949)  vcan0  0000017C   [8]  4B 00 00 00 00 00 00 00
(000.359160)  vcan0  0000014A   [8]  00 00 00 51 01 15 F9 2E
(000.364776)  vcan0  0000014A   [8]  00 00 00 51 01 15 F9 2E
(000.365000)  vcan0  0000017C   [8]  4B 00 00 00 00 00 00 00
(000.365210)  vcan0  00000309   [8]  02 FC 00 00 00 00 00 00
(000.365421)  vcan0  00000130   [8]  00 00 00 00 00 00 00 00
(000.370751)  vcan0  0000014A   [8]  00 00 00 51 01 15 F9 2E
(000.370963)  vcan0  00000130   [8]  00 00 00 00 00 00 00 00
(000.371185)  vcan0  0000017C   [8]  4B 00 00 00 00 00 00 00
(000.371396)  vcan0  00000309   [8]  03 19 00 00 00 00 00 00
(000.376515)  vcan0  00000130   [8]  00 00 00 00 00 00 00 00
(000.376747)  vcan0  0000017C   [8]  4B 00 00 00 00 00 00 00
(000.376960)  vcan0  0000014A   [8]  00 00 00 85 6F E6 57 48
(000.377172)  vcan0  00000309   [8]  03 35 00 00 00 00 00 00
(000.382492)  vcan0  0000014A   [8]  00 00 00 62 39 96 3B 92
(000.382709)  vcan0  00000130   [8]  00 00 00 00 00 00 00 00
(000.382957)  vcan0  0000017C   [8]  4B 00 00 00 00 00 00 00
(000.383175)  vcan0  00000309   [8]  03 51 00 00 00 00 00 00
(000.388579)  vcan0  00000130   [8]  00 00 00 00 00 00 00 00
(000.388801)  vcan0  0000014A   [8]  00 00 00 62 3F 39 7D DE
(000.389012)  vcan0  00000309   [8]  03 6D 00 00 00 00 00 00
(000.389235)  vcan0  0000017C   [8]  4B 00 00 00 00 00 00 00
(000.394477)  vcan0  00000130   [8]  00 00 00 00 00 00 00 00
(000.394695)  vcan0  00000309   [8]  03 89 00 00 00 00 00 00
(000.394915)  vcan0  0000017C   [8]  4B 00 00 00 00 00 00 00
(000.395125)  vcan0  0000014A   [8]  00 00 00 62 44 DC 9A E8
(000.400543)  vcan0  0000014A   [8]  00 00 00 62 4A 7F DD 32
(000.400753)  vcan0  00000130   [8]  00 00 00 00 00 00 00 00
(000.400964)  vcan0  00000309   [8]  03 A6 00 00 00 00 00 00
(000.401182)  vcan0  0000017C   [8]  4B 00 00 00 00 00 00 00
(000.406617)  vcan0  0000017C   [8]  4B 00 00 00 00 00 00 00
(000.406835)  vcan0  00000309   [8]  03 C2 00 00 00 00 00 00
(000.407042)  vcan0  00000130   [8]  00 00 00 00 00 00 00 00
(000.407253)  vcan0  0000014A   [8]  00 00 00 62 50 22 FA 3C
(000.412805)  vcan0  0000014A   [8]  00 00 00 62 55 C6 3C 86
(000.413025)  vcan0  00000309   [8]  03 DE 00 00 00 00 00 00
(000.413232)  vcan0  00000130   [8]  00 00 00 00 00 00 00 00
(000.413454)  vcan0  0000017C   [8]  4B 00 00 00 00 00 00 00
(000.418881)  vcan0  0000017C   [8]  4B 00 00 00 00 00 00 00
(000.419101)  vcan0  0000014A   [8]  00 00 00 62 5B 69 59 90
(000.419309)  vcan0  00000130   [8]  00 00 00 00 00 00 00 00
(000.419521)  vcan0  00000309   [8]  03 FA 00 00 00 00 00 00
(000.425370)  vcan0  00000309   [8]  04 17 00 00 00 00 00 00
(000.425606)  vcan0  0000017C   [8]  4B 00 00 00 00 00 00 00
(000.425822)  vcan0  0000014A   [8]  00 00 00 62 61 0C 9B DC
(000.426031)  vcan0  00000130   [8]  00 00 00 00 00 00 00 00
(000.430969)  vcan0  0000017C   [8]  4B 00 00 00 00 00 00 00
(000.431186)  vcan0  00000309   [8]  04 33 00 00 00 00 00 00
(000.431394)  vcan0  00000130   [8]  00 00 00 00 00 00 00 00
(000.431607)  vcan0  0000014A   [8]  00 00 00 62 66 AF B8 E6
(000.436755)  vcan0  0000014A   [8]  00 00 00 62 66 AF B8 E6
(000.437009)  vcan0  0000017C   [8]  4B 00 00 00 00 00 00 00
(000.437229)  vcan0  00000130   [8]  00 00 00 00 00 00 00 00
(000.437454)  vcan0  00000309   [8]  04 4F 00 00 00 00 00 00
(000.442993)  vcan0  00000309   [8]  04 6B 00 00 00 00 00 00
(000.443207)  vcan0  00000130   [8]  00 00 00 00 00 00 00 00
(000.443420)  vcan0  0000014A   [8]  00 00 00 62 66 AF B8 E6
(000.443641)  vcan0  0000017C   [8]  4B 00 00 00 00 00 00 00
(000.448699)  vcan0  00000309   [8]  04 3D 00 00 00 00 00 00
(000.448926)  vcan0  0000017C   [8]  4B 00 00 00 00 00 00 00
(000.449141)  vcan0  0000014A   [8]  00 00 00 62 66 AF B8 E6
(000.449351)  vcan0  00000130   [8]  00 00 00 00 00 00 00 00
(000.454988)  vcan0  0000014A   [8]  00 00 00 62 66 AF B8 E6
(000.455212)  vcan0  0000017C   [8]  4B 00 00 00 00 00 00 00
(000.455424)  vcan0  00000309   [8]  03 B2 00 00 00 00 00 00
(000.455631)  vcan0  00000130   [8]  00 00 00 00 00 00 00 00
(000.461318)  vcan0  00000130   [8]  00 00 00 00 00 00 00 00
(000.461574)  vcan0  0000017C   [8]  4B 00 00 00 00 00 00 00
(000.461798)  vcan0  00000309   [8]  03 37 00 00 00 00 00 00
(000.462020)  vcan0  0000014A   [8]  00 00 00 62 66 AF B8 E6
(000.467105)  vcan0  0000014A   [8]  00 00 00 62 66 AF DE 26
(000.467327)  vcan0  00000130   [8]  00 00 00 00 00 00 00 00
(000.467568)  vcan0  0000017C   [8]  4B 00 00 00 00 00 00 00
(000.467791)  vcan0  00000309   [8]  02 C9 00 00 00 00 00 00
(000.473312)  vcan0  0000017C   [8]  4B 00 00 00 00 00 00 00
(000.473537)  vcan0  00000002   [8]  00 00 00 00 00 00 00 00
(000.473766)  vcan0  0000014A   [8]  00 00 00 62 66 AF DE 26
(000.473980)  vcan0  00000130   [8]  00 00 00 00 00 00 00 00
(000.474203)  vcan0  00000309   [8]  02 67 00 00 00 00 00 00
(000.478845)  vcan0  0000014A   [8]  00 00 00 62 66 AF DE 26
(000.479071)  vcan0  0000017C   [8]  4B 00 00 00 00 00 00 00
(000.479279)  vcan0  00000130   [8]  00 00 00 00 00 00 00 00
(000.479490)  vcan0  00000309   [8]  02 0F 00 00 00 00 00 00
(000.485000)  vcan0  00000309   [8]  01 C0 00 00 00 00 00 00
(000.485221)  vcan0  00000130   [8]  00 00 00 00 00 00 00 00
(000.485448)  vcan0  0000017C   [8]  4B 00 00 00 00 00 00 00
(000.485663)  vcan0  0000014A   [8]  00 00 00 62 66 AF DE 26
(000.490768)  vcan0  00000130   [8]  00 00 00 00 00 00 00 00
(000.491000)  vcan0  00000309   [8]  01 7A 00 00 00 00 00 00
(000.491214)  vcan0  0000014A   [8]  00 00 00 62 66 AF DE 26
(000.491438)  vcan0  0000017C   [8]  4B 00 00 00 00 00 00 00
(000.496841)  vcan0  0000014A   [8]  00 00 00 62 66 AF DE 26
(000.497059)  vcan0  00000130   [8]  00 00 00 00 00 00 00 00
(000.497282)  vcan0  00000309   [8]  01 3C 00 00 00 00 00 00
(000.497535)  vcan0  0000017C   [8]  4B 00 00 00 00 00 00 00
(000.502823)  vcan0  0000017C   [8]  4B 00 00 00 00 00 00 00
(000.503044)  vcan0  0000014A   [8]  00 00 00 62 66 AF DE 26
(000.503261)  vcan0  00000309   [8]  01 05 00 00 00 00 00 00
(000.503469)  vcan0  00000130   [8]  00 00 00 00 00 00 00 00
(000.508891)  vcan0  0000017C   [8]  4B 00 00 00 00 00 00 00
(000.509114)  vcan0  0000014A   [8]  00 00 00 62 66 AF DE 26
(000.509328)  vcan0  00000309   [8]  00 D4 00 00 00 00 00 00
(000.509536)  vcan0  00000130   [8]  00 00 00 00 00 00 00 00
(000.514765)  vcan0  0000017C   [8]  4B 00 00 00 00 00 00 00
(000.514981)  vcan0  00000309   [8]  00 A9 00 00 00 00 00 00
(000.515192)  vcan0  00000130   [8]  00 00 00 00 00 00 00 00
(000.515405)  vcan0  0000014A   [8]  00 00 00 62 66 AF DE 26
(000.520813)  vcan0  00000309   [8]  00 83 00 00 00 00 00 00
(000.521022)  vcan0  00000130   [8]  00 00 00 00 00 00 00 00
(000.521238)  vcan0  0000014A   [8]  00 00 00 62 66 AF DE 26
(000.521459)  vcan0  0000017C   [8]  4B 00 00 00 00 00 00 00
(000.526759)  vcan0  00000309   [8]  00 61 00 00 00 00 00 00
(000.526970)  vcan0  00000130   [8]  00 00 00 00 00 00 00 00
(000.527191)  vcan0  0000017C   [8]  4B 00 00 00 00 00 00 00
(000.527402)  vcan0  0000014A   [8]  00 00 00 62 66 AF DE 26
(000.532744)  vcan0  0000014A   [8]  00 00 00 62 66 AF DE 26
(000.532955)  vcan0  00000130   [8]  00 00 00 00 00 00 00 00
(000.533168)  vcan0  00000309   [8]  00 44 00 00 00 00 00 00
(000.533396)  vcan0  0000017C   [8]  4B 00 00 00 00 00 00 00
(000.538674)  vcan0  00000130   [8]  00 00 00 00 00 00 00 00
(000.538894)  vcan0  00000309   [8]  00 2A 00 00 00 00 00 00
(000.539107)  vcan0  0000014A   [8]  00 00 00 62 66 AF DE 26
(000.539326)  vcan0  0000017C   [8]  4B 00 00 00 00 00 00 00
(000.544777)  vcan0  0000017C   [8]  4B 00 00 00 00 00 00 00
(000.544993)  vcan0  0000014A   [8]  00 00 00 62 66 AF DE 26
(000.545203)  vcan0  00000309   [8]  00 14 00 00 00 00 00 00
(000.545411)  vcan0  00000130   [8]  00 00 00 00 00 00 00 00
(000.550765)  vcan0  0000017C   [8]  4B 00 00 00 00 00 00 00
(000.550980)  vcan0  00000309   [8]  00 01 00 00 00 00 00 00
(000.551187)  vcan0  00000130   [8]  00 00 00 00 00 00 00 00
(000.551397)  vcan0  0000014A   [8]  00 00 00 62 66 AF DE 26
(000.556804)  vcan0  00000309   [8]  00 10 00 00 00 00 00 00
(000.557018)  vcan0  00000130   [8]  00 00 00 00 00 00 00 00
(000.557235)  vcan0  0000014A   [8]  00 00 00 62 66 AF DE 26
(000.557457)  vcan0  0000017C   [8]  4B 00 00 00 00 00 00 00
(000.562851)  vcan0  0000017C   [8]  4B 00 00 00 00 00 00 00
(000.563062)  vcan0  00000130   [8]  00 00 00 00 00 00 00 00
(000.563273)  vcan0  00000309   [8]  00 1E 00 00 00 00 00 00
(000.563483)  vcan0  0000014A   [8]  00 00 00 62 66 AF DE 26
(000.568939)  vcan0  00000309   [8]  00 2A 00 00 00 00 00 00
(000.569152)  vcan0  00000130   [8]  00 00 00 00 00 00 00 00
(000.569375)  vcan0  0000017C   [8]  4B 00 00 00 00 00 00 00
(000.569588)  vcan0  0000014A   [8]  00 00 00 62 66 AF DE 26
(000.575070)  vcan0  0000014A   [8]  00 00 00 62 66 AF DE 26
(000.575288)  vcan0  00000309   [8]  00 34 00 00 00 00 00 00
(000.575509)  vcan0  0000017C   [8]  4B 00 00 00 00 00 00 00
(000.575717)  vcan0  00000130   [8]  00 00 00 00 00 00 00 00
(000.580920)  vcan0  0000017C   [8]  4B 00 00 00 00 00 00 00
(000.581138)  vcan0  00000309   [8]  00 3D 00 00 00 00 00 00
(000.581348)  vcan0  00000130   [8]  00 00 00 00 00 00 00 00
(000.581563)  vcan0  0000014A   [8]  00 00 00 62 66 AF DE 26
(000.587281)  vcan0  00000309   [8]  00 44 00 00 00 00 00 00
(000.587500)  vcan0  0000014A   [8]  00 00 00 62 66 AF DE 26
(000.587708)  vcan0  00000130   [8]  00 00 00 00 00 00 00 00
(000.587929)  vcan0  0000017C   [8]  4B 00 00 00 00 00 00 00
(000.592958)  vcan0  00000309   [8]  00 49 00 00 00 00 00 00
(000.593178)  vcan0  0000014A   [8]  00 00 00 62 66 AF DE 26
(000.593386)  vcan0  00000130   [8]  00 00 00 00 00 00 00 00
(000.593611)  vcan0  0000017C   [8]  4B 00 00 00 00 00 00 00
(000.599038)  vcan0  00000130   [8]  00 00 00 00 00 00 00 00
(000.599278)  vcan0  0000014A   [8]  00 00 00 62 66 AF DE 26
(000.599492)  vcan0  00000309   [8]  00 4E 00 00 00 00 00 00
(000.599714)  vcan0  0000017C   [8]  4B 00 00 00 00 00 00 00
(000.604823)  vcan0  00000309   [8]  00 51 00 00 00 00 00 00
(000.605036)  vcan0  00000130   [8]  00 00 00 00 00 00 00 00
(000.605260)  vcan0  0000017C   [8]  4B 00 00 00 00 00 00 00
(000.605472)  vcan0  0000014A   [8]  00 00 00 62 66 AF DE 26
(000.610811)  vcan0  0000014A   [8]  00 00 00 62 66 AF DE 26
(000.611024)  vcan0  00000130   [8]  00 00 00 00 00 00 00 00
(000.611369)  vcan0  00000309   [8]  00 54 00 00 00 00 00 00
(000.611592)  vcan0  0000017C   [8]  4B 00 00 00 00 00 00 00
(000.617065)  vcan0  0000014A   [8]  00 00 00 62 66 B3 F1 3C
(000.617277)  vcan0  00000130   [8]  00 00 00 00 00 00 00 00
(000.617491)  vcan0  00000309   [8]  00 56 00 00 00 00 00 00
(000.617713)  vcan0  0000017C   [8]  4B 00 00 00 00 00 00 00
(000.622903)  vcan0  00000309   [8]  00 76 00 00 00 00 00 00
(000.623155)  vcan0  0000017C   [8]  4B 00 00 00 00 00 00 00
(000.623371)  vcan0  00000130   [8]  00 00 00 00 00 00 00 00
(000.623599)  vcan0  0000014A   [8]  00 00 00 62 85 D0 A4 5E
(000.629457)  vcan0  00000309   [8]  00 9B 00 00 00 00 00 00
(000.629680)  vcan0  00000130   [8]  00 00 00 00 00 00 00 00
(000.629938)  vcan0  0000017C   [8]  4B 00 00 00 00 00 00 00
(000.630187)  vcan0  0000014A   [8]  00 00 00 62 A0 24 81 D2
(000.634784)  vcan0  0000017C   [8]  4B 00 00 00 00 00 00 00
(000.635002)  vcan0  0000014A   [8]  00 00 00 62 BF D6 A7 B2
(000.635209)  vcan0  00000130   [8]  00 00 00 00 00 00 00 00
(000.635506)  vcan0  00000309   [8]  00 D9 00 00 00 00 00 00
(000.640967)  vcan0  0000014A   [8]  00 00 00 62 DA 7D C1 D0
(000.641196)  vcan0  0000017C   [8]  4B 00 00 00 00 00 00 00
(000.641408)  vcan0  00000309   [8]  00 FD 00 00 00 00 00 00
(000.641615)  vcan0  00000130   [8]  00 00 00 00 00 00 00 00
(000.647084)  vcan0  00000130   [8]  00 00 00 00 00 00 00 00
(000.647324)  vcan0  00000309   [8]  01 2B 00 00 00 00 00 00
(000.647546)  vcan0  0000017C   [8]  4B 00 00 00 00 00 00 00
(000.647759)  vcan0  0000014A   [8]  00 00 00 63 04 69 5B A6
(000.652822)  vcan0  0000014A   [8]  00 00 00 63 2C 18 0C CE
(000.653037)  vcan0  00000130   [8]  00 00 00 00 00 00 00 00
(000.653255)  vcan0  00000309   [8]  01 62 00 00 00 00 00 00
(000.653476)  vcan0  0000017C   [8]  4B 00 00 00 00 00 00 00
(000.658974)  vcan0  0000014A   [8]  00 00 00 63 56 D1 DA 00
(000.659188)  vcan0  00000130   [8]  00 00 00 00 00 00 00 00
(000.659400)  vcan0  00000309   [8]  01 8E 00 00 00 00 00 00
(000.659620)  vcan0  0000017C   [8]  4B 00 00 00 00 00 00 00
(000.665198)  vcan0  00000309   [8]  01 BB 00 00 00 00 00 00
(000.665418)  vcan0  0000014A   [8]  00 00 00 63 89 21 06 2E
(000.665627)  vcan0  00000130   [8]  00 00 00 00 00 00 00 00
(000.665851)  vcan0  0000017C   [8]  4B 00 00 00 00 00 00 00
(000.670840)  vcan0  00000130   [8]  00 00 00 00 00 00 00 00
(000.671069)  vcan0  00000309   [8]  01 D7 00 00 00 00 00 00
(000.671282)  vcan0  0000014A   [8]  00 00 00 63 B6 AB 00 00
(000.671502)  vcan0  0000017C   [8]  4B 00 00 00 00 00 00 00
(000.676752)  vcan0  00000309   [8]  02 05 00 00 00 00 00 00
(000.676973)  vcan0  0000014A   [8]  00 00 00 63 E9 4E 48 5C
(000.677193)  vcan0  0000017C   [8]  4B 00 00 00 00 00 00 00
(000.677399)  vcan0  00000130   [8]  00 00 00 00 00 00 00 00
(000.682791)  vcan0  00000130   [8]  00 00 00 00 00 00 00 00
(000.683019)  vcan0  0000017C   [8]  4B 00 00 00 00 00 00 00
(000.683231)  vcan0  0000014A   [8]  00 00 00 64 23 E7 45 1C
(000.683440)  vcan0  00000309   [8]  02 28 00 00 00 00 00 00
(000.688696)  vcan0  0000017C   [8]  4B 00 00 00 00 00 00 00
(000.688910)  vcan0  0000014A   [8]  00 00 00 64 56 27 99 7E
(000.689121)  vcan0  00000309   [8]  02 4D 00 00 00 00 00 00
(000.689329)  vcan0  00000130   [8]  00 00 00 00 00 00 00 00
(000.694643)  vcan0  0000017C   [8]  4B 00 00 00 00 00 00 00
(000.694853)  vcan0  00000130   [8]  00 00 00 00 00 00 00 00
(000.695067)  vcan0  0000014A   [8]  00 00 00 64 92 93 FE 94
(000.695276)  vcan0  00000309   [8]  02 6C 00 00 00 00 00 00
(000.700958)  vcan0  0000014A   [8]  00 00 00 64 C9 A7 C8 1C
(000.701170)  vcan0  00000130   [8]  00 00 00 00 00 00 00 00
(000.701393)  vcan0  0000017C   [8]  4B 00 00 00 00 00 00 00
(000.701604)  vcan0  00000309   [8]  02 8C 00 00 00 00 00 00
(000.706720)  vcan0  00000309   [8]  02 A8 00 00 00 00 00 00
(000.706935)  vcan0  00000130   [8]  00 00 00 00 00 00 00 00
(000.707158)  vcan0  0000017C   [8]  4B 00 00 00 00 00 00 00
(000.707372)  vcan0  0000014A   [8]  00 00 00 65 0B 95 17 CC
(000.712883)  vcan0  00000309   [8]  02 C6 00 00 00 00 00 00
(000.713108)  vcan0  0000017C   [8]  4B 00 00 00 00 00 00 00
(000.713316)  vcan0  00000130   [8]  00 00 00 00 00 00 00 00
(000.713528)  vcan0  0000014A   [8]  00 00 00 65 40 B4 CD B8
(000.718548)  vcan0  00000002   [8]  00 00 00 00 00 00 00 00
(000.718770)  vcan0  0000014A   [8]  00 00 00 65 88 1E 5F EC
(000.718982)  vcan0  00000309   [8]  02 DF 00 00 00 00 00 00
(000.719201)  vcan0  0000017C   [8]  4B 00 00 00 00 00 00 00
(000.719408)  vcan0  00000130   [8]  00 00 00 00 00 00 00 00
(000.724847)  vcan0  0000017C   [8]  4B 00 00 00 00 00 00 00
(000.725064)  vcan0  000001A3   [8]  00 00 00 00 00 00 00 00
(000.725275)  vcan0  00000309   [8]  02 FA 00 00 00 00 00 00
(000.725482)  vcan0  0000018F   [8]  00 00 00 00 00 00 00 00
(000.725691)  vcan0  0000014A   [8]  00 00 00 65 C1 FB DC 50
(000.725896)  vcan0  00000130   [8]  00 00 00 00 00 00 00 00
(000.730681)  vcan0  0000014A   [8]  00 00 00 66 02 63 53 7A
(000.730903)  vcan0  0000017C   [8]  4B 00 00 00 00 00 00 00
(000.731114)  vcan0  00000309   [8]  03 11 00 00 00 00 00 00
(000.731320)  vcan0  00000130   [8]  00 00 00 00 00 00 00 00
(000.736948)  vcan0  0000014A   [8]  00 00 00 66 3F 52 B0 2C
(000.737160)  vcan0  00000130   [8]  00 00 00 00 00 00 00 00
(000.737374)  vcan0  00000309   [8]  03 2A 00 00 00 00 00 00
(000.737595)  vcan0  0000017C   [8]  4B 00 00 00 00 00 00 00
(000.742545)  vcan0  00000309   [8]  03 3F 00 00 00 00 00 00
(000.742756)  vcan0  00000130   [8]  00 00 00 00 00 00 00 00
(000.742972)  vcan0  0000014A   [8]  00 00 00 66 84 36 71 FE
(000.743193)  vcan0  0000017C   [8]  4B 00 00 00 00 00 00 00
(000.748736)  vcan0  0000017C   [8]  4B 00 00 00 00 00 00 00
(000.748952)  vcan0  00000130   [8]  00 00 00 00 00 00 00 00
(000.749167)  vcan0  0000014A   [8]  00 00 00 66 BD BA 00 16
(000.749381)  vcan0  00000309   [8]  03 57 00 00 00 00 00 00
(000.754829)  vcan0  0000014A   [8]  00 00 00 67 0A 33 DB 26
(000.755055)  vcan0  0000017C   [8]  4B 00 00 00 00 00 00 00
(000.755263)  vcan0  00000130   [8]  00 00 00 00 00 00 00 00
(000.755475)  vcan0  00000309   [8]  03 6B 00 00 00 00 00 00
(000.760529)  vcan0  00000130   [8]  00 00 00 00 00 00 00 00
(000.760752)  vcan0  00000309   [8]  03 80 00 00 00 00 00 00
(000.760964)  vcan0  0000014A   [8]  00 00 00 67 42 8D E5 B0
(000.761184)  vcan0  0000017C   [8]  4B 00 00 00 00 00 00 00
(000.766733)  vcan0  0000014A   [8]  00 00 00 67 8B 33 E6 54
(000.766956)  vcan0  0000017C   [8]  4B 00 00 00 00 00 00 00
(000.767165)  vcan0  00000130   [8]  00 00 00 00 00 00 00 00
(000.767375)  vcan0  00000309   [8]  03 93 00 00 00 00 00 00
(000.772584)  vcan0  0000014A   [8]  00 00 00 67 C9 36 CD 64
(000.772807)  vcan0  0000017C   [8]  4B 00 00 00 00 00 00 00
(000.773018)  vcan0  00000309   [8]  03 A7 00 00 00 00 00 00
(000.773224)  vcan0  00000130   [8]  00 00 00 00 00 00 00 00
(000.811844)  vcan0  00000130   [8]  00 00 00 00 00 00 00 00
(000.812083)  vcan0  00000309   [8]  03 B9 00 00 00 00 00 00
(000.812299)  vcan0  0000014A   [8]  00 00 00 68 12 A8 F7 DA
(000.812523)  vcan0  0000017C   [8]  4B 00 00 00 00 00 00 00
(000.814398)  vcan0  00000309   [8]  03 CC 00 00 00 00 00 00
(000.814622)  vcan0  0000017C   [8]  4B 00 00 00 00 00 00 00
(000.814829)  vcan0  00000130   [8]  00 00 00 00 00 00 00 00
(000.815040)  vcan0  0000014A   [8]  00 00 00 68 4C E8 F8 76
(000.819903)  vcan0  0000014A   [8]  00 00 00 68 96 06 14 9A
(000.820113)  vcan0  00000130   [8]  00 00 00 00 00 00 00 00
(000.820325)  vcan0  00000309   [8]  03 DE 00 00 00 00 00 00
(000.820544)  vcan0  0000017C   [8]  4B 00 00 00 00 00 00 00
(000.825813)  vcan0  0000017C   [8]  4B 00 00 00 00 00 00 00
(000.826031)  vcan0  0000014A   [8]  00 00 00 68 D1 E1 3F 48
(000.826242)  vcan0  00000309   [8]  03 EF 00 00 00 00 00 00
(000.826449)  vcan0  00000130   [8]  00 00 00 00 00 00 00 00
(000.832011)  vcan0  0000014A   [8]  00 00 00 69 1A 6C 8C 04
(000.832246)  vcan0  0000017C   [8]  4B 00 00 00 00 00 00 00
(000.832460)  vcan0  00000309   [8]  04 00 00 00 00 00 00 00
(000.832669)  vcan0  00000130   [8]  00 00 00 00 00 00 00 00
(000.838117)  vcan0  0000014A   [8]  00 00 00 69 55 37 72 84
(000.838329)  vcan0  00000130   [8]  00 00 00 00 00 00 00 00
(000.838554)  vcan0  0000017C   [8]  4B 00 00 00 00 00 00 00
(000.838766)  vcan0  00000309   [8]  04 11 00 00 00 00 00 00
(000.844118)  vcan0  0000014A   [8]  00 00 00 69 9A 94 46 C0
(000.844328)  vcan0  00000130   [8]  00 00 00 00 00 00 00 00
(000.844541)  vcan0  00000309   [8]  04 22 00 00 00 00 00 00
(000.844762)  vcan0  0000017C   [8]  4B 00 00 00 00 00 00 00
(000.850179)  vcan0  00000130   [8]  00 00 00 00 00 00 00 00
(000.850413)  vcan0  00000309   [8]  04 32 00 00 00 00 00 00
(000.850637)  vcan0  0000017C   [8]  4B 00 00 00 00 00 00 00
(000.850849)  vcan0  0000014A   [8]  00 00 00 69 D7 54 C8 04
(000.856056)  vcan0  0000014A   [8]  00 00 00 6A 1F 21 BD F2
(000.856277)  vcan0  00000309   [8]  04 42 00 00 00 00 00 00
(000.856487)  vcan0  00000130   [8]  00 00 00 00 00 00 00 00
(000.856710)  vcan0  0000017C   [8]  4B 00 00 00 00 00 00 00
(000.862048)  vcan0  0000014A   [8]  00 00 00 6A 5A C2 A0 D8
(000.862272)  vcan0  0000017C   [8]  4B 00 00 00 00 00 00 00
(000.862484)  vcan0  00000309   [8]  04 52 00 00 00 00 00 00
(000.862691)  vcan0  00000130   [8]  00 00 00 00 00 00 00 00
(000.867926)  vcan0  00000309   [8]  04 61 00 00 00 00 00 00
(000.868152)  vcan0  0000017C   [8]  4B 00 00 00 00 00 00 00
(000.868359)  vcan0  00000130   [8]  00 00 00 00 00 00 00 00
(000.868571)  vcan0  0000014A   [8]  00 00 00 6A 9D 6B CE 08
(000.873893)  vcan0  0000017C   [8]  4B 00 00 00 00 00 00 00
(000.874107)  vcan0  0000014A   [8]  00 00 00 6A DB 18 32 3E
(000.874314)  vcan0  00000130   [8]  00 00 00 00 00 00 00 00
(000.874523)  vcan0  00000309   [8]  04 71 00 00 00 00 00 00
(000.879733)  vcan0  00000130   [8]  00 00 00 00 00 00 00 00
(000.879960)  vcan0  00000309   [8]  04 80 00 00 00 00 00 00
(000.880173)  vcan0  0000014A   [8]  00 00 00 6B 1C E7 87 D6
(000.880392)  vcan0  0000017C   [8]  4B 00 00 00 00 00 00 00
(000.885861)  vcan0  0000014A   [8]  00 00 00 6B 59 FE 41 70
(000.886076)  vcan0  00000309   [8]  04 8F 00 00 00 00 00 00
(000.886295)  vcan0  0000017C   [8]  4B 00 00 00 00 00 00 00
(000.886502)  vcan0  00000130   [8]  00 00 00 00 00 00 00 00
(000.891773)  vcan0  0000014A   [8]  00 00 00 6B 96 C4 82 30
(000.891996)  vcan0  0000017C   [8]  4B 00 00 00 00 00 00 00
(000.892203)  vcan0  00000130   [8]  00 00 00 00 00 00 00 00
(000.892415)  vcan0  00000309   [8]  04 9E 00 00 00 00 00 00
(000.897961)  vcan0  00000309   [8]  04 AD 00 00 00 00 00 00
(000.898172)  vcan0  00000130   [8]  00 00 00 00 00 00 00 00
(000.898393)  vcan0  0000017C   [8]  4B 00 00 00 00 00 00 00
(000.898663)  vcan0  0000014A   [8]  00 00 00 6B D5 9D 08 84
(000.904066)  vcan0  0000017C   [8]  4B 00 00 00 00 00 00 00
(000.904284)  vcan0  00000309   [8]  04 BB 00 00 00 00 00 00
(000.904491)  vcan0  00000130   [8]  00 00 00 00 00 00 00 00
(000.904745)  vcan0  0000014A   [8]  00 00 00 6C 10 7E DA 5A
(000.909967)  vcan0  00000130   [8]  00 00 00 00 00 00 00 00
(000.910187)  vcan0  0000014A   [8]  00 00 00 6C 4F 7F FA 3E
(000.910409)  vcan0  0000017C   [8]  4B 00 00 00 00 00 00 00
(000.910621)  vcan0  00000309   [8]  04 CA 00 00 00 00 00 00
(000.916320)  vcan0  00000130   [8]  00 00 00 00 00 00 00 00
(000.916569)  vcan0  0000014A   [8]  00 00 00 6C 88 C6 B4 A0
(000.916811)  vcan0  0000017C   [8]  4B 00 00 00 00 00 00 00
(000.917035)  vcan0  00000309   [8]  04 D8 00 00 00 00 00 00
(000.922246)  vcan0  00000130   [8]  00 00 00 00 00 00 00 00
(000.922486)  vcan0  00000309   [8]  04 E6 00 00 00 00 00 00
(000.922716)  vcan0  0000014A   [8]  00 00 00 6C C7 FA 53 44
(000.922955)  vcan0  0000017C   [8]  4B 00 00 00 00 00 00 00
(000.927947)  vcan0  0000014A   [8]  00 00 00 6C FF DE 21 D2
(000.928163)  vcan0  00000309   [8]  04 F5 00 00 00 00 00 00
(000.928370)  vcan0  00000130   [8]  00 00 00 00 00 00 00 00
(000.928591)  vcan0  0000017C   [8]  4B 00 00 00 00 00 00 00
(000.934053)  vcan0  0000014A   [8]  00 00 00 6D 39 A5 EF 88
(000.934267)  vcan0  00000130   [8]  00 00 00 00 00 00 00 00
(000.934485)  vcan0  00000309   [8]  05 03 00 00 00 00 00 00
(000.934707)  vcan0  0000017C   [8]  4B 00 00 00 00 00 00 00
(000.940049)  vcan0  0000017C   [8]  4B 00 00 00 00 00 00 00
(000.940265)  vcan0  00000309   [8]  05 11 00 00 00 00 00 00
(000.940473)  vcan0  00000130   [8]  00 00 00 00 00 00 00 00
(000.940686)  vcan0  0000014A   [8]  00 00 00 6D 72 A1 CB 4C
(000.945976)  vcan0  00000130   [8]  00 00 00 00 00 00 00 00
(000.946198)  vcan0  0000014A   [8]  00 00 00 6D A7 34 7F 2A
(000.946410)  vcan0  00000309   [8]  05 1F 00 00 00 00 00 00
(000.946628)  vcan0  0000017C   [8]  4B 00 00 00 00 00 00 00
(000.951967)  vcan0  00000130   [8]  00 00 00 00 00 00 00 00
(000.952186)  vcan0  00000309   [8]  05 2D 00 00 00 00 00 00
(000.952398)  vcan0  0000014A   [8]  00 00 00 6D E5 05 C6 FC
(000.952616)  vcan0  0000017C   [8]  4B 00 00 00 00 00 00 00
(000.957933)  vcan0  0000014A   [8]  00 00 00 6E 1A 0F 9F AA
(000.958154)  vcan0  0000017C   [8]  4B 00 00 00 00 00 00 00
(000.958364)  vcan0  00000309   [8]  05 3A 00 00 00 00 00 00
(000.958570)  vcan0  00000130   [8]  00 00 00 00 00 00 00 00
(000.963883)  vcan0  0000014A   [8]  00 00 00 6E 50 97 59 46
(000.964097)  vcan0  00000309   [8]  05 48 00 00 00 00 00 00
(000.964315)  vcan0  0000017C   [8]  4B 00 00 00 00 00 00 00
(000.964521)  vcan0  00000130   [8]  00 00 00 00 00 00 00 00
(000.969935)  vcan0  0000017C   [8]  4B 00 00 00 00 00 00 00
(000.970146)  vcan0  00000130   [8]  00 00 00 00 00 00 00 00
(000.970359)  vcan0  0000014A   [8]  00 00 00 6E 81 56 20 18
(000.970569)  vcan0  00000309   [8]  05 56 00 00 00 00 00 00
(000.976108)  vcan0  00000309   [8]  05 63 00 00 00 00 00 00
(000.976320)  vcan0  00000130   [8]  00 00 00 00 00 00 00 00
(000.976535)  vcan0  0000014A   [8]  00 00 00 6E BA 38 56 08
(000.976758)  vcan0  0000017C   [8]  4B 00 00 00 00 00 00 00
(000.982188)  vcan0  0000017C   [8]  4B 00 00 00 00 00 00 00
(000.982398)  vcan0  00000130   [8]  00 00 00 00 00 00 00 00
(000.982609)  vcan0  00000309   [8]  05 71 00 00 00 00 00 00
(000.982819)  vcan0  0000014A   [8]  00 00 00 6E EC B7 4F CA
(000.987929)  vcan0  00000130   [8]  00 00 00 00 00 00 00 00
(000.988168)  vcan0  0000017C   [8]  4B 00 00 00 00 00 00 00
(000.988382)  vcan0  0000014A   [8]  00 00 00 6F 20 35 E4 46
(000.988593)  vcan0  00000309   [8]  05 7F 00 00 00 00 00 00
(000.993975)  vcan0  00000002   [8]  00 00 00 00 00 00 00 00
(000.994205)  vcan0  0000017C   [8]  4B 00 00 00 00 00 00 00
(000.994420)  vcan0  0000014A   [8]  00 00 00 6F 52 B1 8E 86
(000.994627)  vcan0  00000130   [8]  00 00 00 00 00 00 00 00
(000.994838)  vcan0  00000309   [8]  05 8C 00 00 00 00 00 00
(000.999900)  vcan0  0000017C   [8]  4B 00 00 00 00 00 00 00
(001.000111)  vcan0  00000130   [8]  00 00 00 00 00 00 00 00
(001.000325)  vcan0  0000014A   [8]  00 00 00 6F 81 65 FE 0C
(001.000535)  vcan0  00000309   [8]  05 9A 00 00 00 00 00 00
(001.005903)  vcan0  00000309   [8]  05 A7 00 00 00 00 00 00
(001.006116)  vcan0  00000130   [8]  00 00 00 00 00 00 00 00
(001.006331)  vcan0  0000014A   [8]  00 00 00 6F B5 20 ED 2C
(001.006554)  vcan0  0000017C   [8]  4B 00 00 00 00 00 00 00
(001.011841)  vcan0  0000017C   [8]  4B 00 00 00 00 00 00 00
(001.012060)  vcan0  0000014A   [8]  00 00 00 6F E4 23 F1 42
(001.012272)  vcan0  00000309   [8]  05 B4 00 00 00 00 00 00
(001.012480)  vcan0  00000130   [8]  00 00 00 00 00 00 00 00
(001.017966)  vcan0  0000017C   [8]  4B 00 00 00 00 00 00 00
(001.018177)  vcan0  00000130   [8]  00 00 00 00 00 00 00 00
(001.018391)  vcan0  00000309   [8]  05 C2 00 00 00 00 00 00
(001.018604)  vcan0  0000014A   [8]  00 00 00 70 16 F8 B3 9A
(001.023935)  vcan0  0000014A   [8]  00 00 00 70 44 4A B0 5E
(001.024146)  vcan0  00000130   [8]  00 00 00 00 00 00 00 00
(001.024362)  vcan0  00000309   [8]  05 CF 00 00 00 00 00 00
(001.024584)  vcan0  0000017C   [8]  4B 00 00 00 00 00 00 00
(001.029907)  vcan0  0000014A   [8]  00 00 00 70 6E 40 42 06
(001.030123)  vcan0  00000309   [8]  05 DC 00 00 00 00 00 00
(001.030343)  vcan0  0000017C   [8]  4B 00 00 00 00 00 00 00
(001.030550)  vcan0  00000130   [8]  00 00 00 00 00 00 00 00
(001.035991)  vcan0  0000017C   [8]  4B 00 00 00 00 00 00 00
(001.036203)  vcan0  00000130   [8]  00 00 00 00 00 00 00 00
(001.036418)  vcan0  00000309   [8]  05 EA 00 00 00 00 00 00
(001.036631)  vcan0  0000014A   [8]  00 00 00 70 9E 2F 16 72
(001.041874)  vcan0  00000309   [8]  05 F7 00 00 00 00 00 00
(001.042086)  vcan0  00000130   [8]  00 00 00 00 00 00 00 00
(001.042309)  vcan0  0000017C   [8]  4B 00 00 00 00 00 00 00
(001.042522)  vcan0  0000014A   [8]  00 00 00 70 C6 82 DF 04
(001.047801)  vcan0  0000014A   [8]  00 00 00 70 F4 20 E4 6C
(001.048011)  vcan0  00000130   [8]  00 00 00 00 00 00 00 00
(001.048227)  vcan0  00000309   [8]  06 04 00 00 00 00 00 00
(001.048448)  vcan0  0000017C   [8]  4B 00 00 00 00 00 00 00
(001.053876)  vcan0  0000014A   [8]  00 00 00 71 20 22 FC 2C
(001.054091)  vcan0  00000309   [8]  06 11 00 00 00 00 00 00
(001.054298)  vcan0  00000130   [8]  00 00 00 00 00 00 00 00
(001.054518)  vcan0  0000017C   [8]  4B 00 00 00 00 00 00 00
(001.059895)  vcan0  0000017C   [8]  4B 00 00 00 00 00 00 00
(001.060112)  vcan0  00000309   [8]  06 1E 00 00 00 00 00 00
(001.060324)  vcan0  0000014A   [8]  00 00 00 71 47 50 87 60
(001.060530)  vcan0  00000130   [8]  00 00 00 00 00 00 00 00
(001.065974)  vcan0  00000309   [8]  06 2B 00 00 00 00 00 00
(001.066208)  vcan0  0000017C   [8]  4B 00 00 00 00 00 00 00
(001.066416)  vcan0  00000130   [8]  00 00 00 00 00 00 00 00
(001.066630)  vcan0  0000014A   [8]  00 00 00 71 73 4E FB CE
(001.071898)  vcan0  0000014A   [8]  00 00 00 71 98 5A 2C FC
(001.072126)  vcan0  0000017C   [8]  4B 00 00 00 00 00 00 00
(001.072339)  vcan0  00000309   [8]  06 39 00 00 00 00 00 00
(001.072545)  vcan0  00000130   [8]  00 00 00 00 00 00 00 00
(001.077854)  vcan0  00000309   [8]  06 46 00 00 00 00 00 00
(001.078064)  vcan0  00000130   [8]  00 00 00 00 00 00 00 00
(001.078285)  vcan0  0000017C   [8]  4B 00 00 00 00 00 00 00
(001.078498)  vcan0  0000014A   [8]  00 00 00 71 C1 78 57 0A
(001.083707)  vcan0  00000130   [8]  00 00 00 00 00 00 00 00
(001.083934)  vcan0  0000014A   [8]  00 00 00 71 E6 BD 85 80
(001.084147)  vcan0  00000309   [8]  06 53 00 00 00 00 00 00
(001.084366)  vcan0  0000017C   [8]  4B 00 00 00 00 00 00 00
(001.089851)  vcan0  0000017C   [8]  4B 00 00 00 00 00 00 00
(001.090066)  vcan0  00000309   [8]  06 60 00 00 00 00 00 00
(001.090278)  vcan0  0000014A   [8]  00 00 00 72 0B 8D 4E 2E
(001.090485)  vcan0  00000130   [8]  00 00 00 00 00 00 00 00
(001.096251)  vcan0  00000309   [8]  06 6D 00 00 00 00 00 00
(001.096482)  vcan0  0000014A   [8]  00 00 00 72 31 85 9E F8
(001.096696)  vcan0  00000130   [8]  00 00 00 00 00 00 00 00
(001.096933)  vcan0  0000017C   [8]  4B 00 00 00 00 00 00 00
(001.102220)  vcan0  0000014A   [8]  00 00 00 72 57 38 D9 F2
(001.102442)  vcan0  00000130   [8]  00 00 00 00 00 00 00 00
(001.102683)  vcan0  0000017C   [8]  4B 00 00 00 00 00 00 00
(001.102908)  vcan0  00000309   [8]  06 7A 00 00 00 00 00 00
(001.108122)  vcan0  0000017C   [8]  4B 00 00 00 00 00 00 00
(001.108334)  vcan0  00000130   [8]  00 00 00 00 00 00 00 00
(001.108547)  vcan0  00000309   [8]  06 87 00 00 00 00 00 00
(001.108758)  vcan0  0000014A   [8]  00 00 00 72 79 FF 50 1A
(001.113874)  vcan0  0000014A   [8]  00 00 00 72 9E 82 7F CA
(001.114093)  vcan0  00000130   [8]  00 00 00 00 00 00 00 00
(001.114319)  vcan0  0000017C   [8]  4B 00 00 00 00 00 00 00
(001.114531)  vcan0  00000309   [8]  06 94 00 00 00 00 00 00
(001.119882)  vcan0  0000014A   [8]  00 00 00 72 BF E6 54 A0
(001.120098)  vcan0  00000309   [8]  06 A1 00 00 00 00 00 00
(001.120306)  vcan0  00000130   [8]  00 00 00 00 00 00 00 00
(001.120528)  vcan0  0000017C   [8]  4B 00 00 00 00 00 00 00
(001.126059)  vcan0  00000130   [8]  00 00 00 00 00 00 00 00
(001.126287)  vcan0  00000309   [8]  06 AE 00 00 00 00 00 00
(001.126510)  vcan0  0000017C   [8]  4B 00 00 00 00 00 00 00
(001.126722)  vcan0  0000014A   [8]  00 00 00 72 E0 9C 15 AC
(001.131976)  vcan0  0000017C   [8]  4B 00 00 00 00 00 00 00
(001.132193)  vcan0  0000014A   [8]  00 00 00 73 01 9E 29 DE
(001.132401)  vcan0  00000130   [8]  00 00 00 00 00 00 00 00
(001.132614)  vcan0  00000309   [8]  06 BA 00 00 00 00 00 00
(001.138201)  vcan0  00000309   [8]  06 C7 00 00 00 00 00 00
(001.138418)  vcan0  0000014A   [8]  00 00 00 73 1F 53 60 5E
(001.138639)  vcan0  0000017C   [8]  4B 00 00 00 00 00 00 00
(001.138846)  vcan0  00000130   [8]  00 00 00 00 00 00 00 00
(001.144200)  vcan0  00000130   [8]  00 00 00 00 00 00 00 00
(001.144441)  vcan0  0000014A   [8]  00 00 00 73 3E 7A 02 04
(001.144668)  vcan0  00000309   [8]  06 D4 00 00 00 00 00 00
(001.144904)  vcan0  0000017C   [8]  4B 00 00 00 00 00 00 00
(001.149971)  vcan0  00000309   [8]  06 E1 00 00 00 00 00 00
(001.150197)  vcan0  0000017C   [8]  4B 00 00 00 00 00 00 00
(001.150404)  vcan0  00000130   [8]  00 00 00 00 00 00 00 00
(001.150769)  vcan0  0000014A   [8]  00 00 00 84 35 EC D6 52
(001.156043)  vcan0  00000309   [8]  06 EE 00 00 00 00 00 00
(001.156259)  vcan0  0000014A   [8]  00 00 00 78 B5 73 10 F4
(001.156480)  vcan0  0000017C   [8]  4B 00 00 00 00 00 00 00
(001.156768)  vcan0  00000130   [8]  00 00 00 00 00 00 00 00
(001.162230)  vcan0  00000309   [8]  06 FB 00 00 00 00 00 00
(001.162476)  vcan0  0000017C   [8]  4B 00 00 00 00 00 00 00
(001.162700)  vcan0  0000014A   [8]  00 00 00 78 AD C2 4D 1E
(001.162914)  vcan0  00000130   [8]  00 00 00 00 00 00 00 00
(001.168056)  vcan0  00000309   [8]  07 07 00 00 00 00 00 00
(001.168273)  vcan0  0000014A   [8]  00 00 00 78 AC F0 19 4C
(001.168494)  vcan0  0000017C   [8]  4B 00 00 00 00 00 00 00
(001.168700)  vcan0  00000130   [8]  00 00 00 00 00 00 00 00
(001.173860)  vcan0  00000130   [8]  00 00 00 00 00 00 00 00
(001.174097)  vcan0  0000017C   [8]  4B 00 00 00 00 00 00 00
(001.174312)  vcan0  00000309   [8]  07 14 00 00 00 00 00 00
(001.174526)  vcan0  0000014A   [8]  00 00 00 78 A8 18 33 F0
(001.179953)  vcan0  00000309   [8]  07 21 00 00 00 00 00 00
(001.180164)  vcan0  00000130   [8]  00 00 00 00 00 00 00 00
(001.180380)  vcan0  0000014A   [8]  00 00 00 78 9F 8E 40 26
(001.180601)  vcan0  0000017C   [8]  4B 00 00 00 00 00 00 00
(001.185924)  vcan0  00000309   [8]  07 2E 00 00 00 00 00 00
(001.186138)  vcan0  00000130   [8]  00 00 00 00 00 00 00 00
(001.186355)  vcan0  0000014A   [8]  00 00 00 78 97 5F C4 20
(001.186576)  vcan0  0000017C   [8]  4B 00 00 00 00 00 00 00
(001.192053)  vcan0  0000017C   [8]  4B 00 00 00 00 00 00 00
(001.192265)  vcan0  00000130   [8]  00 00 00 00 00 00 00 00
(001.192479)  vcan0  00000309   [8]  07 3A 00 00 00 00 00 00
(001.192691)  vcan0  0000014A   [8]  00 00 00 78 8F 48 6D A6
(001.197931)  vcan0  0000017C   [8]  4B 00 00 00 00 00 00 00
(001.198152)  vcan0  00000309   [8]  07 47 00 00 00 00 00 00
(001.198360)  vcan0  00000130   [8]  00 00 00 00 00 00 00 00
(001.198573)  vcan0  0000014A   [8]  00 00 00 78 8A DB A2 6E
(001.203846)  vcan0  0000017C   [8]  4B 00 00 00 00 00 00 00
(001.204068)  vcan0  00000309   [8]  07 54 00 00 00 00 00 00
(001.204277)  vcan0  00000130   [8]  00 00 00 00 00 00 00 00
(001.204489)  vcan0  0000014A   [8]  00 00 00 78 81 FB FB 00
(001.209784)  vcan0  00000130   [8]  00 00 00 00 00 00 00 00
(001.210014)  vcan0  00000309   [8]  07 60 00 00 00 00 00 00
(001.210231)  vcan0  0000014A   [8]  00 00 00 78 78 51 29 DE
(001.210452)  vcan0  0000017C   [8]  4B 00 00 00 00 00 00 00
(001.215794)  vcan0  00000309   [8]  07 6C 00 00 00 00 00 00
(001.216017)  vcan0  0000014A   [8]  00 00 00 78 71 0D 15 4A
(001.216240)  vcan0  0000017C   [8]  4B 00 00 00 00 00 00 00
(001.216449)  vcan0  00000130   [8]  00 00 00 00 00 00 00 00
(001.221836)  vcan0  00000309   [8]  07 7A 00 00 00 00 00 00
(001.222047)  vcan0  00000130   [8]  00 00 00 00 00 00 00 00
(001.222259)  vcan0  0000014A   [8]  00 00 00 78 61 AB 29 7E
(001.222480)  vcan0  0000017C   [8]  4B 00 00 00 00 00 00 00
(001.227930)  vcan0  00000130   [8]  00 00 00 00 00 00 00 00
(001.228153)  vcan0  00000309   [8]  07 7F 00 00 00 00 00 00
(001.228375)  vcan0  0000017C   [8]  4B 00 00 00 00 00 00 00
(001.228587)  vcan0  0000014A   [8]  00 00 00 78 60 60 5E AA
(001.234006)  vcan0  0000017C   [8]  4B 00 00 00 00 00 00 00
(001.234228)  vcan0  00000309   [8]  07 88 00 00 00 00 00 00
(001.234437)  vcan0  00000130   [8]  00 00 00 00 00 00 00 00
(001.234649)  vcan0  0000014A   [8]  00 00 00 78 51 21 DC 22
(001.239817)  vcan0  00000309   [8]  07 80 00 00 00 00 00 00
(001.240033)  vcan0  0000014A   [8]  00 00 00 78 48 B5 65 DE
(001.240240)  vcan0  00000130   [8]  00 00 00 00 00 00 00 00
(001.240446)  vcan0  00000002   [8]  00 00 00 00 00 00 00 00
(001.240666)  vcan0  0000017C   [8]  4B 00 00 00 00 00 00 00
(001.245878)  vcan0  0000017C   [8]  4B 00 00 00 00 00 00 00
(001.246090)  vcan0  00000130   [8]  00 00 00 00 00 00 00 00
(001.246303)  vcan0  0000014A   [8]  00 00 00 78 40 62 98 EC
(001.246514)  vcan0  00000309   [8]  07 89 00 00 00 00 00 00
(001.251937)  vcan0  0000017C   [8]  4B 00 00 00 00 00 00 00
(001.252155)  vcan0  00000309   [8]  07 8A 00 00 00 00 00 00
(001.252374)  vcan0  00000326   [8]  00 00 00 00 00 00 00 00
(001.252585)  vcan0  0000014A   [8]  00 00 00 78 3C A8 4D 0A
(001.252798)  vcan0  000001A3   [8]  00 00 00 00 00 00 00 00
(001.253015)  vcan0  00000374   [8]  00 00 00 00 00 00 00 00
(001.253221)  vcan0  00000130   [8]  00 00 00 00 00 00 00 00
(001.253426)  vcan0  0000018F   [8]  00 00 00 00 00 00 00 00
(001.253642)  vcan0  000001A4   [8]  00 67 00 00 00 00 00 00
(001.253856)  vcan0  0000037B   [8]  00 00 00 00 00 00 00 00
(001.258024)  vcan0  00000309   [8]  07 95 00 00 00 00 00 00
(001.258253)  vcan0  0000017C   [8]  4B 00 00 00 00 00 00 00
(001.258466)  vcan0  0000014A   [8]  00 00 00 78 2E 76 DD 74
(001.258673)  vcan0  00000130   [8]  00 00 00 00 00 00 00 00
(001.264165)  vcan0  00000130   [8]  00 00 00 00 00 00 00 00
(001.264388)  vcan0  0000014A   [8]  00 00 00 78 28 A1 70 3A
(001.264611)  vcan0  0000017C   [8]  4B 00 00 00 00 00 00 00
(001.264844)  vcan0  00000309   [8]  07 93 00 00 00 00 00 00
(001.270292)  vcan0  00000309   [8]  07 9F 00 00 00 00 00 00
(001.270513)  vcan0  00000130   [8]  00 00 00 00 00 00 00 00
(001.270754)  vcan0  0000017C   [8]  4B 00 00 00 00 00 00 00
(001.270990)  vcan0  0000014A   [8]  00 00 00 78 20 B0 38 D8
(001.276246)  vcan0  0000017C   [8]  4B 00 00 00 00 00 00 00
(001.276459)  vcan0  00000130   [8]  00 00 00 00 00 00 00 00
(001.276676)  vcan0  00000309   [8]  07 A0 00 00 00 00 00 00
(001.276889)  vcan0  0000014A   [8]  00 00 00 78 1D 5B 4C 44
(001.282051)  vcan0  0000017C   [8]  4B 00 00 00 00 00 00 00
(001.282268)  vcan0  00000309   [8]  07 AC 00 00 00 00 00 00
(001.282481)  vcan0  0000014A   [8]  00 00 00 78 0E D7 4B 26
(001.282688)  vcan0  00000130   [8]  00 00 00 00 00 00 00 00
(001.288192)  vcan0  00000130   [8]  00 00 00 00 00 00 00 00
(001.288443)  vcan0  00000309   [8]  07 AD 00 00 00 00 00 00
(001.288671)  vcan0  0000017C   [8]  4B 00 00 00 00 00 00 00
(001.288883)  vcan0  0000014A   [8]  00 00 00 78 09 84 02 D2
(001.293885)  vcan0  00000130   [8]  00 00 00 00 00 00 00 00
(001.294110)  vcan0  00000309   [8]  07 BA 00 00 00 00 00 00
(001.294332)  vcan0  0000017C   [8]  4B 00 00 00 00 00 00 00
(001.294543)  vcan0  0000014A   [8]  00 00 00 78 01 90 A2 78
(001.299912)  vcan0  00000309   [8]  07 BC 00 00 00 00 00 00
(001.300126)  vcan0  00000130   [8]  00 00 00 00 00 00 00 00
(001.300350)  vcan0  0000017C   [8]  4B 00 00 00 00 00 00 00
(001.300563)  vcan0  0000014A   [8]  00 00 00 77 FC 0F 7A 2A
(001.306024)  vcan0  00000309   [8]  07 CA 00 00 00 00 00 00
(001.306250)  vcan0  0000017C   [8]  4B 00 00 00 00 00 00 00
(001.306462)  vcan0  0000014A   [8]  00 00 00 77 F0 8F DE CC
(001.306669)  vcan0  00000130   [8]  00 00 00 00 00 00 00 00
(001.311945)  vcan0  00000130   [8]  00 00 00 00 00 00 00 00
(001.312171)  vcan0  00000309   [8]  07 CD 00 00 00 00 00 00
(001.312385)  vcan0  0000014A   [8]  00 00 00 77 F0 CC 4A E8
(001.312606)  vcan0  0000017C   [8]  4B 00 00 00 00 00 00 00
(001.317959)  vcan0  0000014A   [8]  00 00 00 77 E4 1C 0A 96
(001.318177)  vcan0  00000309   [8]  07 DB 00 00 00 00 00 00
(001.318398)  vcan0  0000017C   [8]  4B 00 00 00 00 00 00 00
(001.318605)  vcan0  00000130   [8]  00 00 00 00 00 00 00 00
(001.324142)  vcan0  0000017C   [8]  4B 00 00 00 00 00 00 00
(001.324352)  vcan0  00000130   [8]  00 00 00 00 00 00 00 00
(001.324564)  vcan0  00000309   [8]  07 DE 00 00 00 00 00 00
(001.324775)  vcan0  0000014A   [8]  00 00 00 77 E5 0F E1 A6
(001.330226)  vcan0  00000130   [8]  00 00 00 00 00 00 00 00
(001.330454)  vcan0  00000309   [8]  07 ED 00 00 00 00 00 00
(001.330676)  vcan0  0000017C   [8]  4B 00 00 00 00 00 00 00
(001.330888)  vcan0  0000014A   [8]  00 00 00 77 D9 60 CE DA
(001.336221)  vcan0  00000309   [8]  07 F1 00 00 00 00 00 00
(001.336438)  vcan0  0000014A   [8]  00 00 00 77 D4 82 6F BE
(001.336658)  vcan0  0000017C   [8]  4B 00 00 00 00 00 00 00
(001.336865)  vcan0  00000130   [8]  00 00 00 00 00 00 00 00
(001.341987)  vcan0  0000014A   [8]  00 00 00 77 D0 4C 2E 34
(001.342197)  vcan0  00000130   [8]  00 00 00 00 00 00 00 00
(001.342421)  vcan0  0000017C   [8]  4B 00 00 00 00 00 00 00
(001.342633)  vcan0  00000309   [8]  08 00 00 00 00 00 00 00
(001.347851)  vcan0  0000017C   [8]  4B 00 00 00 00 00 00 00
(001.348066)  vcan0  0000014A   [8]  00 00 00 77 C9 84 F1 B6
(001.348273)  vcan0  00000130   [8]  00 00 00 00 00 00 00 00
(001.348488)  vcan0  00000309   [8]  08 04 00 00 00 00 00 00
(001.353884)  vcan0  0000017C   [8]  4B 00 00 00 00 00 00 00
(001.354098)  vcan0  0000014A   [8]  00 00 00 77 C2 71 A0 5A
(001.354306)  vcan0  00000130   [8]  00 00 00 00 00 00 00 00
(001.354520)  vcan0  00000309   [8]  08 14 00 00 00 00 00 00
(001.359778)  vcan0  00000130   [8]  00 00 00 00 00 00 00 00
(001.359996)  vcan0  00000309   [8]  08 18 00 00 00 00 00 00
(001.360207)  vcan0  0000014A   [8]  00 00 00 77 BD 46 3B 64
(001.360426)  vcan0  0000017C   [8]  4B 00 00 00 00 00 00 00
(001.365818)  vcan0  00000130   [8]  00 00 00 00 00 00 00 00
(001.366046)  vcan0  0000017C   [8]  4B 00 00 00 00 00 00 00
(001.366258)  vcan0  0000014A   [8]  00 00 00 83 47 7B D8 7A
(001.366467)  vcan0  00000309   [8]  08 29 00 00 00 00 00 00
(001.371862)  vcan0  00000309   [8]  08 2D 00 00 00 00 00 00
(001.372077)  vcan0  0000014A   [8]  00 00 00 7B 58 7B B2 B0
(001.372313)  vcan0  00000130   [8]  00 00 00 00 00 00 00 00
(001.372530)  vcan0  0000017C   [8]  4B 00 00 00 00 00 00 00
(001.377759)  vcan0  0000017C   [8]  4B 00 00 00 00 00 00 00
(001.377971)  vcan0  00000309   [8]  08 3E 00 00 00 00 00 00
(001.378181)  vcan0  0000014A   [8]  00 00 00 7B 3F 9D 4A 26
(001.378388)  vcan0  00000130   [8]  00 00 00 00 00 00 00 00
(001.384081)  vcan0  00000309   [8]  08 43 00 00 00 00 00 00
(001.384302)  vcan0  00000130   [8]  00 00 00 00 00 00 00 00
(001.384529)  vcan0  0000014A   [8]  00 00 00 7B 26 6C F4 3C
(001.384768)  vcan0  0000017C   [8]  4B 00 00 00 00 00 00 00
(001.390241)  vcan0  0000014A   [8]  00 00 00 7B 09 E2 12 D8
(001.390481)  vcan0  0000017C   [8]  4B 00 00 00 00 00 00 00
(001.390694)  vcan0  00000309   [8]  08 54 00 00 00 00 00 00
(001.390901)  vcan0  00000130   [8]  00 00 00 00 00 00 00 00
(001.396012)  vcan0  00000130   [8]  00 00 00 00 00 00 00 00
(001.396246)  vcan0  0000017C   [8]  4B 00 00 00 00 00 00 00
(001.396459)  vcan0  0000014A   [8]  00 00 00 7A EE 6D 1D D6
(001.396670)  vcan0  00000309   [8]  08 59 00 00 00 00 00 00
(001.402067)  vcan0  0000017C   [8]  4B 00 00 00 00 00 00 00
(001.402282)  vcan0  0000014A   [8]  00 00 00 7A D1 F9 F4 AC
(001.402493)  vcan0  00000309   [8]  08 6A 00 00 00 00 00 00
(001.402767)  vcan0  00000130   [8]  00 00 00 00 00 00 00 00
(001.407898)  vcan0  00000130   [8]  00 00 00 00 00 00 00 00
(001.408144)  vcan0  00000309   [8]  08 70 00 00 00 00 00 00
(001.408381)  vcan0  0000017C   [8]  4B 00 00 00 00 00 00 00
(001.408605)  vcan0  0000014A   [8]  00 00 00 7A B5 4E C9 CA
(001.414223)  vcan0  00000309   [8]  08 81 00 00 00 00 00 00
(001.414440)  vcan0  0000014A   [8]  00 00 00 7A 99 00 39 BA
(001.414662)  vcan0  0000017C   [8]  4B 00 00 00 00 00 00 00
(001.414870)  vcan0  00000130   [8]  00 00 00 00 00 00 00 00
(001.420052)  vcan0  00000309   [8]  08 87 00 00 00 00 00 00
(001.420271)  vcan0  0000014A   [8]  00 00 00 7A 80 88 22 A4
(001.420480)  vcan0  00000130   [8]  00 00 00 00 00 00 00 00
(001.420705)  vcan0  0000017C   [8]  4B 00 00 00 00 00 00 00
(001.426165)  vcan0  00000309   [8]  08 98 00 00 00 00 00 00
(001.426376)  vcan0  00000130   [8]  00 00 00 00 00 00 00 00
(001.426600)  vcan0  0000017C   [8]  4B 00 00 00 00 00 00 00
(001.426890)  vcan0  0000014A   [8]  00 00 00 7A 5F 94 68 82
(001.432189)  vcan0  0000017C   [8]  4B 00 00 00 00 00 00 00
(001.432421)  vcan0  00000130   [8]  00 00 00 00 00 00 00 00
(001.432658)  vcan0  00000309   [8]  08 9F 00 00 00 00 00 00
(001.432885)  vcan0  0000014A   [8]  00 00 00 7A 45 32 A0 BE
(001.438398)  vcan0  0000014A   [8]  00 00 00 7A 28 54 9E A2
(001.438649)  vcan0  0000017C   [8]  4B 00 00 00 00 00 00 00
(001.438874)  vcan0  00000309   [8]  08 B0 00 00 00 00 00 00
(001.439088)  vcan0  00000130   [8]  00 00 00 00 00 00 00 00
(001.443954)  vcan0  00000130   [8]  00 00 00 00 00 00 00 00
(001.444181)  vcan0  0000014A   [8]  00 00 00 7A 0D CB B6 80
(001.444396)  vcan0  00000309   [8]  08 B6 00 00 00 00 00 00
(001.444616)  vcan0  0000017C   [8]  4B 00 00 00 00 00 00 00
(001.449902)  vcan0  00000130   [8]  00 00 00 00 00 00 00 00
(001.450127)  vcan0  00000309   [8]  08 C8 00 00 00 00 00 00
(001.450340)  vcan0  0000014A   [8]  00 00 00 79 EF 55 AB 3E
(001.450562)  vcan0  0000017C   [8]  4B 00 00 00 00 00 00 00
(001.456325)  vcan0  0000014A   [8]  00 00 00 79 D7 CE 7C 56
(001.456557)  vcan0  00000309   [8]  08 CE 00 00 00 00 00 00
(001.456772)  vcan0  00000130   [8]  00 00 00 00 00 00 00 00
(001.457011)  vcan0  0000017C   [8]  4B 00 00 00 00 00 00 00
(001.461997)  vcan0  0000017C   [8]  4B 00 00 00 00 00 00 00
(001.462210)  vcan0  00000130   [8]  00 00 00 00 00 00 00 00
(001.462424)  vcan0  0000014A   [8]  00 00 00 79 BC D3 C8 6E
(001.462634)  vcan0  00000309   [8]  08 E0 00 00 00 00 00 00
(001.468208)  vcan0  00000130   [8]  00 00 00 00 00 00 00 00
(001.468446)  vcan0  0000017C   [8]  4B 00 00 00 00 00 00 00
(001.468658)  vcan0  00000309   [8]  08 E7 00 00 00 00 00 00
(001.468869)  vcan0  0000014A   [8]  00 00 00 79 A3 62 99 B0
(001.474425)  vcan0  0000017C   [8]  4B 00 00 00 00 00 00 00
(001.474636)  vcan0  00000130   [8]  00 00 00 00 00 00 00 00
(001.474849)  vcan0  0000014A   [8]  00 00 00 79 8C 69 A4 D6
(001.475059)  vcan0  00000309   [8]  08 F8 00 00 00 00 00 00
(001.479989)  vcan0  00000130   [8]  00 00 00 00 00 00 00 00
(001.480214)  vcan0  0000014A   [8]  00 00 00 79 74 A6 A4 A8
(001.480442)  vcan0  0000017C   [8]  4B 00 00 00 00 00 00 00
(001.480652)  vcan0  00000309   [8]  08 FF 00 00 00 00 00 00
(001.485945)  vcan0  00000002   [8]  00 00 00 00 00 00 00 00
(001.486175)  vcan0  0000017C   [8]  4B 00 00 00 00 00 00 00
(001.486388)  vcan0  0000014A   [8]  00 00 00 79 5D A1 09 20
(001.486597)  vcan0  00000309   [8]  09 11 00 00 00 00 00 00
(001.486802)  vcan0  00000130   [8]  00 00 00 00 00 00 00 00
(001.492003)  vcan0  00000309   [8]  09 18 00 00 00 00 00 00
(001.492234)  vcan0  0000017C   [8]  4B 00 00 00 00 00 00 00
(001.492446)  vcan0  0000014A   [8]  00 00 00 79 43 D8 A6 94
(001.492653)  vcan0  00000130   [8]  00 00 00 00 00 00 00 00
(001.497964)  vcan0  00000309   [8]  09 2A 00 00 00 00 00 00
(001.498174)  vcan0  00000130   [8]  00 00 00 00 00 00 00 00
(001.498388)  vcan0  0000014A   [8]  00 00 00 79 2F 90 D3 D6
(001.498608)  vcan0  0000017C   [8]  4B 00 00 00 00 00 00 00
(001.504258)  vcan0  00000130   [8]  00 00 00 00 00 00 00 00
(001.504481)  vcan0  0000014A   [8]  00 00 00 79 1C 82 5E E4
(001.504703)  vcan0  0000017C   [8]  4B 00 00 00 00 00 00 00
(001.504913)  vcan0  00000309   [8]  09 31 00 00 00 00 00 00
(001.510123)  vcan0  0000017C   [8]  4B 00 00 00 00 00 00 00
(001.510341)  vcan0  00000309   [8]  09 42 00 00 00 00 00 00
(001.510548)  vcan0  00000130   [8]  00 00 00 00 00 00 00 00
(001.510759)  vcan0  0000014A   [8]  00 00 00 79 06 2B BB 52
(001.516101)  vcan0  00000130   [8]  00 00 00 00 00 00 00 00
(001.516324)  vcan0  0000014A   [8]  00 00 00 78 F1 9D E0 9E
(001.516536)  vcan0  00000309   [8]  09 4A 00 00 00 00 00 00
(001.516754)  vcan0  0000017C   [8]  4B 00 00 00 00 00 00 00
(001.522050)  vcan0  0000017C   [8]  4B 00 00 00 00 00 00 00
(001.522262)  vcan0  00000130   [8]  00 00 00 00 00 00 00 00
(001.522474)  vcan0  00000309   [8]  09 5B 00 00 00 00 00 00
(001.522685)  vcan0  0000014A   [8]  00 00 00 78 DF 89 A1 B6
(001.527987)  vcan0  00000309   [8]  09 63 00 00 00 00 00 00
(001.528206)  vcan0  0000014A   [8]  00 00 00 78 CD 09 17 A8
(001.528432)  vcan0  0000017C   [8]  4B 00 00 00 00 00 00 00
(001.528640)  vcan0  00000130   [8]  00 00 00 00 00 00 00 00
(001.534218)  vcan0  0000014A   [8]  00 00 00 78 BC C9 5F 76
(001.534462)  vcan0  0000017C   [8]  4B 00 00 00 00 00 00 00
(001.534678)  vcan0  00000130   [8]  00 00 00 00 00 00 00 00
(001.534901)  vcan0  00000309   [8]  09 74 00 00 00 00 00 00
(001.539902)  vcan0  0000017C   [8]  4B 00 00 00 00 00 00 00
(001.540122)  vcan0  0000014A   [8]  00 00 00 78 AA 55 2A 96
(001.540331)  vcan0  00000130   [8]  00 00 00 00 00 00 00 00
(001.540543)  vcan0  00000309   [8]  09 7C 00 00 00 00 00 00
(001.546102)  vcan0  00000309   [8]  09 8D 00 00 00 00 00 00
(001.546328)  vcan0  0000017C   [8]  39 7A 00 00 00 00 00 00
(001.546542)  vcan0  0000014A   [8]  00 00 00 80 9B AB 81 C0
(001.546749)  vcan0  00000130   [8]  00 00 00 00 00 00 00 00
(001.552062)  vcan0  00000309   [8]  09 95 00 00 00 00 00 00
(001.552278)  vcan0  0000014A   [8]  00 00 00 7B 0F 11 76 82
(001.552484)  vcan0  00000130   [8]  00 00 00 00 00 00 00 00
(001.552706)  vcan0  0000017C   [8]  31 C2 00 00 00 00 00 00
(001.557845)  vcan0  00000309   [8]  09 A6 00 00 00 00 00 00
(001.558059)  vcan0  0000014A   [8]  00 00 00 7A EC A5 9F 98
(001.558279)  vcan0  0000017C   [8]  1F E8 00 00 00 00 00 00
(001.558486)  vcan0  00000130   [8]  00 00 00 00 00 00 00 00
(001.563958)  vcan0  0000017C   [8]  18 99 00 00 00 00 00 00
(001.564172)  vcan0  00000309   [8]  09 AD 00 00 00 00 00 00
(001.564379)  vcan0  00000130   [8]  00 00 00 00 00 00 00 00
(001.564591)  vcan0  0000014A   [8]  00 00 00 7A D1 58 2C C2
(001.569942)  vcan0  0000017C   [8]  07 C4 00 00 00 00 00 00
(001.570156)  vcan0  00000309   [8]  09 BE 00 00 00 00 00 00
(001.570368)  vcan0  0000014A   [8]  00 00 00 7A AC 91 93 A8
(001.570575)  vcan0  00000130   [8]  00 00 00 00 00 00 00 00
(001.576087)  vcan0  0000017C   [8]  01 86 00 00 00 00 00 00
(001.576316)  vcan0  00000309   [8]  09 C4 00 00 00 00 00 00
(001.576524)  vcan0  00000130   [8]  00 00 00 00 00 00 00 00
(001.576735)  vcan0  0000014A   [8]  00 00 00 7A 90 44 24 4E
(001.582222)  vcan0  0000014A   [8]  00 00 00 7A 6E 4E 14 F6
(001.582454)  vcan0  0000017C   [8]  00 00 00 00 00 00 08 C8
(001.582669)  vcan0  00000309   [8]  09 D3 00 00 00 00 00 00
(001.582877)  vcan0  00000130   [8]  00 00 00 00 00 00 00 00
(001.588059)  vcan0  0000017C   [8]  00 00 00 00 00 00 0B C8
(001.588276)  vcan0  00000309   [8]  09 D7 00 00 00 00 00 00
(001.588484)  vcan0  00000130   [8]  00 00 00 00 00 00 00 00
(001.588699)  vcan0  0000014A   [8]  00 00 00 7A 50 42 EB F8
(001.594301)  vcan0  0000017C   [8]  00 00 00 00 00 00 13 30
(001.594511)  vcan0  00000130   [8]  00 00 00 00 00 00 00 00
(001.594723)  vcan0  00000309   [8]  09 E4 00 00 00 00 00 00
(001.594933)  vcan0  0000014A   [8]  00 00 00 7A 2F E4 EA 6A
(001.599896)  vcan0  0000017C   [8]  00 00 00 00 00 00 13 30
(001.600106)  vcan0  00000130   [8]  00 00 00 00 00 00 00 00
(001.600319)  vcan0  0000014A   [8]  00 00 00 7A 14 7E B5 EE
(001.600529)  vcan0  00000309   [8]  09 E5 00 00 00 00 00 00
(001.606078)  vcan0  00000309   [8]  09 EF 00 00 00 00 00 00
(001.606288)  vcan0  00000130   [8]  00 00 00 00 00 00 00 00
(001.606501)  vcan0  0000014A   [8]  00 00 00 79 F1 1D 3C 1E
(001.606721)  vcan0  0000017C   [8]  00 00 00 00 00 00 13 30
(001.611919)  vcan0  0000014A   [8]  00 00 00 79 D7 DC D1 C0
(001.612133)  vcan0  00000309   [8]  09 ED 00 00 00 00 00 00
(001.612343)  vcan0  00000130   [8]  00 00 00 00 00 00 00 00
(001.612564)  vcan0  0000017C   [8]  00 00 00 00 00 00 13 30
(001.618022)  vcan0  0000014A   [8]  00 00 00 79 BA 1D BF 5E
(001.618237)  vcan0  00000309   [8]  09 F4 00 00 00 00 00 00
(001.618487)  vcan0  0000017C   [8]  00 00 00 00 00 00 13 30
(001.618694)  vcan0  00000130   [8]  00 00 00 00 00 00 00 00
(001.623880)  vcan0  00000130   [8]  00 00 00 00 00 00 00 00
(001.624106)  vcan0  0000014A   [8]  00 00 00 79 A0 63 FC BC
(001.624329)  vcan0  0000017C   [8]  00 00 00 00 00 00 13 30
(001.624541)  vcan0  00000309   [8]  09 F0 00 00 00 00 00 00
(001.630139)  vcan0  00000309   [8]  09 F5 00 00 00 00 00 00
(001.630357)  vcan0  0000014A   [8]  00 00 00 79 82 41 4C 6A
(001.630564)  vcan0  00000130   [8]  00 00 00 00 00 00 00 00
(001.630784)  vcan0  0000017C   [8]  00 00 00 00 00 00 13 30
(001.636591)  vcan0  00000130   [8]  00 00 00 00 00 00 00 00
(001.636836)  vcan0  0000017C   [8]  00 00 00 00 00 00 13 30
(001.637058)  vcan0  00000309   [8]  09 F0 00 00 00 00 00 00
(001.637270)  vcan0  0000014A   [8]  00 00 00 79 69 FB B1 C0
(001.642144)  vcan0  00000309   [8]  09 F3 00 00 00 00 00 00
(001.642378)  vcan0  0000014A   [8]  00 00 00 79 4F 52 4C E8
(001.642620)  vcan0  0000017C   [8]  00 00 00 00 00 00 13 30
(001.642835)  vcan0  00000130   [8]  00 00 00 00 00 00 00 00
(001.648286)  vcan0  00000309   [8]  09 ED 00 00 00 00 00 00
(001.648520)  vcan0  0000014A   [8]  00 00 00 79 38 A3 FC 76
(001.648737)  vcan0  00000130   [8]  00 00 00 00 00 00 00 00
(001.648978)  vcan0  0000017C   [8]  00 00 00 00 00 00 13 30
(001.654158)  vcan0  0000017C   [8]  00 00 00 00 00 00 13 30
(001.654379)  vcan0  00000309   [8]  09 EF 00 00 00 00 00 00
(001.654592)  vcan0  0000014A   [8]  00 00 00 79 1D 2F 02 CE
(001.654799)  vcan0  00000130   [8]  00 00 00 00 00 00 00 00
(001.659945)  vcan0  00000130   [8]  00 00 00 00 00 00 00 00
(001.660182)  vcan0  0000017C   [8]  00 00 00 00 00 00 13 30
(001.660396)  vcan0  00000309   [8]  09 E7 00 00 00 00 00 00
(001.660608)  vcan0  0000014A   [8]  00 00 00 79 0C A8 5E 78
(001.666041)  vcan0  00000130   [8]  00 00 00 00 00 00 00 00
(001.666262)  vcan0  0000014A   [8]  00 00 00 78 F1 AF 60 48
(001.666479)  vcan0  00000309   [8]  09 E8 00 00 00 00 00 00
(001.666701)  vcan0  0000017C   [8]  00 00 00 00 00 00 13 30
(001.672169)  vcan0  00000130   [8]  00 00 00 00 00 00 00 00
(001.672393)  vcan0  0000014A   [8]  00 00 00 78 E0 BF C7 4A
(001.672614)  vcan0  0000017C   [8]  00 00 00 00 00 00 12 50
(001.672824)  vcan0  00000309   [8]  09 E0 00 00 00 00 00 00
(001.678076)  vcan0  0000017C   [8]  00 00 00 00 00 00 12 A0
(001.678286)  vcan0  00000130   [8]  00 00 00 00 00 00 00 00
(001.678498)  vcan0  00000309   [8]  09 E0 00 00 00 00 00 00
(001.678707)  vcan0  0000014A   [8]  00 00 00 78 CB 90 0D 64
(001.684210)  vcan0  0000014A   [8]  00 00 00 78 B9 A3 60 F2
(001.684428)  vcan0  00000130   [8]  00 00 00 00 00 00 00 00
(001.684652)  vcan0  0000017C   [8]  00 00 00 00 00 00 0C 68
(001.684862)  vcan0  00000309   [8]  09 D6 00 00 00 00 00 00
(001.690386)  vcan0  0000014A   [8]  00 00 00 78 A6 FC 18 4E
(001.690607)  vcan0  00000130   [8]  00 00 00 00 00 00 00 00
(001.690849)  vcan0  0000017C   [8]  00 00 00 00 00 00 0C 50
(001.691073)  vcan0  00000309   [8]  09 D6 00 00 00 00 00 00
(001.696009)  vcan0  00000130   [8]  00 00 00 00 00 00 00 00
(001.696239)  vcan0  0000014A   [8]  00 00 00 78 95 21 E9 4E
(001.696453)  vcan0  00000309   [8]  09 CD 00 00 00 00 00 00
(001.696672)  vcan0  0000017C   [8]  00 00 00 00 00 00 05 F0
(001.702087)  vcan0  00000309   [8]  09 CC 00 00 00 00 00 00
(001.702299)  vcan0  00000130   [8]  00 00 00 00 00 00 00 00
(001.702525)  vcan0  0000017C   [8]  00 00 00 00 00 00 05 D0
(001.702738)  vcan0  0000014A   [8]  00 00 00 78 85 3D 85 F4
(001.707886)  vcan0  0000014A   [8]  00 00 00 78 72 E4 3C E0
(001.708096)  vcan0  00000130   [8]  00 00 00 00 00 00 00 00
(001.708309)  vcan0  00000309   [8]  09 C3 00 00 00 00 00 00
(001.708529)  vcan0  0000017C   [8]  00 C7 00 00 00 00 00 00
(001.713880)  vcan0  00000309   [8]  09 C3 00 00 00 00 00 00
(001.714098)  vcan0  0000014A   [8]  00 00 00 78 68 8F B7 DE
(001.714320)  vcan0  0000017C   [8]  00 ED 00 00 00 00 00 00
(001.714526)  vcan0  00000130   [8]  00 00 00 00 00 00 00 00
(001.719937)  vcan0  0000014A   [8]  00 00 00 78 54 8B 13 28
(001.720163)  vcan0  0000017C   [8]  0A 95 00 00 00 00 00 00
(001.720370)  vcan0  00000130   [8]  00 00 00 00 00 00 00 00
(001.720582)  vcan0  00000309   [8]  09 B9 00 00 00 00 00 00
(001.726027)  vcan0  00000309   [8]  09 B9 00 00 00 00 00 00
(001.726245)  vcan0  0000014A   [8]  00 00 00 78 48 79 80 CE
(001.726472)  vcan0  0000017C   [8]  0A A5 00 00 00 00 00 00
(001.726681)  vcan0  00000130   [8]  00 00 00 00 00 00 00 00
(001.732077)  vcan0  00000002   [8]  00 00 00 00 00 00 00 00
(001.732285)  vcan0  00000130   [8]  00 00 00 00 00 00 00 00
(001.732505)  vcan0  0000014A   [8]  00 00 00 78 3B AC 15 9C
(001.732716)  vcan0  00000309   [8]  09 AF 00 00 00 00 00 00
(001.732935)  vcan0  0000017C   [8]  14 B5 00 00 00 00 00 00
(001.737882)  vcan0  0000014A   [8]  00 00 00 78 2E 73 1B DE
(001.738091)  vcan0  00000130   [8]  00 00 00 00 00 00 00 00
(001.738311)  vcan0  0000017C   [8]  14 EB 00 00 00 00 00 00
(001.738521)  vcan0  00000309   [8]  09 AF 00 00 00 00 00 00
(001.743870)  vcan0  0000014A   [8]  00 00 00 78 27 2A 34 20
(001.744094)  vcan0  0000017C   [8]  1F 0E 00 00 00 00 00 00
(001.744301)  vcan0  00000130   [8]  00 00 00 00 00 00 00 00
(001.744511)  vcan0  00000309   [8]  09 A5 00 00 00 00 00 00
(001.749861)  vcan0  0000018F   [8]  00 00 00 00 00 00 00 00
(001.750087)  vcan0  000001A3   [8]  00 00 00 00 00 00 00 00
(001.750295)  vcan0  00000130   [8]  00 00 00 00 00 00 00 00
(001.750515)  vcan0  0000017C   [8]  1F 22 00 00 00 00 00 00
(001.750725)  vcan0  0000014A   [8]  00 00 00 78 19 E8 DD 80
(001.750937)  vcan0  00000309   [8]  09 A5 00 00 00 00 00 00
(001.755860)  vcan0  00000309   [8]  09 9B 00 00 00 00 00 00
(001.756075)  vcan0  0000014A   [8]  00 00 00 78 0E 0D 9C F4
(001.756293)  vcan0  0000017C   [8]  29 0A 00 00 00 00 00 00
(001.756500)  vcan0  00000130   [8]  00 00 00 00 00 00 00 00
(001.761979)  vcan0  0000017C   [8]  28 C0 00 00 00 00 00 00
(001.762188)  vcan0  00000130   [8]  00 00 00 00 00 00 00 00
(001.762399)  vcan0  00000309   [8]  09 9C 00 00 00 00 00 00
(001.762609)  vcan0  0000014A   [8]  00 00 00 7D FE 0A 4E B6
(001.768077)  vcan0  0000017C   [8]  32 28 00 00 00 00 00 00
(001.768290)  vcan0  0000014A   [8]  00 00 00 79 E2 93 09 6C
(001.768496)  vcan0  00000130   [8]  00 00 00 00 00 00 00 00
(001.768706)  vcan0  00000309   [8]  09 92 00 00 00 00 00 00
(001.773997)  vcan0  00000309   [8]  09 93 00 00 00 00 00 00
(001.774221)  vcan0  0000017C   [8]  31 4C 00 00 00 00 00 00
(001.774431)  vcan0  0000014A   [8]  00 00 00 79 CC 4B 57 44
(001.774637)  vcan0  00000130   [8]  00 00 00 00 00 00 00 00
(001.779902)  vcan0  0000014A   [8]  00 00 00 79 BC 2A 24 DC
(001.780114)  vcan0  00000130   [8]  00 00 00 00 00 00 00 00
(001.780340)  vcan0  0000017C   [8]  39 F7 00 00 00 00 00 00
(001.780550)  vcan0  00000309   [8]  09 8B 00 00 00 00 00 00
(001.785916)  vcan0  0000017C   [8]  38 57 00 00 00 00 00 00
(001.786132)  vcan0  0000014A   [8]  00 00 00 79 A6 DD 52 B4
(001.786346)  vcan0  00000309   [8]  09 8D 00 00 00 00 00 00
(001.786553)  vcan0  00000130   [8]  00 00 00 00 00 00 00 00
(001.791951)  vcan0  00000130   [8]  00 00 00 00 00 00 00 00
(001.792195)  vcan0  0000017C   [8]  40 0E 00 00 00 00 00 00
(001.792408)  vcan0  00000309   [8]  09 85 00 00 00 00 00 00
(001.792619)  vcan0  0000014A   [8]  00 00 00 79 91 EF 58 20
(001.797960)  vcan0  00000309   [8]  09 88 00 00 00 00 00 00
(001.798175)  vcan0  0000014A   [8]  00 00 00 79 7C 4B 77 6C
(001.798395)  vcan0  0000017C   [8]  3D 81 00 00 00 00 00 00
(001.798602)  vcan0  00000130   [8]  00 00 00 00 00 00 00 00
(001.804105)  vcan0  00000130   [8]  00 00 00 00 00 00 00 00
(001.804353)  vcan0  0000014A   [8]  00 00 00 79 6B 15 27 DA
(001.804580)  vcan0  00000309   [8]  09 81 00 00 00 00 00 00
(001.804818)  vcan0  0000017C   [8]  44 23 00 00 00 00 00 00
(001.810020)  vcan0  0000017C   [8]  40 8F 00 00 00 00 00 00
(001.810241)  vcan0  00000309   [8]  09 85 00 00 00 00 00 00
(001.810452)  vcan0  0000014A   [8]  00 00 00 79 54 BD 99 20
(001.810659)  vcan0  00000130   [8]  00 00 00 00 00 00 00 00
(001.815935)  vcan0  0000017C   [8]  46 0F 00 00 00 00 00 00
(001.816146)  vcan0  00000130   [8]  00 00 00 00 00 00 00 00
(001.816359)  vcan0  0000014A   [8]  00 00 00 79 41 39 5C 9C
(001.816570)  vcan0  00000309   [8]  09 7F 00 00 00 00 00 00
(001.822038)  vcan0  0000014A   [8]  00 00 00 79 2C AD 8B 72
(001.822250)  vcan0  00000130   [8]  00 00 00 00 00 00 00 00
(001.822476)  vcan0  0000017C   [8]  41 6A 00 00 00 00 00 00
(001.822689)  vcan0  00000309   [8]  09 84 00 00 00 00 00 00
(001.827987)  vcan0  00000130   [8]  00 00 00 00 00 00 00 00
(001.828228)  vcan0  0000017C   [8]  45 CA 00 00 00 00 00 00
(001.828442)  vcan0  0000014A   [8]  00 00 00 79 19 D9 24 14
(001.828652)  vcan0  00000309   [8]  09 80 00 00 00 00 00 00
(001.833947)  vcan0  00000130   [8]  00 00 00 00 00 00 00 00
(001.834176)  vcan0  0000014A   [8]  00 00 00 79 05 7A 12 30
(001.834400)  vcan0  0000017C   [8]  40 19 00 00 00 00 00 00
(001.834611)  vcan0  00000309   [8]  09 85 00 00 00 00 00 00
(001.840016)  vcan0  00000309   [8]  09 82 00 00 00 00 00 00
(001.840229)  vcan0  00000130   [8]  00 00 00 00 00 00 00 00
(001.840453)  vcan0  0000017C   [8]  43 6E 00 00 00 00 00 00
(001.840666)  vcan0  0000014A   [8]  00 00 00 78 F5 6B CC FC
(001.845912)  vcan0  00000130   [8]  00 00 00 00 00 00 00 00
(001.846136)  vcan0  0000014A   [8]  00 00 00 78 DF 92 76 80
(001.846348)  vcan0  00000309   [8]  09 89 00 00 00 00 00 00
(001.846568)  vcan0  0000017C   [8]  3C CA 00 00 00 00 00 00
(001.851902)  vcan0  00000309   [8]  09 86 00 00 00 00 00 00
(001.852126)  vcan0  0000017C   [8]  3F 3B 00 00 00 00 00 00
(001.852337)  vcan0  0000014A   [8]  00 00 00 78 D0 8C 4C FE
(001.852544)  vcan0  00000130   [8]  00 00 00 00 00 00 00 00
(001.857894)  vcan0  00000130   [8]  00 00 00 00 00 00 00 00
(001.858124)  vcan0  0000014A   [8]  00 00 00 78 BD 4C 07 E8
(001.858335)  vcan0  00000309   [8]  09 8E 00 00 00 00 00 00
(001.858555)  vcan0  0000017C   [8]  37 D2 00 00 00 00 00 00
(001.863943)  vcan0  0000017C   [8]  39 93 00 00 00 00 00 00
(001.864160)  vcan0  0000014A   [8]  00 00 00 78 AD 7D F1 92
(001.864367)  vcan0  00000130   [8]  00 00 00 00 00 00 00 00
(001.864578)  vcan0  00000309   [8]  09 8C 00 00 00 00 00 00
(001.869909)  vcan0  0000017C   [8]  31 A0 00 00 00 00 00 00
(001.870122)  vcan0  00000309   [8]  09 94 00 00 00 00 00 00
(001.870329)  vcan0  00000130   [8]  00 00 00 00 00 00 00 00
(001.870540)  vcan0  0000014A   [8]  00 00 00 78 9C AB E0 96
(001.875922)  vcan0  00000309   [8]  09 93 00 00 00 00 00 00
(001.876131)  vcan0  00000130   [8]  00 00 00 00 00 00 00 00
(001.876342)  vcan0  0000014A   [8]  00 00 00 78 8C 30 73 0E
(001.876562)  vcan0  0000017C   [8]  32 F0 00 00 00 00 00 00
(001.881842)  vcan0  0000014A   [8]  00 00 00 78 7E 46 67 82
(001.882056)  vcan0  00000309   [8]  09 9B 00 00 00 00 00 00
(001.882263)  vcan0  00000130   [8]  00 00 00 00 00 00 00 00
(001.882485)  vcan0  0000017C   [8]  2A B7 00 00 00 00 00 00
(001.887831)  vcan0  0000017C   [8]  2B D9 00 00 00 00 00 00
(001.888045)  vcan0  00000309   [8]  09 9A 00 00 00 00 00 00
(001.888261)  vcan0  0000014A   [8]  00 00 00 78 70 D1 90 DA
(001.888467)  vcan0  00000130   [8]  00 00 00 00 00 00 00 00
(001.893948)  vcan0  0000017C   [8]  23 9E 00 00 00 00 00 00
(001.894157)  vcan0  00000130   [8]  00 00 00 00 00 00 00 00
(001.894369)  vcan0  0000014A   [8]  00 00 00 78 62 EF EE FE
(001.894580)  vcan0  00000309   [8]  09 A2 00 00 00 00 00 00
(001.900053)  vcan0  00000309   [8]  09 A0 00 00 00 00 00 00
(001.900262)  vcan0  00000130   [8]  00 00 00 00 00 00 00 00
(001.900484)  vcan0  0000017C   [8]  24 D2 00 00 00 00 00 00
(001.900696)  vcan0  0000014A   [8]  00 00 00 78 56 FB 68 16
(001.906300)  vcan0  00000309   [8]  09 A8 00 00 00 00 00 00
(001.906522)  vcan0  0000017C   [8]  1C D7 00 00 00 00 00 00
(001.906733)  vcan0  0000014A   [8]  00 00 00 78 45 E3 8A 84
(001.906939)  vcan0  00000130   [8]  00 00 00 00 00 00 00 00
(001.912089)  vcan0  0000017C   [8]  1E 56 00 00 00 00 00 00
(001.912307)  vcan0  0000014A   [8]  00 00 00 78 3B B2 D0 90
(001.912518)  vcan0  00000309   [8]  09 A7 00 00 00 00 00 00
(001.912724)  vcan0  00000130   [8]  00 00 00 00 00 00 00 00
(001.918186)  vcan0  0000014A   [8]  00 00 00 78 30 7B 4D AE
(001.918410)  vcan0  0000017C   [8]  16 D1 00 00 00 00 00 00
(001.918621)  vcan0  00000309   [8]  09 AE 00 00 00 00 00 00
(001.918827)  vcan0  00000130   [8]  00 00 00 00 00 00 00 00
(001.924161)  vcan0  00000309   [8]  09 AC 00 00 00 00 00 00
(001.924385)  vcan0  0000017C   [8]  18 CE 00 00 00 00 00 00
(001.924597)  vcan0  0000014A   [8]  00 00 00 78 23 0E 03 84
(001.924803)  vcan0  00000130   [8]  00 00 00 00 00 00 00 00
(001.929971)  vcan0  00000130   [8]  00 00 00 00 00 00 00 00
(001.930191)  vcan0  00000309   [8]  09 B3 00 00 00 00 00 00
(001.930412)  vcan0  0000017C   [8]  11 E6 00 00 00 00 00 00
(001.930622)  vcan0  0000014A   [8]  00 00 00 78 19 9C 68 98
(001.935965)  vcan0  00000130   [8]  00 00 00 00 00 00 00 00
(001.936189)  vcan0  00000309   [8]  09 B0 00 00 00 00 00 00
(001.936408)  vcan0  0000017C   [8]  14 81 00 00 00 00 00 00
(001.936619)  vcan0  0000014A   [8]  00 00 00 78 0B D6 09 D4
(001.941889)  vcan0  00000309   [8]  09 B6 00 00 00 00 00 00
(001.942104)  vcan0  0000014A   [8]  00 00 00 78 02 32 D1 FE
(001.942324)  vcan0  0000017C   [8]  0E 4E 00 00 00 00 00 00
(001.942531)  vcan0  00000130   [8]  00 00 00 00 00 00 00 00
(001.947971)  vcan0  0000014A   [8]  00 00 00 77 FB A1 20 D2
(001.948181)  vcan0  00000130   [8]  00 00 00 00 00 00 00 00
(001.948401)  vcan0  0000017C   [8]  11 9D 00 00 00 00 00 00
(001.948613)  vcan0  00000309   [8]  09 B3 00 00 00 00 00 00
(001.954741)  vcan0  0000017C   [8]  0C 25 00 00 00 00 00 00
(001.954968)  vcan0  00000309   [8]  09 B8 00 00 00 00 00 00
(001.955188)  vcan0  00000130   [8]  00 00 00 00 00 00 00 00
(001.955407)  vcan0  0000014A   [8]  00 00 00 77 ED AD A6 D2
(001.960184)  vcan0  0000017C   [8]  10 2D 00 00 00 00 00 00
(001.960394)  vcan0  00000130   [8]  00 00 00 00 00 00 00 00
(001.960607)  vcan0  0000014A   [8]  00 00 00 77 E9 41 6B F4
(001.960817)  vcan0  00000309   [8]  09 B4 00 00 00 00 00 00
(001.967125)  vcan0  0000014A   [8]  00 00 00 77 DF 17 6B C8
(001.967354)  vcan0  00000309   [8]  09 B9 00 00 00 00 00 00
(001.967563)  vcan0  00000130   [8]  00 00 00 00 00 00 00 00
(001.967786)  vcan0  0000017C   [8]  0B 6C 00 00 00 00 00 00
(001.972554)  vcan0  0000017C   [8]  10 27 00 00 00 00 00 00
(001.972763)  vcan0  00000130   [8]  00 00 00 00 00 00 00 00
(001.972974)  vcan0  00000309   [8]  09 B4 00 00 00 00 00 00
(001.973184)  vcan0  0000014A   [8]  00 00 00 77 D7 36 C7 BC
(001.978208)  vcan0  0000014A   [8]  00 00 00 7B 1D 5C 73 78
(001.978434)  vcan0  0000017C   [8]  0C 0A 00 00 00 00 00 00
(001.978641)  vcan0  00000002   [8]  00 00 00 00 00 00 00 00
(001.978850)  vcan0  00000309   [8]  09 B8 00 00 00 00 00 00
(001.979055)  vcan0  00000130   [8]  00 00 00 00 00 00 00 00
(001.984017)  vcan0  00000309   [8]  09 B3 00 00 00 00 00 00
(001.984241)  vcan0  0000017C   [8]  11 68 00 00 00 00 00 00
(001.984447)  vcan0  00000130   [8]  00 00 00 00 00 00 00 00
(001.984657)  vcan0  0000014A   [8]  00 00 00 78 D3 3C 57 B2
(001.989924)  vcan0  00000130   [8]  00 00 00 00 00 00 00 00
(001.990164)  vcan0  0000017C   [8]  0D D7 00 00 00 00 00 00
(001.990377)  vcan0  0000014A   [8]  00 00 00 78 C8 AB 28 E4
(001.990586)  vcan0  00000309   [8]  09 B7 00 00 00 00 00 00
(001.996143)  vcan0  00000130   [8]  00 00 00 00 00 00 00 00
(001.996373)  vcan0  0000017C   [8]  13 C1 00 00 00 00 00 00
(001.996586)  vcan0  00000309   [8]  09 B1 00 00 00 00 00 00
(001.996796)  vcan0  0000014A   [8]  00 00 00 78 BB C3 80 88
(002.002046)  vcan0  00000309   [8]  09 B4 00 00 00 00 00 00
(002.002284)  vcan0  0000014A   [8]  00 00 00 78 AE 23 FF CA
(002.002522)  vcan0  0000017C   [8]  10 9F 00 00 00 00 00 00
(002.002736)  vcan0  00000130   [8]  00 00 00 00 00 00 00 00
(002.008131)  vcan0  0000014A   [8]  00 00 00 78 A0 57 38 BC
(002.008340)  vcan0  00000130   [8]  00 00 00 00 00 00 00 00
(002.008553)  vcan0  00000309   [8]  09 AD 00 00 00 00 00 00
(002.008776)  vcan0  0000017C   [8]  16 F6 00 00 00 00 00 00
(002.014018)  vcan0  0000017C   [8]  14 24 00 00 00 00 00 00
(002.014232)  vcan0  00000309   [8]  09 B0 00 00 00 00 00 00
(002.014444)  vcan0  0000014A   [8]  00 00 00 78 93 B4 0A 32
(002.014650)  vcan0  00000130   [8]  00 00 00 00 00 00 00 00
(002.020010)  vcan0  0000017C   [8]  1A C7 00 00 00 00 00 00
(002.020224)  vcan0  00000130   [8]  00 00 00 00 00 00 00 00
(002.020436)  vcan0  00000309   [8]  09 AA 00 00 00 00 00 00
(002.020647)  vcan0  0000014A   [8]  00 00 00 78 86 AF A2 0E
(002.026126)  vcan0  00000130   [8]  00 00 00 00 00 00 00 00
(002.026349)  vcan0  0000014A   [8]  00 00 00 78 79 C8 48 DC
(002.026569)  vcan0  0000017C   [8]  18 21 00 00 00 00 00 00
(002.026780)  vcan0  00000309   [8]  09 AC 00 00 00 00 00 00
(002.031967)  vcan0  0000014A   [8]  00 00 00 78 6B F7 9D 4C
(002.032191)  vcan0  0000017C   [8]  1E EC 00 00 00 00 00 00
(002.032399)  vcan0  00000130   [8]  00 00 00 00 00 00 00 00
(002.032610)  vcan0  00000309   [8]  09 A6 00 00 00 00 00 00
(002.037939)  vcan0  0000017C   [8]  1C 52 00 00 00 00 00 00
(002.038152)  vcan0  00000309   [8]  09 A8 00 00 00 00 00 00
(002.038358)  vcan0  00000130   [8]  00 00 00 00 00 00 00 00
(002.038568)  vcan0  0000014A   [8]  00 00 00 78 60 19 4F 9A
(002.043834)  vcan0  0000017C   [8]  23 21 00 00 00 00 00 00
(002.044048)  vcan0  00000309   [8]  09 A1 00 00 00 00 00 00
(002.044259)  vcan0  0000014A   [8]  00 00 00 78 54 FB AC C2
(002.044465)  vcan0  00000130   [8]  00 00 00 00 00 00 00 00
(002.049878)  vcan0  0000017C   [8]  20 72 00 00 00 00 00 00
(002.050087)  vcan0  00000130   [8]  00 00 00 00 00 00 00 00
(002.050297)  vcan0  00000309   [8]  09 A4 00 00 00 00 00 00
(002.050507)  vcan0  0000014A   [8]  00 00 00 78 48 8B C2 E2
(002.055968)  vcan0  0000017C   [8]  27 23 00 00 00 00 00 00
(002.056177)  vcan0  00000130   [8]  00 00 00 00 00 00 00 00
(002.056389)  vcan0  0000014A   [8]  00 00 00 78 3C 02 3A 2A
(002.056598)  vcan0  00000309   [8]  09 9E 00 00 00 00 00 00
(002.061860)  vcan0  0000014A   [8]  00 00 00 78 32 2B 3C 72
(002.062096)  vcan0  0000017C   [8]  24 44 00 00 00 00 00 00
(002.062350)  vcan0  00000309   [8]  09 A0 00 00 00 00 00 00
(002.062568)  vcan0  00000130   [8]  00 00 00 00 00 00 00 00
(002.068064)  vcan0  0000014A   [8]  00 00 00 78 27 D0 4D FC
(002.068279)  vcan0  00000130   [8]  00 00 00 00 00 00 00 00
(002.068503)  vcan0  0000017C   [8]  2A B9 00 00 00 00 00 00
(002.068714)  vcan0  00000309   [8]  09 9A 00 00 00 00 00 00
(002.074035)  vcan0  0000014A   [8]  00 00 00 78 1C D1 00 0A
(002.074252)  vcan0  00000130   [8]  00 00 00 00 00 00 00 00
(002.074477)  vcan0  0000017C   [8]  27 91 00 00 00 00 00 00
(002.074691)  vcan0  00000309   [8]  09 9D 00 00 00 00 00 00
(002.079967)  vcan0  0000017C   [8]  2D B2 00 00 00 00 00 00
(002.080184)  vcan0  00000309   [8]  09 97 00 00 00 00 00 00
(002.080392)  vcan0  00000130   [8]  00 00 00 00 00 00 00 00
(002.080609)  vcan0  0000014A   [8]  00 00 00 78 0F 75 19 98
(002.086114)  vcan0  00000130   [8]  00 00 00 00 00 00 00 00
(002.086352)  vcan0  0000017C   [8]  2A 2F 00 00 00 00 00 00
(002.086566)  vcan0  0000014A   [8]  00 00 00 78 08 C7 03 74
(002.086778)  vcan0  00000309   [8]  09 9B 00 00 00 00 00 00
(002.092068)  vcan0  0000014A   [8]  00 00 00 77 FD 5B F6 10
(002.092279)  vcan0  00000130   [8]  00 00 00 00 00 00 00 00
(002.092503)  vcan0  0000017C   [8]  2F EA 00 00 00 00 00 00
(002.092715)  vcan0  00000309   [8]  09 95 00 00 00 00 00 00
(002.098271)  vcan0  00000130   [8]  00 00 00 00 00 00 00 00
(002.098498)  vcan0  0000014A   [8]  00 00 00 77 F5 BF 5F 92
(002.098811)  vcan0  0000017C   [8]  2B FE 00 00 00 00 00 00
(002.099023)  vcan0  00000309   [8]  09 99 00 00 00 00 00 00
(002.104348)  vcan0  0000014A   [8]  00 00 00 77 EE 83 11 B2
(002.104559)  vcan0  00000130   [8]  00 00 00 00 00 00 00 00
(002.104849)  vcan0  00000309   [8]  09 94 00 00 00 00 00 00
(002.105069)  vcan0  0000017C   [8]  31 48 00 00 00 00 00 00
(002.110212)  vcan0  0000017C   [8]  2C EE 00 00 00 00 00 00
(002.110430)  vcan0  00000309   [8]  09 98 00 00 00 00 00 00
(002.110643)  vcan0  0000014A   [8]  00 00 00 77 E3 CF AF 4A
(002.110895)  vcan0  00000130   [8]  00 00 00 00 00 00 00 00
(002.116444)  vcan0  00000309   [8]  09 93 00 00 00 00 00 00
(002.116663)  vcan0  00000130   [8]  00 00 00 00 00 00 00 00
(002.116902)  vcan0  0000017C   [8]  31 C4 00 00 00 00 00 00
(002.117143)  vcan0  0000014A   [8]  00 00 00 77 DD 5D 02 CE
(002.122223)  vcan0  0000014A   [8]  00 00 00 77 D3 05 AA DC
(002.122453)  vcan0  00000309   [8]  09 98 00 00 00 00 00 00
(002.122667)  vcan0  00000130   [8]  00 00 00 00 00 00 00 00
(002.122908)  vcan0  0000017C   [8]  2C FC 00 00 00 00 00 00
(002.128258)  vcan0  0000017C   [8]  31 62 00 00 00 00 00 00
(002.128497)  vcan0  00000130   [8]  00 00 00 00 00 00 00 00
(002.128737)  vcan0  0000014A   [8]  00 00 00 77 CD D6 CA BE
(002.128962)  vcan0  00000309   [8]  09 94 00 00 00 00 00 00
(002.134594)  vcan0  0000017C   [8]  2C 33 00 00 00 00 00 00
(002.134806)  vcan0  00000130   [8]  00 00 00 00 00 00 00 00
(002.135018)  vcan0  0000014A   [8]  00 00 00 77 C5 04 A2 86
(002.135246)  vcan0  00000309   [8]  09 99 00 00 00 00 00 00
(002.140755)  vcan0  0000014A   [8]  00 00 00 77 C1 7D BB E6
(002.140975)  vcan0  00000130   [8]  00 00 00 00 00 00 00 00
(002.141226)  vcan0  0000017C   [8]  30 35 00 00 00 00 00 00
(002.141439)  vcan0  00000309   [8]  09 95 00 00 00 00 00 00
(002.147017)  vcan0  0000014A   [8]  00 00 00 77 B8 C1 F8 8E
(002.147229)  vcan0  00000130   [8]  00 00 00 00 00 00 00 00
(002.147443)  vcan0  00000309   [8]  09 9A 00 00 00 00 00 00
(002.147663)  vcan0  0000017C   [8]  2A AF 00 00 00 00 00 00
(002.152777)  vcan0  0000017C   [8]  2E 5F 00 00 00 00 00 00
(002.152992)  vcan0  00000309   [8]  09 97 00 00 00 00 00 00
(002.153199)  vcan0  00000130   [8]  00 00 00 00 00 00 00 00
(002.153411)  vcan0  0000014A   [8]  00 00 00 77 B2 1E DB 82
(002.158360)  vcan0  0000017C   [8]  28 97 00 00 00 00 00 00
(002.158569)  vcan0  00000130   [8]  00 00 00 00 00 00 00 00
(002.158879)  vcan0  0000014A   [8]  00 00 00 77 AE 0A E7 C4
(002.159089)  vcan0  00000309   [8]  09 9D 00 00 00 00 00 00
(002.164173)  vcan0  00000130   [8]  00 00 00 00 00 00 00 00
(002.164395)  vcan0  0000014A   [8]  00 00 00 77 A5 30 48 7A
(002.164621)  vcan0  0000017C   [8]  2C 0A 00 00 00 00 00 00
(002.164870)  vcan0  00000309   [8]  09 99 00 00 00 00 00 00
(002.170193)  vcan0  00000130   [8]  00 00 00 00 00 00 00 00
(002.170435)  vcan0  00000309   [8]  09 9F 00 00 00 00 00 00
(002.170648)  vcan0  0000014A   [8]  00 00 00 77 A0 C7 50 E2
(002.170868)  vcan0  0000017C   [8]  26 17 00 00 00 00 00 00
(002.176598)  vcan0  0000017C   [8]  29 67 00 00 00 00 00 00
(002.176809)  vcan0  00000130   [8]  00 00 00 00 00 00 00 00
(002.177022)  vcan0  0000014A   [8]  00 00 00 77 9E B4 DF 12
(002.177233)  vcan0  00000309   [8]  09 9C 00 00 00 00 00 00
(002.182902)  vcan0  0000017C   [8]  23 62 00 00 00 00 00 00
(002.183144)  vcan0  0000014A   [8]  00 00 00 77 98 2A DE 7A
(002.183356)  vcan0  00000130   [8]  00 00 00 00 00 00 00 00
(002.183570)  vcan0  00000309   [8]  09 A2 00 00 00 00 00 00
(002.188295)  vcan0  0000017C   [8]  26 A7 00 00 00 00 00 00
(002.188517)  vcan0  00000309   [8]  09 9E 00 00 00 00 00 00
(002.188728)  vcan0  00000130   [8]  00 00 00 00 00 00 00 00
(002.188944)  vcan0  0000014A   [8]  00 00 00 77 90 EA C5 B4
(002.194184)  vcan0  00000130   [8]  00 00 00 00 00 00 00 00
(002.194415)  vcan0  0000014A   [8]  00 00 00 77 91 0D 1C 38
(002.194628)  vcan0  00000309   [8]  09 A4 00 00 00 00 00 00
(002.194848)  vcan0  0000017C   [8]  20 A9 00 00 00 00 00 00
(002.200454)  vcan0  00000309   [8]  09 A1 00 00 00 00 00 00
(002.200674)  vcan0  0000014A   [8]  00 00 00 00 5B 78 D3 58
(002.200896)  vcan0  0000017C   [8]  23 FB 00 00 00 00 00 00
(002.201104)  vcan0  00000130   [8]  00 00 00 00 00 00 00 00
(002.206169)  vcan0  00000130   [8]  00 00 00 00 00 00 00 00
(002.206410)  vcan0  0000017C   [8]  1E 9A 00 00 00 00 00 00
(002.206627)  vcan0  0000014A   [8]  00 00 00 4B C3 63 01 A4
(002.206839)  vcan0  00000309   [8]  09 A6 00 00 00 00 00 00
(002.211996)  vcan0  00000130   [8]  00 00 00 00 00 00 00 00
(002.212232)  vcan0  0000017C   [8]  21 CA 00 00 00 00 00 00
(002.212444)  vcan0  0000014A   [8]  00 00 00 4C 56 1E BD 02
(002.212655)  vcan0  00000309   [8]  09 A3 00 00 00 00 00 00
(002.218664)  vcan0  0000017C   [8]  1C 6C 00 00 00 00 00 00
(002.218886)  vcan0  00000130   [8]  00 00 00 00 00 00 00 00
(002.219113)  vcan0  0000014A   [8]  00 00 00 4D 47 D7 97 FA
(002.219336)  vcan0  00000309   [8]  09 A8 00 00 00 00 00 00
(002.224570)  vcan0  00000002   [8]  00 00 00 00 00 00 00 00
(002.224823)  vcan0  0000017C   [8]  20 0D 00 00 00 00 00 00
(002.225037)  vcan0  00000130   [8]  00 00 00 00 00 00 00 00
(002.225261)  vcan0  0000014A   [8]  00 00 00 4E 11 AC 7F 3A
(002.225483)  vcan0  00000309   [8]  09 A5 00 00 00 00 00 00
(002.230136)  vcan0  00000130   [8]  00 00 00 00 00 00 00 00
(002.230372)  vcan0  0000014A   [8]  00 00 00 4F 2B 65 D3 7C
(002.230611)  vcan0  0000017C   [8]  1A C0 00 00 00 00 00 00
(002.230850)  vcan0  00000309   [8]  09 AA 00 00 00 00 00 00
(002.236243)  vcan0  0000014A   [8]  00 00 00 50 19 EB FD A0
(002.236473)  vcan0  0000017C   [8]  1E 9C 00 00 00 00 00 00
(002.236687)  vcan0  00000309   [8]  09 A6 00 00 00 00 00 00
(002.236896)  vcan0  00000130   [8]  00 00 00 00 00 00 00 00
(002.242229)  vcan0  0000014A   [8]  00 00 00 51 49 4E 79 02
(002.242451)  vcan0  00000309   [8]  09 AB 00 00 00 00 00 00
(002.242658)  vcan0  00000130   [8]  00 00 00 00 00 00 00 00
(002.242878)  vcan0  0000017C   [8]  19 7C 00 00 00 00 00 00
(002.248236)  vcan0  0000017C   [8]  1D 9C 00 00 00 00 00 00
(002.248458)  vcan0  000001A4   [8]  00 67 00 00 00 00 00 00
(002.248676)  vcan0  00000326   [8]  00 00 00 00 00 00 00 00
(002.248883)  vcan0  00000130   [8]  00 00 00 00 00 00 00 00
(002.249181)  vcan0  00000309   [8]  09 A7 00 00 00 00 00 00
(002.249396)  vcan0  0000037B   [8]  00 00 00 00 00 00 00 00
(002.249606)  vcan0  0000014A   [8]  00 00 00 52 4E 4E 2C 6C
(002.249822)  vcan0  00000374   [8]  00 00 00 00 00 00 00 00
(002.250028)  vcan0  0000018F   [8]  00 00 00 00 00 00 00 00
(002.250240)  vcan0  000001A3   [8]  00 00 00 00 00 00 00 00
(002.254368)  vcan0  0000014A   [8]  00 00 00 53 8B F3 70 A2
(002.254578)  vcan0  00000130   [8]  00 00 00 00 00 00 00 00
(002.254790)  vcan0  00000309   [8]  09 AC 00 00 00 00 00 00
(002.255108)  vcan0  0000017C   [8]  18 B3 00 00 00 00 00 00
(002.260128)  vcan0  0000017C   [8]  1D 18 00 00 00 00 00 00
(002.260342)  vcan0  0000014A   [8]  00 00 00 54 A3 B0 2E 00
(002.260549)  vcan0  00000130   [8]  00 00 00 00 00 00 00 00
(002.260849)  vcan0  00000309   [8]  09 A8 00 00 00 00 00 00
(002.266084)  vcan0  0000014A   [8]  00 00 00 55 F0 B5 BD 3C
(002.266295)  vcan0  00000130   [8]  00 00 00 00 00 00 00 00
(002.266524)  vcan0  0000017C   [8]  18 69 00 00 00 00 00 00
(002.266765)  vcan0  00000309   [8]  09 AC 00 00 00 00 00 00
(002.272520)  vcan0  0000014A   [8]  00 00 00 57 0B 23 5D D8
(002.272735)  vcan0  00000309   [8]  09 A8 00 00 00 00 00 00
(002.272994)  vcan0  00000130   [8]  00 00 00 00 00 00 00 00
(002.273214)  vcan0  0000017C   [8]  1D 0F 00 00 00 00 00 00
(002.278595)  vcan0  0000014A   [8]  00 00 00 58 52 34 52 6A
(002.278831)  vcan0  0000017C   [8]  18 99 00 00 00 00 00 00
(002.279040)  vcan0  00000130   [8]  00 00 00 00 00 00 00 00
(002.279252)  vcan0  00000309   [8]  09 AC 00 00 00 00 00 00
(002.284242)  vcan0  0000014A   [8]  00 00 00 59 67 16 43 B4
(002.284453)  vcan0  00000130   [8]  00 00 00 00 00 00 00 00
(002.284670)  vcan0  00000309   [8]  09 A7 00 00 00 00 00 00
(002.284895)  vcan0  0000017C   [8]  1D 7A 00 00 00 00 00 00
(002.290540)  vcan0  0000017C   [8]  19 36 00 00 00 00 00 00
(002.290755)  vcan0  0000014A   [8]  00 00 00 5A A3 6E 4A C4
(002.290971)  vcan0  00000309   [8]  09 AB 00 00 00 00 00 00
(002.291179)  vcan0  00000130   [8]  00 00 00 00 00 00 00 00
(002.296161)  vcan0  0000017C   [8]  1E 49 00 00 00 00 00 00
(002.296371)  vcan0  00000130   [8]  00 00 00 00 00 00 00 00
(002.296582)  vcan0  0000014A   [8]  00 00 00 5B AE 35 A1 B2
(002.296794)  vcan0  00000309   [8]  09 A6 00 00 00 00 00 00
(002.302184)  vcan0  00000130   [8]  00 00 00 00 00 00 00 00
(002.302423)  vcan0  0000017C   [8]  1A 2E 00 00 00 00 00 00
(002.302636)  vcan0  0000014A   [8]  00 00 00 5C DA 73 D4 48
(002.302846)  vcan0  00000309   [8]  09 AA 00 00 00 00 00 00
(002.308221)  vcan0  00000130   [8]  00 00 00 00 00 00 00 00
(002.308441)  vcan0  0000014A   [8]  00 00 00 5D DC 23 4C 88
(002.308652)  vcan0  00000309   [8]  09 A5 00 00 00 00 00 00
(002.308876)  vcan0  0000017C   [8]  1F 6A 00 00 00 00 00 00
(002.314065)  vcan0  0000014A   [8]  00 00 00 5E F9 C9 DF D8
(002.314278)  vcan0  00000130   [8]  00 00 00 00 00 00 00 00
(002.314500)  vcan0  0000017C   [8]  1B 6D 00 00 00 00 00 00
(002.314710)  vcan0  00000309   [8]  09 A9 00 00 00 00 00 00
(002.320289)  vcan0  00000309   [8]  09 A4 00 00 00 00 00 00
(002.320499)  vcan0  00000130   [8]  00 00 00 00 00 00 00 00
(002.320719)  vcan0  0000017C   [8]  20 C6 00 00 00 00 00 00
(002.320931)  vcan0  0000014A   [8]  00 00 00 5F EB 89 B6 F4
(002.326545)  vcan0  00000309   [8]  09 A8 00 00 00 00 00 00
(002.326767)  vcan0  0000017C   [8]  1C DA 00 00 00 00 00 00
(002.326978)  vcan0  0000014A   [8]  00 00 00 60 F8 11 B0 96
(002.327185)  vcan0  00000130   [8]  00 00 00 00 00 00 00 00
(002.332296)  vcan0  00000130   [8]  00 00 00 00 00 00 00 00
(002.332527)  vcan0  0000014A   [8]  00 00 00 61 D7 59 C2 22
(002.332761)  vcan0  0000017C   [8]  22 43 00 00 00 00 00 00
(002.332981)  vcan0  00000309   [8]  09 A2 00 00 00 00 00 00
(002.338937)  vcan0  0000014A   [8]  00 00 00 62 D5 9B 05 1C
(002.339155)  vcan0  00000309   [8]  09 A6 00 00 00 00 00 00
(002.339378)  vcan0  0000017C   [8]  1E 5D 00 00 00 00 00 00
(002.339585)  vcan0  00000130   [8]  00 00 00 00 00 00 00 00
(002.344443)  vcan0  00000130   [8]  00 00 00 00 00 00 00 00
(002.344685)  vcan0  0000014A   [8]  00 00 00 63 A4 E4 C2 FA
(002.344910)  vcan0  00000309   [8]  09 A1 00 00 00 00 00 00
(002.345151)  vcan0  0000017C   [8]  23 C9 00 00 00 00 00 00
(002.350259)  vcan0  00000130   [8]  00 00 00 00 00 00 00 00
(002.350484)  vcan0  00000309   [8]  09 A5 00 00 00 00 00 00
(002.350706)  vcan0  0000017C   [8]  1F DC 00 00 00 00 00 00
(002.350917)  vcan0  0000014A   [8]  00 00 00 64 8F D4 8E 0C
(002.357399)  vcan0  0000017C   [8]  25 3E 00 00 00 00 00 00
(002.357617)  vcan0  00000309   [8]  09 A0 00 00 00 00 00 00
(002.357823)  vcan0  00000130   [8]  00 00 00 00 00 00 00 00
(002.358034)  vcan0  0000014A   [8]  00 00 00 65 52 09 AE BC
(002.362431)  vcan0  00000130   [8]  00 00 00 00 00 00 00 00
(002.362656)  vcan0  00000309   [8]  09 A4 00 00 00 00 00 00
(002.362876)  vcan0  0000017C   [8]  21 41 00 00 00 00 00 00
(002.363090)  vcan0  0000014A   [8]  00 00 00 66 2B AB F2 10
(002.368168)  vcan0  00000130   [8]  00 00 00 00 00 00 00 00
(002.368419)  vcan0  0000014A   [8]  00 00 00 66 E1 75 1D B0
(002.368658)  vcan0  0000017C   [8]  26 8E 00 00 00 00 00 00
(002.368881)  vcan0  00000309   [8]  09 9E 00 00 00 00 00 00
(002.374775)  vcan0  00000309   [8]  09 A2 00 00 00 00 00 00
(002.374995)  vcan0  00000130   [8]  00 00 00 00 00 00 00 00
(002.375223)  vcan0  0000014A   [8]  00 00 00 67 A6 DC EF 36
(002.375461)  vcan0  0000017C   [8]  22 76 00 00 00 00 00 00
(002.380549)  vcan0  00000309   [8]  09 9D 00 00 00 00 00 00
(002.380769)  vcan0  00000130   [8]  00 00 00 00 00 00 00 00
(002.381010)  vcan0  0000014A   [8]  00 00 00 68 4D F2 B0 42
(002.381239)  vcan0  0000017C   [8]  27 A6 00 00 00 00 00 00
(002.386396)  vcan0  0000014A   [8]  00 00 00 69 03 94 A4 3C
(002.386615)  vcan0  00000309   [8]  09 A1 00 00 00 00 00 00
(002.386835)  vcan0  0000017C   [8]  23 6C 00 00 00 00 00 00
(002.387043)  vcan0  00000130   [8]  00 00 00 00 00 00 00 00
(002.392192)  vcan0  00000130   [8]  00 00 00 00 00 00 00 00
(002.392449)  vcan0  0000017C   [8]  28 77 00 00 00 00 00 00
(002.392676)  vcan0  00000309   [8]  09 9C 00 00 00 00 00 00
(002.392900)  vcan0  0000014A   [8]  00 00 00 69 A0 01 FB FA
(002.398682)  vcan0  00000130   [8]  00 00 00 00 00 00 00 00
(002.398932)  vcan0  00000309   [8]  09 A1 00 00 00 00 00 00
(002.399160)  vcan0  0000014A   [8]  00 00 00 6A 4A B4 26 18
(002.399403)  vcan0  0000017C   [8]  24 17 00 00 00 00 00 00
(002.405050)  vcan0  00000309   [8]  09 9C 00 00 00 00 00 00
(002.405279)  vcan0  00000130   [8]  00 00 00 00 00 00 00 00
(002.405521)  vcan0  0000014A   [8]  00 00 00 6A D5 B7 5D E8
(002.405767)  vcan0  0000017C   [8]  28 FA 00 00 00 00 00 00
(002.410938)  vcan0  0000017C   [8]  24 72 00 00 00 00 00 00
(002.411175)  vcan0  00000309   [8]  09 A0 00 00 00 00 00 00
(002.411403)  vcan0  0000014A   [8]  00 00 00 6B 71 37 70 CA
(002.411619)  vcan0  00000130   [8]  00 00 00 00 00 00 00 00
(002.416878)  vcan0  0000014A   [8]  00 00 00 6B F0 FE 8B 9A
(002.417133)  vcan0  0000017C   [8]  29 2B 00 00 00 00 00 00
(002.417350)  vcan0  00000130   [8]  00 00 00 00 00 00 00 00
(002.417575)  vcan0  00000309   [8]  09 9C 00 00 00 00 00 00
(002.423220)  vcan0  00000309   [8]  09 A0 00 00 00 00 00 00
(002.423454)  vcan0  0000017C   [8]  24 7B 00 00 00 00 00 00
(002.423669)  vcan0  0000014A   [8]  00 00 00 6C 7F D7 6F 7E
(002.423909)  vcan0  00000130   [8]  00 00 00 00 00 00 00 00
(002.429315)  vcan0  00000309   [8]  09 9C 00 00 00 00 00 00
(002.429554)  vcan0  0000014A   [8]  00 00 00 6C F7 E8 48 2A
(002.429803)  vcan0  0000017C   [8]  29 0C 00 00 00 00 00 00
(002.430017)  vcan0  00000130   [8]  00 00 00 00 00 00 00 00
(002.435276)  vcan0  00000309   [8]  09 A1 00 00 00 00 00 00
(002.435515)  vcan0  0000017C   [8]  24 38 00 00 00 00 00 00
(002.435736)  vcan0  0000014A   [8]  00 00 00 6D 76 0D BF 26
(002.435948)  vcan0  00000130   [8]  00 00 00 00 00 00 00 00
(002.440889)  vcan0  00000309   [8]  09 9C 00 00 00 00 00 00
(002.441128)  vcan0  0000017C   [8]  28 A5 00 00 00 00 00 00
(002.441360)  vcan0  00000130   [8]  00 00 00 00 00 00 00 00
(002.441586)  vcan0  0000014A   [8]  00 00 00 6D E7 33 F3 D0
(002.446420)  vcan0  0000017C   [8]  23 B2 00 00 00 00 00 00
(002.446656)  vcan0  0000014A   [8]  01 FF FF F6 B1 A0 3C 74
(002.446882)  vcan0  00000309   [8]  09 A1 00 00 00 00 00 00
(002.447100)  vcan0  00000130   [8]  00 00 00 00 00 00 00 00
(002.452561)  vcan0  00000309   [8]  09 9D 00 00 00 00 00 00
(002.452803)  vcan0  0000017C   [8]  28 07 00 00 00 00 00 00
(002.453025)  vcan0  0000014A   [8]  00 00 00 01 58 1A C6 8A
(002.453239)  vcan0  00000130   [8]  00 00 00 00 00 00 00 00
(002.458722)  vcan0  00000130   [8]  00 00 00 00 00 00 00 00
(002.458958)  vcan0  00000309   [8]  09 A1 00 00 00 00 00 00
(002.459185)  vcan0  0000014A   [8]  00 00 00 02 18 1C 3C 1C
(002.459428)  vcan0  0000017C   [8]  23 7A 00 00 00 00 00 00
(002.464894)  vcan0  0000014A   [8]  00 00 00 03 0A 57 C4 30
(002.465116)  vcan0  00000130   [8]  00 00 00 00 00 00 00 00
(002.465360)  vcan0  0000017C   [8]  27 94 00 00 00 00 00 00
(002.465584)  vcan0  00000309   [8]  09 9D 00 00 00 00 00 00
(002.470434)  vcan0  00000130   [8]  00 00 00 00 00 00 00 00
(002.470673)  vcan0  0000017C   [8]  24 12 00 00 00 00 00 00
(002.470895)  vcan0  0000014A   [8]  00 00 00 05 2F 76 C2 8A
(002.471115)  vcan0  00000309   [8]  09 A1 00 00 00 00 00 00
(002.471327)  vcan0  00000002   [8]  00 00 00 00 00 00 00 00
(002.476421)  vcan0  0000014A   [8]  00 00 00 07 2A 53 DC 16
(002.476650)  vcan0  0000017C   [8]  27 DB 00 00 00 00 00 00
(002.476863)  vcan0  00000309   [8]  09 9D 00 00 00 00 00 00
(002.477070)  vcan0  00000130   [8]  00 00 00 00 00 00 00 00
(002.482413)  vcan0  0000014A   [8]  00 00 00 09 FB 52 9B 32
(002.482624)  vcan0  00000130   [8]  00 00 00 00 00 00 00 00
(002.482846)  vcan0  0000017C   [8]  24 22 00 00 00 00 00 00
(002.483058)  vcan0  00000309   [8]  09 A1 00 00 00 00 00 00
(002.488976)  vcan0  0000014A   [8]  00 00 00 0C 5E DC C4 52
(002.489228)  vcan0  0000017C   [8]  28 1D 00 00 00 00 00 00
(002.489453)  vcan0  00000309   [8]  09 9D 00 00 00 00 00 00
(002.489667)  vcan0  00000130   [8]  00 00 00 00 00 00 00 00
(002.494634)  vcan0  0000014A   [8]  00 00 00 0F 7B D3 DB 68
(002.494863)  vcan0  00000309   [8]  09 A1 00 00 00 00 00 00
(002.495099)  vcan0  0000017C   [8]  23 BC 00 00 00 00 00 00
(002.495325)  vcan0  00000130   [8]  00 00 00 00 00 00 00 00
(002.500397)  vcan0  00000130   [8]  00 00 00 00 00 00 00 00
(002.500648)  vcan0  0000014A   [8]  00 00 00 12 17 DB 21 04
(002.500892)  vcan0  0000017C   [8]  27 BC 00 00 00 00 00 00
(002.501120)  vcan0  00000309   [8]  09 9D 00 00 00 00 00 00
(002.506549)  vcan0  00000309   [8]  09 A2 00 00 00 00 00 00
(002.506761)  vcan0  00000130   [8]  00 00 00 00 00 00 00 00
(002.506974)  vcan0  0000014A   [8]  00 00 00 15 84 04 87 90
(002.507194)  vcan0  0000017C   [8]  22 F1 00 00 00 00 00 00
(002.512203)  vcan0  0000017C   [8]  26 EB 00 00 00 00 00 00
(002.512424)  vcan0  0000014A   [8]  00 00 00 18 64 89 B1 F6
(002.512636)  vcan0  00000130   [8]  00 00 00 00 00 00 00 00
(002.512849)  vcan0  00000309   [8]  09 9E 00 00 00 00 00 00
(002.518306)  vcan0  00000309   [8]  09 A3 00 00 00 00 00 00
(002.518535)  vcan0  0000017C   [8]  21 DF 00 00 00 00 00 00
(002.518742)  vcan0  00000130   [8]  00 00 00 00 00 00 00 00
(002.519055)  vcan0  0000014A   [8]  00 00 00 1B D4 A1 81 94
(002.524737)  vcan0  00000309   [8]  09 9F 00 00 00 00 00 00
(002.525036)  vcan0  00000130   [8]  00 00 00 00 00 00 00 00
(002.525257)  vcan0  0000017C   [8]  25 D3 00 00 00 00 00 00
(002.525470)  vcan0  0000014A   [8]  00 00 00 1E C1 9A 1F 90
(002.530621)  vcan0  0000014A   [8]  00 00 00 22 29 85 F3 74
(002.530852)  vcan0  00000309   [8]  09 A4 00 00 00 00 00 00
(002.531091)  vcan0  0000017C   [8]  20 A7 00 00 00 00 00 00
(002.531320)  vcan0  00000130   [8]  00 00 00 00 00 00 00 00
(002.536705)  vcan0  00000130   [8]  00 00 00 00 00 00 00 00
(002.536934)  vcan0  00000309   [8]  09 A0 00 00 00 00 00 00
(002.537159)  vcan0  0000017C   [8]  24 9B 00 00 00 00 00 00
(002.537373)  vcan0  0000014A   [8]  00 00 00 25 0A 85 EF 4C
(002.542466)  vcan0  0000014A   [8]  00 00 00 28 55 F7 D5 C2
(002.542702)  vcan0  0000017C   [8]  1F 66 00 00 00 00 00 00
(002.542914)  vcan0  00000309   [8]  09 A5 00 00 00 00 00 00
(002.543121)  vcan0  00000130   [8]  00 00 00 00 00 00 00 00
(002.548566)  vcan0  0000017C   [8]  23 64 00 00 00 00 00 00
(002.548776)  vcan0  00000130   [8]  00 00 00 00 00 00 00 00
(002.548988)  vcan0  0000014A   [8]  00 00 00 2B 26 50 1B 8C
(002.549198)  vcan0  00000309   [8]  09 A1 00 00 00 00 00 00
(002.554460)  vcan0  00000130   [8]  00 00 00 00 00 00 00 00
(002.554691)  vcan0  0000017C   [8]  1E 37 00 00 00 00 00 00
(002.554901)  vcan0  00000309   [8]  09 A7 00 00 00 00 00 00
(002.555110)  vcan0  0000014A   [8]  00 00 00 2E 50 61 6A 0E
(002.560059)  vcan0  0000014A   [8]  00 00 00 31 03 4D 53 14
(002.560281)  vcan0  0000017C   [8]  22 49 00 00 00 00 00 00
(002.560487)  vcan0  00000130   [8]  00 00 00 00 00 00 00 00
(002.560702)  vcan0  00000309   [8]  09 A3 00 00 00 00 00 00
(002.566072)  vcan0  00000130   [8]  00 00 00 00 00 00 00 00
(002.566290)  vcan0  0000014A   [8]  00 00 00 34 05 95 74 66
(002.566501)  vcan0  00000309   [8]  09 A8 00 00 00 00 00 00
(002.566718)  vcan0  0000017C   [8]  1D 31 00 00 00 00 00 00
(002.572107)  vcan0  0000017C   [8]  21 5E 00 00 00 00 00 00
(002.572345)  vcan0  0000014A   [8]  00 00 00 36 95 42 E2 EE
(002.572554)  vcan0  00000130   [8]  00 00 00 00 00 00 00 00
(002.572766)  vcan0  00000309   [8]  09 A3 00 00 00 00 00 00
(002.578310)  vcan0  00000309   [8]  09 A8 00 00 00 00 00 00
(002.578554)  vcan0  0000014A   [8]  00 00 00 39 6C CD 6E 78
(002.578782)  vcan0  0000017C   [8]  1C 64 00 00 00 00 00 00
(002.578990)  vcan0  00000130   [8]  00 00 00 00 00 00 00 00
(002.584102)  vcan0  0000014A   [8]  00 00 00 3B D5 31 73 DE
(002.584317)  vcan0  00000309   [8]  09 A4 00 00 00 00 00 00
(002.584537)  vcan0  0000017C   [8]  20 B2 00 00 00 00 00 00
(002.584743)  vcan0  00000130   [8]  00 00 00 00 00 00 00 00
(002.590316)  vcan0  0000014A   [8]  00 00 00 3E 80 3B 03 22
(002.590524)  vcan0  00000130   [8]  00 00 00 00 00 00 00 00
(002.590743)  vcan0  0000017C   [8]  1B DA 00 00 00 00 00 00
(002.590953)  vcan0  00000309   [8]  09 A9 00 00 00 00 00 00
(002.596816)  vcan0  0000017C   [8]  20 4E 00 00 00 00 00 00
(002.597034)  vcan0  0000014A   [8]  00 00 00 40 BF B1 F2 04
(002.597245)  vcan0  00000309   [8]  09 A4 00 00 00 00 00 00
(002.597451)  vcan0  00000130   [8]  00 00 00 00 00 00 00 00
(002.602990)  vcan0  00000130   [8]  00 00 00 00 00 00 00 00
(002.603243)  vcan0  0000017C   [8]  1B 9A 00 00 00 00 00 00
(002.603456)  vcan0  0000014A   [8]  00 00 00 43 3B A2 A9 42
(002.603667)  vcan0  00000309   [8]  09 A9 00 00 00 00 00 00
(002.608793)  vcan0  00000309   [8]  09 A5 00 00 00 00 00 00
(002.609005)  vcan0  00000130   [8]  00 00 00 00 00 00 00 00
(002.609223)  vcan0  0000014A   [8]  00 00 00 45 57 F2 B0 A0
(002.609443)  vcan0  0000017C   [8]  20 33 00 00 00 00 00 00
(002.615020)  vcan0  0000014A   [8]  00 00 00 47 A5 7A A3 DA
(002.615231)  vcan0  00000130   [8]  00 00 00 00 00 00 00 00
(002.615445)  vcan0  00000309   [8]  09 A9 00 00 00 00 00 00
(002.615664)  vcan0  0000017C   [8]  1B A1 00 00 00 00 00 00
(002.620663)  vcan0  00000130   [8]  00 00 00 00 00 00 00 00
(002.620895)  vcan0  00000309   [8]  09 A4 00 00 00 00 00 00
(002.621118)  vcan0  0000017C   [8]  20 5D 00 00 00 00 00 00
(002.621362)  vcan0  0000014A   [8]  00 00 00 49 99 BE D8 34
(002.626834)  vcan0  0000014A   [8]  00 00 00 4B BB 5C DB AA
(002.627045)  vcan0  00000130   [8]  00 00 00 00 00 00 00 00
(002.627258)  vcan0  00000309   [8]  09 A9 00 00 00 00 00 00
(002.627477)  vcan0  0000017C   [8]  1B EA 00 00 00 00 00 00
(002.632364)  vcan0  00000130   [8]  00 00 00 00 00 00 00 00
(002.632588)  vcan0  00000309   [8]  09 A4 00 00 00 00 00 00
(002.632810)  vcan0  0000017C   [8]  20 C5 00 00 00 00 00 00
(002.633022)  vcan0  0000014A   [8]  00 00 00 4D 8A 87 9C 0C
(002.638255)  vcan0  0000014A   [8]  00 00 00 4F 85 AC 98 88
(002.638464)  vcan0  00000130   [8]  00 00 00 00 00 00 00 00
(002.638683)  vcan0  0000017C   [8]  1C 6C 00 00 00 00 00 00
(002.638893)  vcan0  00000309   [8]  09 A8 00 00 00 00 00 00
(002.644214)  vcan0  00000309   [8]  09 A3 00 00 00 00 00 00
(002.644426)  vcan0  00000130   [8]  00 00 00 00 00 00 00 00
(002.644645)  vcan0  0000017C   [8]  21 60 00 00 00 00 00 00
(002.644931)  vcan0  0000014A   [8]  00 00 00 51 2D A9 4B 52
(002.650460)  vcan0  00000309   [8]  09 A8 00 00 00 00 00 00
(002.650705)  vcan0  0000017C   [8]  1D 1A 00 00 00 00 00 00
(002.650931)  vcan0  0000014A   [8]  00 00 00 52 FF EB D0 C2
(002.651144)  vcan0  00000130   [8]  00 00 00 00 00 00 00 00
(002.656402)  vcan0  00000130   [8]  00 00 00 00 00 00 00 00
(002.656629)  vcan0  00000309   [8]  09 A3 00 00 00 00 00 00
(002.656851)  vcan0  0000017C   [8]  22 20 00 00 00 00 00 00
(002.657063)  vcan0  0000014A   [8]  00 00 00 54 84 C4 F4 D8
(002.662356)  vcan0  0000017C   [8]  1D E6 00 00 00 00 00 00
(002.662572)  vcan0  00000309   [8]  09 A7 00 00 00 00 00 00
