(000.000000)  vcan0  1FFFFFFF   [8]  00 00 00 00 00 00 00 00
(000.006806)  vcan0  00000326   [8]  00 00 00 00 00 00 00 00
(000.007048)  vcan0  00000374   [8]  00 00 00 00 00 00 00 00
(000.007283)  vcan0  00000309   [8]  01 D4 00 00 00 00 00 00
(000.007498)  vcan0  0000018F   [8]  00 00 00 00 00 00 00 00
(000.007726)  vcan0  0000037B   [8]  00 00 00 00 00 00 00 00
(000.007947)  vcan0  00000002   [8]  00 00 00 00 00 00 00 00
(000.008192)  vcan0  0000017C   [8]  4B 00 00 00 00 00 00 00
(000.008416)  vcan0  000001A3   [8]  00 00 00 00 00 00 00 00
(000.008639)  vcan0  0000014A   [8]  00 00 00 51 7C E3 C0 F0
(000.008868)  vcan0  000001A4   [8]  00 67 00 00 00 00 00 00
(000.009084)  vcan0  00000130   [8]  00 00 00 00 00 00 00 00
(000.011812)  vcan0  0000017C   [8]  4B 00 00 00 00 00 00 00
(000.012041)  vcan0  0000014A   [8]  00 00 00 51 64 21 3A FE
(000.012258)  vcan0  00000130   [8]  00 00 00 00 00 00 00 00
(000.012482)  vcan0  00000309   [8]  01 F0 00 00 00 00 00 00
(000.017203)  vcan0  00000309   [8]  02 0C 00 00 00 00 00 00
(000.017426)  vcan0  0000014A   [8]  00 00 00 51 57 BF D2 C4
(000.017646)  vcan0  0000017C   [8]  4B 00 00 00 00 00 00 00
(000.017854)  vcan0  00000130   [8]  00 00 00 00 00 00 00 00
(000.025959)  vcan0  00000130   [8]  00 00 00 00 00 00 00 00
(000.026211)  vcan0  0000017C   [8]  4B 00 00 00 00 00 00 00
(000.026425)  vcan0  00000309   [8]  02 28 00 00 00 00 00 00
(000.026636)  vcan0  0000014A   [8]  00 00 00 51 4B 5E 6A 8A
(000.028844)  vcan0  0000014A   [8]  00 00 00 51 3E FD 02 50
(000.029069)  vcan0  0000017C   [8]  4B 00 00 00 00 00 00 00
(000.029281)  vcan0  00000309   [8]  02 45 00 00 00 00 00 00
(000.029487)  vcan0  00000130   [8]  00 00 00 00 00 00 00 00
(000.034691)  vcan0  00000130   [8]  00 00 00 00 00 00 00 00
(000.034930)  vcan0  0000017C   [8]  4B 00 00 00 00 00 00 00
(000.035143)  vcan0  0000014A   [8]  00 00 00 51 32 9B 9A 16
(000.035353)  vcan0  00000309   [8]  02 61 00 00 00 00 00 00
(000.040881)  vcan0  00000309   [8]  02 7D 00 00 00 00 00 00
(000.041101)  vcan0  0000014A   [8]  00 00 00 51 26 3A 31 DC
(000.041308)  vcan0  00000130   [8]  00 00 00 00 00 00 00 00
(000.041581)  vcan0  0000017C   [8]  4B 00 00 00 00 00 00 00
(000.047164)  vcan0  00000309   [8]  02 99 00 00 00 00 00 00
(000.047385)  vcan0  00000130   [8]  00 00 00 00 00 00 00 00
(000.047626)  vcan0  0000017C   [8]  4B 00 00 00 00 00 00 00
(000.047873)  vcan0  0000014A   [8]  00 00 00 51 19 D8 C9 A2
(000.052608)  vcan0  00000309   [8]  02 B6 00 00 00 00 00 00
(000.052825)  vcan0  00000130   [8]  00 00 00 00 00 00 00 00
(000.053057)  vcan0  0000017C   [8]  4B 00 00 00 00 00 00 00
(000.053271)  vcan0  0000014A   [8]  00 00 00 51 0D 77 61 68
(000.058686)  vcan0  0000017C   [8]  4B 00 00 00 00 00 00 00
(000.058900)  vcan0  00000130   [8]  00 00 00 00 00 00 00 00
(000.059114)  vcan0  00000309   [8]  02 D2 00 00 00 00 00 00
(000.059327)  vcan0  0000014A   [8]  00 00 00 51 01 15 F9 2E
(000.064669)  vcan0  00000309   [8]  02 EE 00 00 00 00 00 00
(000.064900)  vcan0  0000017C   [8]  4B 00 00 00 00 00 00 00
(000.065113)  vcan0  0000014A   [8]  00 00 00 51 01 15 F9 2E
(000.065319)  vcan0  00000130   [8]  00 00 00 00 00 00 00 00
(000.070650)  vcan0  0000014A   [8]  00 00 00 51 01 15 F9 2E
(000.070863)  vcan0  00000130   [8]  00 00 00 00 00 00 00 00
(000.071087)  vcan0  0000017C   [8]  4B 00 00 00 00 00 00 00
(000.071300)  vcan0  00000309   [8]  03 0A 00 00 00 00 00 00
(000.076522)  vcan0  00000130   [8]  00 00 00 00 00 00 00 00
(000.076742)  vcan0  0000014A   [8]  00 00 00 51 01 15 F9 2E
(000.076964)  vcan0  0000017C   [8]  4B 00 00 00 00 00 00 00
(000.077174)  vcan0  00000309   [8]  03 26 00 00 00 00 00 00
(000.083186)  vcan0  0000014A   [8]  00 00 00 85 6F E6 57 48
(000.083398)  vcan0  00000130   [8]  00 00 00 00 00 00 00 00
(000.083626)  vcan0  0000017C   [8]  4B 00 00 00 00 00 00 00
(000.083839)  vcan0  00000309   [8]  03 43 00 00 00 00 00 00
(000.089082)  vcan0  0000014A   [8]  00 00 00 62 39 96 3B 92
(000.089299)  vcan0  00000130   [8]  00 00 00 00 00 00 00 00
(000.089544)  vcan0  0000017C   [8]  4B 00 00 00 00 00 00 00
(000.089762)  vcan0  00000309   [8]  03 5F 00 00 00 00 00 00
(000.094927)  vcan0  0000017C   [8]  4B 00 00 00 00 00 00 00
(000.095139)  vcan0  00000130   [8]  00 00 00 00 00 00 00 00
(000.095355)  vcan0  0000014A   [8]  00 00 00 62 3F 39 7D DE
(000.095566)  vcan0  00000309   [8]  03 7B 00 00 00 00 00 00
(000.100567)  vcan0  0000017C   [8]  4B 00 00 00 00 00 00 00
(000.100786)  vcan0  00000309   [8]  03 97 00 00 00 00 00 00
(000.100996)  vcan0  00000130   [8]  00 00 00 00 00 00 00 00
(000.101210)  vcan0  0000014A   [8]  00 00 00 62 44 DC 9A E8
(000.106967)  vcan0  00000130   [8]  00 00 00 00 00 00 00 00
(000.107192)  vcan0  00000309   [8]  03 B4 00 00 00 00 00 00
(000.107415)  vcan0  0000017C   [8]  4B 00 00 00 00 00 00 00
(000.107627)  vcan0  0000014A   [8]  00 00 00 62 4A 7F DD 32
(000.112976)  vcan0  0000017C   [8]  4B 00 00 00 00 00 00 00
(000.113187)  vcan0  00000130   [8]  00 00 00 00 00 00 00 00
(000.113401)  vcan0  0000014A   [8]  00 00 00 62 50 22 FA 3C
(000.113611)  vcan0  00000309   [8]  03 D0 00 00 00 00 00 00
(000.119073)  vcan0  0000017C   [8]  4B 00 00 00 00 00 00 00
(000.119294)  vcan0  0000014A   [8]  00 00 00 62 55 C6 3C 86
(000.119501)  vcan0  00000130   [8]  00 00 00 00 00 00 00 00
(000.119714)  vcan0  00000309   [8]  03 EC 00 00 00 00 00 00
(000.125083)  vcan0  0000014A   [8]  00 00 00 62 5B 69 59 90
(000.125308)  vcan0  0000017C   [8]  4B 00 00 00 00 00 00 00
(000.125516)  vcan0  00000130   [8]  00 00 00 00 00 00 00 00
(000.125728)  vcan0  00000309   [8]  04 08 00 00 00 00 00 00
(000.130913)  vcan0  00000309   [8]  04 24 00 00 00 00 00 00
(000.131140)  vcan0  0000017C   [8]  4B 00 00 00 00 00 00 00
(000.131354)  vcan0  0000014A   [8]  00 00 00 62 61 0C 9B DC
(000.131563)  vcan0  00000130   [8]  00 00 00 00 00 00 00 00
(000.137192)  vcan0  0000014A   [8]  00 00 00 62 66 AF B8 E6
(000.137411)  vcan0  00000309   [8]  04 41 00 00 00 00 00 00
(000.137632)  vcan0  0000017C   [8]  4B 00 00 00 00 00 00 00
(000.137842)  vcan0  00000130   [8]  00 00 00 00 00 00 00 00
(000.143052)  vcan0  00000309   [8]  04 5D 00 00 00 00 00 00
(000.143311)  vcan0  0000017C   [8]  4B 00 00 00 00 00 00 00
(000.143535)  vcan0  00000130   [8]  00 00 00 00 00 00 00 00
(000.143758)  vcan0  0000014A   [8]  00 00 00 62 66 AF B8 E6
(000.148844)  vcan0  00000309   [8]  04 79 00 00 00 00 00 00
(000.149071)  vcan0  0000017C   [8]  4B 00 00 00 00 00 00 00
(000.149283)  vcan0  0000014A   [8]  00 00 00 62 66 AF B8 E6
(000.149490)  vcan0  00000130   [8]  00 00 00 00 00 00 00 00
(000.154871)  vcan0  00000130   [8]  00 00 00 00 00 00 00 00
(000.155108)  vcan0  00000309   [8]  03 EE 00 00 00 00 00 00
(000.155334)  vcan0  0000017C   [8]  4B 00 00 00 00 00 00 00
(000.155548)  vcan0  0000014A   [8]  00 00 00 62 66 AF B8 E6
(000.160665)  vcan0  0000017C   [8]  4B 00 00 00 00 00 00 00
(000.160883)  vcan0  00000130   [8]  00 00 00 00 00 00 00 00
(000.161098)  vcan0  00000309   [8]  03 6D 00 00 00 00 00 00
(000.161310)  vcan0  0000014A   [8]  00 00 00 62 66 AF B8 E6
(000.167100)  vcan0  00000130   [8]  00 00 00 00 00 00 00 00
(000.167340)  vcan0  0000017C   [8]  4B 00 00 00 00 00 00 00
(000.167554)  vcan0  0000014A   [8]  00 00 00 62 66 AF B8 E6
(000.167766)  vcan0  00000309   [8]  02 FA 00 00 00 00 00 00
(000.172633)  vcan0  0000014A   [8]  00 00 00 62 66 AF B8 E6
(000.172869)  vcan0  00000309   [8]  02 92 00 00 00 00 00 00
(000.173111)  vcan0  0000017C   [8]  4B 00 00 00 00 00 00 00
(000.173337)  vcan0  00000130   [8]  00 00 00 00 00 00 00 00
(000.178496)  vcan0  0000014A   [8]  00 00 00 62 66 AF DE 26
(000.178708)  vcan0  00000130   [8]  00 00 00 00 00 00 00 00
(000.178921)  vcan0  00000309   [8]  02 35 00 00 00 00 00 00
(000.179143)  vcan0  0000017C   [8]  4B 00 00 00 00 00 00 00
(000.184294)  vcan0  00000130   [8]  00 00 00 00 00 00 00 00
(000.184524)  vcan0  0000017C   [8]  4B 00 00 00 00 00 00 00
(000.184738)  vcan0  00000309   [8]  01 E3 00 00 00 00 00 00
(000.184951)  vcan0  0000014A   [8]  00 00 00 62 66 AF DE 26
(000.190341)  vcan0  0000014A   [8]  00 00 00 62 66 AF DE 26
(000.190561)  vcan0  00000309   [8]  01 99 00 00 00 00 00 00
(000.190769)  vcan0  00000130   [8]  00 00 00 00 00 00 00 00
(000.190990)  vcan0  0000017C   [8]  4B 00 00 00 00 00 00 00
(000.196691)  vcan0  00000309   [8]  01 58 00 00 00 00 00 00
(000.196922)  vcan0  0000014A   [8]  00 00 00 62 66 AF DE 26
(000.197162)  vcan0  0000017C   [8]  4B 00 00 00 00 00 00 00
(000.197376)  vcan0  00000130   [8]  00 00 00 00 00 00 00 00
(000.202552)  vcan0  00000130   [8]  00 00 00 00 00 00 00 00
(000.202785)  vcan0  0000017C   [8]  4B 00 00 00 00 00 00 00
(000.202996)  vcan0  00000309   [8]  01 1D 00 00 00 00 00 00
(000.203206)  vcan0  0000014A   [8]  00 00 00 62 66 AF DE 26
(000.208388)  vcan0  00000130   [8]  00 00 00 00 00 00 00 00
(000.208610)  vcan0  0000014A   [8]  00 00 00 62 66 AF DE 26
(000.208832)  vcan0  0000017C   [8]  4B 00 00 00 00 00 00 00
(000.209044)  vcan0  00000309   [8]  00 EA 00 00 00 00 00 00
(000.214469)  vcan0  00000130   [8]  00 00 00 00 00 00 00 00
(000.214700)  vcan0  0000017C   [8]  4B 00 00 00 00 00 00 00
(000.214913)  vcan0  0000014A   [8]  00 00 00 62 66 AF DE 26
(000.215124)  vcan0  00000309   [8]  00 BC 00 00 00 00 00 00
(000.220332)  vcan0  0000017C   [8]  4B 00 00 00 00 00 00 00
(000.220541)  vcan0  00000130   [8]  00 00 00 00 00 00 00 00
(000.220754)  vcan0  0000014A   [8]  00 00 00 62 66 AF DE 26
(000.220964)  vcan0  00000309   [8]  00 94 00 00 00 00 00 00
(000.226264)  vcan0  00000309   [8]  00 70 00 00 00 00 00 00
(000.226474)  vcan0  00000130   [8]  00 00 00 00 00 00 00 00
(000.226687)  vcan0  0000014A   [8]  00 00 00 62 66 AF DE 26
(000.226904)  vcan0  0000017C   [8]  4B 00 00 00 00 00 00 00
(000.232416)  vcan0  0000014A   [8]  00 00 00 62 66 AF DE 26
(000.232630)  vcan0  00000309   [8]  00 51 00 00 00 00 00 00
(000.232849)  vcan0  0000017C   [8]  4B 00 00 00 00 00 00 00
(000.233056)  vcan0  00000130   [8]  00 00 00 00 00 00 00 00
(000.238775)  vcan0  0000014A   [8]  00 00 00 62 66 AF DE 26
(000.238986)  vcan0  00000130   [8]  00 00 00 00 00 00 00 00
(000.239198)  vcan0  00000309   [8]  00 36 00 00 00 00 00 00
(000.239416)  vcan0  0000017C   [8]  4B 00 00 00 00 00 00 00
(000.245184)  vcan0  0000017C   [8]  4B 00 00 00 00 00 00 00
(000.245419)  vcan0  0000014A   [8]  00 00 00 62 66 AF DE 26
(000.245635)  vcan0  00000130   [8]  00 00 00 00 00 00 00 00
(000.245862)  vcan0  00000309   [8]  00 1E 00 00 00 00 00 00
(000.251834)  vcan0  00000002   [8]  00 00 00 00 00 00 00 00
(000.252091)  vcan0  00000309   [8]  00 09 00 00 00 00 00 00
(000.252305)  vcan0  00000130   [8]  00 00 00 00 00 00 00 00
(000.252531)  vcan0  0000014A   [8]  00 00 00 62 66 AF DE 26
(000.252774)  vcan0  0000017C   [8]  4B 00 00 00 00 00 00 00
(000.257104)  vcan0  00000309   [8]  00 08 00 00 00 00 00 00
(000.257332)  vcan0  00000130   [8]  00 00 00 00 00 00 00 00
(000.257580)  vcan0  0000017C   [8]  4B 00 00 00 00 00 00 00
(000.257809)  vcan0  0000014A   [8]  00 00 00 62 66 AF DE 26
(000.263040)  vcan0  0000017C   [8]  4B 00 00 00 00 00 00 00
(000.263271)  vcan0  0000014A   [8]  00 00 00 62 66 AF DE 26
(000.263497)  vcan0  00000309   [8]  00 18 00 00 00 00 00 00
(000.263712)  vcan0  00000130   [8]  00 00 00 00 00 00 00 00
(000.268788)  vcan0  00000309   [8]  00 25 00 00 00 00 00 00
(000.269018)  vcan0  0000017C   [8]  4B 00 00 00 00 00 00 00
(000.269226)  vcan0  00000130   [8]  00 00 00 00 00 00 00 00
(000.269439)  vcan0  0000014A   [8]  00 00 00 62 66 AF DE 26
(000.274600)  vcan0  00000309   [8]  00 30 00 00 00 00 00 00
(000.274811)  vcan0  00000130   [8]  00 00 00 00 00 00 00 00
(000.275036)  vcan0  0000017C   [8]  4B 00 00 00 00 00 00 00
(000.275248)  vcan0  0000014A   [8]  00 00 00 62 66 AF DE 26
(000.280865)  vcan0  0000014A   [8]  00 00 00 62 66 AF DE 26
(000.281077)  vcan0  00000130   [8]  00 00 00 00 00 00 00 00
(000.281290)  vcan0  00000309   [8]  00 39 00 00 00 00 00 00
(000.281511)  vcan0  0000017C   [8]  4B 00 00 00 00 00 00 00
(000.286542)  vcan0  0000017C   [8]  4B 00 00 00 00 00 00 00
(000.286762)  vcan0  0000014A   [8]  00 00 00 62 66 AF DE 26
(000.286975)  vcan0  00000309   [8]  00 41 00 00 00 00 00 00
(000.287183)  vcan0  00000130   [8]  00 00 00 00 00 00 00 00
(000.292579)  vcan0  00000309   [8]  00 47 00 00 00 00 00 00
(000.292797)  vcan0  00000130   [8]  00 00 00 00 00 00 00 00
(000.293023)  vcan0  0000017C   [8]  4B 00 00 00 00 00 00 00
(000.293235)  vcan0  0000014A   [8]  00 00 00 62 66 AF DE 26
(000.298843)  vcan0  0000017C   [8]  4B 00 00 00 00 00 00 00
(000.299061)  vcan0  00000309   [8]  00 4C 00 00 00 00 00 00
(000.299271)  vcan0  0000014A   [8]  00 00 00 62 66 AF DE 26
(000.299478)  vcan0  00000130   [8]  00 00 00 00 00 00 00 00
(000.304888)  vcan0  0000017C   [8]  4B 00 00 00 00 00 00 00
(000.305105)  vcan0  00000309   [8]  00 50 00 00 00 00 00 00
(000.305312)  vcan0  00000130   [8]  00 00 00 00 00 00 00 00
(000.305522)  vcan0  0000014A   [8]  00 00 00 62 66 AF DE 26
(000.310892)  vcan0  0000014A   [8]  00 00 00 62 66 AF DE 26
(000.311110)  vcan0  00000309   [8]  00 53 00 00 00 00 00 00
(000.311317)  vcan0  00000130   [8]  00 00 00 00 00 00 00 00
(000.311538)  vcan0  0000017C   [8]  4B 00 00 00 00 00 00 00
(000.317174)  vcan0  0000014A   [8]  00 00 00 62 66 AF DE 26
(000.317402)  vcan0  0000017C   [8]  4B 00 00 00 00 00 00 00
(000.317613)  vcan0  00000309   [8]  00 55 00 00 00 00 00 00
(000.317820)  vcan0  00000130   [8]  00 00 00 00 00 00 00 00
(000.322673)  vcan0  00000130   [8]  00 00 00 00 00 00 00 00
(000.322917)  vcan0  0000017C   [8]  4B 00 00 00 00 00 00 00
(000.323130)  vcan0  00000309   [8]  00 56 00 00 00 00 00 00
(000.323342)  vcan0  0000014A   [8]  00 00 00 62 66 AF DE 26
(000.328606)  vcan0  00000309   [8]  00 57 00 00 00 00 00 00
(000.328824)  vcan0  0000014A   [8]  00 00 00 62 66 AF DE 26
(000.329032)  vcan0  00000130   [8]  00 00 00 00 00 00 00 00
(000.329252)  vcan0  0000017C   [8]  4B 00 00 00 00 00 00 00
(000.334503)  vcan0  0000014A   [8]  00 00 00 62 66 AF DE 26
(000.334715)  vcan0  00000130   [8]  00 00 00 00 00 00 00 00
(000.334931)  vcan0  00000309   [8]  00 57 00 00 00 00 00 00
(000.335151)  vcan0  0000017C   [8]  4B 00 00 00 00 00 00 00
(000.340495)  vcan0  0000017C   [8]  4B 00 00 00 00 00 00 00
(000.340711)  vcan0  0000014A   [8]  00 00 00 62 66 AF DE 26
(000.340920)  vcan0  00000130   [8]  00 00 00 00 00 00 00 00
(000.341132)  vcan0  00000309   [8]  00 57 00 00 00 00 00 00
(000.346608)  vcan0  0000017C   [8]  4B 00 00 00 00 00 00 00
(000.346825)  vcan0  00000309   [8]  00 56 00 00 00 00 00 00
(000.347037)  vcan0  0000014A   [8]  00 00 00 62 66 AF DE 26
(000.347244)  vcan0  00000130   [8]  00 00 00 00 00 00 00 00
(000.352944)  vcan0  00000309   [8]  00 55 00 00 00 00 00 00
(000.353164)  vcan0  00000130   [8]  00 00 00 00 00 00 00 00
(000.353405)  vcan0  0000017C   [8]  4B 00 00 00 00 00 00 00
(000.353642)  vcan0  0000014A   [8]  00 00 00 62 66 AF DE 26
(000.358656)  vcan0  00000309   [8]  00 54 00 00 00 00 00 00
(000.358868)  vcan0  00000130   [8]  00 00 00 00 00 00 00 00
(000.359092)  vcan0  0000017C   [8]  4B 00 00 00 00 00 00 00
(000.359304)  vcan0  0000014A   [8]  00 00 00 62 66 AF DE 26
(000.365888)  vcan0  00000130   [8]  00 00 00 00 00 00 00 00
(000.366126)  vcan0  0000014A   [8]  00 00 00 62 66 AF DE 26
(000.366348)  vcan0  0000017C   [8]  4B 00 00 00 00 00 00 00
(000.366559)  vcan0  00000309   [8]  00 52 00 00 00 00 00 00
(000.370529)  vcan0  0000014A   [8]  00 00 00 62 66 AF DE 26
(000.370739)  vcan0  00000130   [8]  00 00 00 00 00 00 00 00
(000.370962)  vcan0  0000017C   [8]  4B 00 00 00 00 00 00 00
(000.371175)  vcan0  00000309   [8]  00 51 00 00 00 00 00 00
(000.376402)  vcan0  00000309   [8]  00 4F 00 00 00 00 00 00
(000.376612)  vcan0  00000130   [8]  00 00 00 00 00 00 00 00
(000.376835)  vcan0  0000017C   [8]  4B 00 00 00 00 00 00 00
(000.377047)  vcan0  0000014A   [8]  00 00 00 62 66 AF DE 26
(000.382426)  vcan0  0000017C   [8]  4B 00 00 00 00 00 00 00
(000.382636)  vcan0  00000130   [8]  00 00 00 00 00 00 00 00
(000.382848)  vcan0  00000309   [8]  00 4C 00 00 00 00 00 00
(000.383058)  vcan0  0000014A   [8]  00 00 00 62 66 AF DE 26
(000.388324)  vcan0  00000309   [8]  00 4A 00 00 00 00 00 00
(000.388537)  vcan0  0000014A   [8]  00 00 00 62 66 AF DE 26
(000.388755)  vcan0  0000017C   [8]  4B 00 00 00 00 00 00 00
(000.388961)  vcan0  00000130   [8]  00 00 00 00 00 00 00 00
(000.394332)  vcan0  00000309   [8]  00 48 00 00 00 00 00 00
(000.394548)  vcan0  0000014A   [8]  00 00 00 62 66 B3 A6 BA
(000.394767)  vcan0  0000017C   [8]  4B 00 00 00 00 00 00 00
(000.394973)  vcan0  00000130   [8]  00 00 00 00 00 00 00 00
(000.400319)  vcan0  00000309   [8]  00 66 00 00 00 00 00 00
(000.400534)  vcan0  0000014A   [8]  00 00 00 62 83 CB 07 CC
(000.400752)  vcan0  0000017C   [8]  4B 00 00 00 00 00 00 00
(000.400958)  vcan0  00000130   [8]  00 00 00 00 00 00 00 00
(000.406304)  vcan0  0000014A   [8]  00 00 00 62 9E 8F F6 C2
(000.406513)  vcan0  00000130   [8]  00 00 00 00 00 00 00 00
(000.406732)  vcan0  0000017C   [8]  4B 00 00 00 00 00 00 00
(000.406943)  vcan0  00000309   [8]  00 9C 00 00 00 00 00 00
(000.412583)  vcan0  00000309   [8]  00 C3 00 00 00 00 00 00
(000.412802)  vcan0  0000014A   [8]  00 00 00 62 B2 56 B8 80
(000.413022)  vcan0  0000017C   [8]  4B 00 00 00 00 00 00 00
(000.413229)  vcan0  00000130   [8]  00 00 00 00 00 00 00 00
(000.418550)  vcan0  00000309   [8]  01 02 00 00 00 00 00 00
(000.418763)  vcan0  00000130   [8]  00 00 00 00 00 00 00 00
(000.418977)  vcan0  0000014A   [8]  00 00 00 62 DA 8D 9E 60
(000.419197)  vcan0  0000017C   [8]  4B 00 00 00 00 00 00 00
(000.424540)  vcan0  0000017C   [8]  4B 00 00 00 00 00 00 00
(000.424751)  vcan0  00000130   [8]  00 00 00 00 00 00 00 00
(000.424963)  vcan0  0000014A   [8]  00 00 00 62 F9 7B E5 D6
(000.425173)  vcan0  00000309   [8]  01 28 00 00 00 00 00 00
(000.430933)  vcan0  00000309   [8]  01 5B 00 00 00 00 00 00
(000.431154)  vcan0  00000130   [8]  00 00 00 00 00 00 00 00
(000.431397)  vcan0  0000017C   [8]  4B 00 00 00 00 00 00 00
(000.431621)  vcan0  0000014A   [8]  00 00 00 63 26 F5 23 92
(000.436699)  vcan0  00000309   [8]  01 8C 00 00 00 00 00 00
(000.436931)  vcan0  0000014A   [8]  00 00 00 63 54 5A 4C 68
(000.437149)  vcan0  00000130   [8]  00 00 00 00 00 00 00 00
(000.437387)  vcan0  0000017C   [8]  4B 00 00 00 00 00 00 00
(000.442395)  vcan0  0000014A   [8]  00 00 00 63 81 6A 9E CC
(000.442621)  vcan0  0000017C   [8]  4B 00 00 00 00 00 00 00
(000.442833)  vcan0  00000309   [8]  01 B9 00 00 00 00 00 00
(000.443040)  vcan0  00000130   [8]  00 00 00 00 00 00 00 00
(000.448924)  vcan0  0000014A   [8]  00 00 00 63 B1 51 CF 70
(000.449176)  vcan0  0000017C   [8]  4B 00 00 00 00 00 00 00
(000.449392)  vcan0  00000130   [8]  00 00 00 00 00 00 00 00
(000.449616)  vcan0  00000309   [8]  01 E1 00 00 00 00 00 00
(000.454450)  vcan0  00000309   [8]  02 09 00 00 00 00 00 00
(000.454677)  vcan0  0000017C   [8]  4B 00 00 00 00 00 00 00
(000.454884)  vcan0  00000130   [8]  00 00 00 00 00 00 00 00
(000.455096)  vcan0  0000014A   [8]  00 00 00 63 E8 DD 11 98
(000.460378)  vcan0  00000130   [8]  00 00 00 00 00 00 00 00
(000.460614)  vcan0  0000017C   [8]  4B 00 00 00 00 00 00 00
(000.460828)  vcan0  0000014A   [8]  00 00 00 64 1D 49 92 94
(000.461041)  vcan0  00000309   [8]  02 2D 00 00 00 00 00 00
(000.466702)  vcan0  00000309   [8]  02 51 00 00 00 00 00 00
(000.466917)  vcan0  00000130   [8]  00 00 00 00 00 00 00 00
(000.467132)  vcan0  0000014A   [8]  00 00 00 64 52 FA 95 86
(000.467354)  vcan0  0000017C   [8]  4B 00 00 00 00 00 00 00
(000.472536)  vcan0  00000130   [8]  00 00 00 00 00 00 00 00
(000.472775)  vcan0  0000014A   [8]  00 00 00 64 8F B5 B4 6E
(000.472989)  vcan0  00000309   [8]  02 70 00 00 00 00 00 00
(000.473209)  vcan0  0000017C   [8]  4B 00 00 00 00 00 00 00
(000.478640)  vcan0  0000014A   [8]  00 00 00 64 C7 3B A6 DC
(000.478881)  vcan0  00000130   [8]  00 00 00 00 00 00 00 00
(000.479138)  vcan0  0000017C   [8]  4B 00 00 00 00 00 00 00
(000.479362)  vcan0  00000309   [8]  02 90 00 00 00 00 00 00
(000.484643)  vcan0  0000017C   [8]  4B 00 00 00 00 00 00 00
(000.484859)  vcan0  00000130   [8]  00 00 00 00 00 00 00 00
(000.485075)  vcan0  0000014A   [8]  00 00 00 65 0A 43 A2 50
(000.485286)  vcan0  00000309   [8]  02 AC 00 00 00 00 00 00
(000.490583)  vcan0  0000014A   [8]  00 00 00 65 42 ED C8 92
(000.490794)  vcan0  00000130   [8]  00 00 00 00 00 00 00 00
(000.491008)  vcan0  00000309   [8]  02 C9 00 00 00 00 00 00
(000.491227)  vcan0  0000017C   [8]  4B 00 00 00 00 00 00 00
(000.496773)  vcan0  00000309   [8]  02 E2 00 00 00 00 00 00
(000.496988)  vcan0  00000002   [8]  00 00 00 00 00 00 00 00
(000.497218)  vcan0  0000017C   [8]  4B 00 00 00 00 00 00 00
(000.497429)  vcan0  00000130   [8]  00 00 00 00 00 00 00 00
(000.497643)  vcan0  0000014A   [8]  00 00 00 65 83 CF 44 4A
(000.502545)  vcan0  0000017C   [8]  4B 00 00 00 00 00 00 00
(000.502755)  vcan0  0000018F   [8]  00 00 00 00 00 00 00 00
(000.502961)  vcan0  00000130   [8]  00 00 00 00 00 00 00 00
(000.503174)  vcan0  0000014A   [8]  00 00 00 65 C1 E0 6E 24
(000.503384)  vcan0  00000309   [8]  02 FE 00 00 00 00 00 00
(000.503598)  vcan0  000001A3   [8]  00 00 00 00 00 00 00 00
(000.535966)  vcan0  0000014A   [8]  00 00 00 66 00 C5 52 F8
(000.536200)  vcan0  0000017C   [8]  4B 00 00 00 00 00 00 00
(000.536408)  vcan0  00000130   [8]  00 00 00 00 00 00 00 00
(000.536620)  vcan0  00000309   [8]  03 14 00 00 00 00 00 00
(000.538952)  vcan0  0000014A   [8]  00 00 00 66 3F 2D 24 EC
(000.539163)  vcan0  00000130   [8]  00 00 00 00 00 00 00 00
(000.539376)  vcan0  00000309   [8]  03 2D 00 00 00 00 00 00
(000.539596)  vcan0  0000017C   [8]  4B 00 00 00 00 00 00 00
(000.544089)  vcan0  00000130   [8]  00 00 00 00 00 00 00 00
(000.544328)  vcan0  00000309   [8]  03 42 00 00 00 00 00 00
(000.544557)  vcan0  0000017C   [8]  4B 00 00 00 00 00 00 00
(000.544772)  vcan0  0000014A   [8]  00 00 00 66 83 DC 83 B2
(000.550346)  vcan0  0000017C   [8]  4B 00 00 00 00 00 00 00
(000.550563)  vcan0  00000309   [8]  03 5A 00 00 00 00 00 00
(000.550771)  vcan0  00000130   [8]  00 00 00 00 00 00 00 00
(000.550984)  vcan0  0000014A   [8]  00 00 00 66 BF 57 DB 58
(000.556226)  vcan0  00000130   [8]  00 00 00 00 00 00 00 00
(000.556451)  vcan0  0000014A   [8]  00 00 00 67 09 27 E1 EE
(000.556672)  vcan0  0000017C   [8]  4B 00 00 00 00 00 00 00
(000.556882)  vcan0  00000309   [8]  03 6D 00 00 00 00 00 00
(000.562710)  vcan0  0000017C   [8]  4B 00 00 00 00 00 00 00
(000.562934)  vcan0  00000130   [8]  00 00 00 00 00 00 00 00
(000.563164)  vcan0  00000309   [8]  03 83 00 00 00 00 00 00
(000.563411)  vcan0  0000014A   [8]  00 00 00 67 44 A3 4C 34
(000.568259)  vcan0  0000017C   [8]  4B 00 00 00 00 00 00 00
(000.568470)  vcan0  00000130   [8]  00 00 00 00 00 00 00 00
(000.568686)  vcan0  00000309   [8]  03 96 00 00 00 00 00 00
(000.568904)  vcan0  0000014A   [8]  00 00 00 67 8A D5 F7 94
(000.574240)  vcan0  00000309   [8]  03 AA 00 00 00 00 00 00
(000.574469)  vcan0  0000014A   [8]  00 00 00 67 CA F6 ED B4
(000.574706)  vcan0  0000017C   [8]  4B 00 00 00 00 00 00 00
(000.574927)  vcan0  00000130   [8]  00 00 00 00 00 00 00 00
(000.580289)  vcan0  00000309   [8]  03 BC 00 00 00 00 00 00
(000.580502)  vcan0  00000130   [8]  00 00 00 00 00 00 00 00
(000.580718)  vcan0  0000014A   [8]  00 00 00 68 12 C2 49 DC
(000.580939)  vcan0  0000017C   [8]  4B 00 00 00 00 00 00 00
(000.586143)  vcan0  0000017C   [8]  4B 00 00 00 00 00 00 00
(000.586374)  vcan0  0000014A   [8]  00 00 00 68 4F 32 9C C4
(000.586590)  vcan0  00000130   [8]  00 00 00 00 00 00 00 00
(000.586820)  vcan0  00000309   [8]  03 CF 00 00 00 00 00 00
(000.592330)  vcan0  00000309   [8]  03 E0 00 00 00 00 00 00
(000.592563)  vcan0  0000014A   [8]  00 00 00 68 97 60 FF 86
(000.592778)  vcan0  00000130   [8]  00 00 00 00 00 00 00 00
(000.593023)  vcan0  0000017C   [8]  4B 00 00 00 00 00 00 00
(000.598500)  vcan0  0000017C   [8]  4B 00 00 00 00 00 00 00
(000.598722)  vcan0  00000130   [8]  00 00 00 00 00 00 00 00
(000.598970)  vcan0  00000309   [8]  03 F2 00 00 00 00 00 00
(000.599190)  vcan0  0000014A   [8]  00 00 00 68 D3 F9 C6 BC
(000.604100)  vcan0  0000017C   [8]  4B 00 00 00 00 00 00 00
(000.604318)  vcan0  00000309   [8]  04 03 00 00 00 00 00 00
(000.604526)  vcan0  00000130   [8]  00 00 00 00 00 00 00 00
(000.604739)  vcan0  0000014A   [8]  00 00 00 69 1B 16 38 E6
(000.609922)  vcan0  0000017C   [8]  4B 00 00 00 00 00 00 00
(000.610132)  vcan0  00000130   [8]  00 00 00 00 00 00 00 00
(000.610348)  vcan0  00000309   [8]  04 14 00 00 00 00 00 00
(000.610563)  vcan0  0000014A   [8]  00 00 00 69 58 35 F8 30
(000.616214)  vcan0  0000014A   [8]  00 00 00 69 9C A4 70 2A
(000.616442)  vcan0  0000017C   [8]  4B 00 00 00 00 00 00 00
(000.616654)  vcan0  00000309   [8]  04 24 00 00 00 00 00 00
(000.616862)  vcan0  00000130   [8]  00 00 00 00 00 00 00 00
(000.621988)  vcan0  00000130   [8]  00 00 00 00 00 00 00 00
(000.622230)  vcan0  0000017C   [8]  4B 00 00 00 00 00 00 00
(000.622442)  vcan0  00000309   [8]  04 35 00 00 00 00 00 00
(000.622651)  vcan0  0000014A   [8]  00 00 00 69 D9 43 9E 82
(000.628038)  vcan0  00000309   [8]  04 44 00 00 00 00 00 00
(000.628265)  vcan0  0000017C   [8]  4B 00 00 00 00 00 00 00
(000.628472)  vcan0  00000130   [8]  00 00 00 00 00 00 00 00
(000.628683)  vcan0  0000014A   [8]  00 00 00 6A 1F 1A F9 B0
(000.634053)  vcan0  0000017C   [8]  4B 00 00 00 00 00 00 00
(000.634266)  vcan0  00000309   [8]  04 54 00 00 00 00 00 00
(000.634476)  vcan0  0000014A   [8]  00 00 00 6A 5E 0D FC 0C
(000.634683)  vcan0  00000130   [8]  00 00 00 00 00 00 00 00
(000.640091)  vcan0  00000130   [8]  00 00 00 00 00 00 00 00
(000.640315)  vcan0  00000309   [8]  04 64 00 00 00 00 00 00
(000.640537)  vcan0  0000017C   [8]  4B 00 00 00 00 00 00 00
(000.640747)  vcan0  0000014A   [8]  00 00 00 6A 9F 9E 4F 20
(000.646188)  vcan0  00000130   [8]  00 00 00 00 00 00 00 00
(000.646417)  vcan0  0000017C   [8]  4B 00 00 00 00 00 00 00
(000.646629)  vcan0  0000014A   [8]  00 00 00 6A DE 07 38 7A
(000.646839)  vcan0  00000309   [8]  04 73 00 00 00 00 00 00
(000.651971)  vcan0  0000014A   [8]  00 00 00 6B 1E D6 E0 B8
(000.652182)  vcan0  00000130   [8]  00 00 00 00 00 00 00 00
(000.652403)  vcan0  0000017C   [8]  4B 00 00 00 00 00 00 00
(000.652613)  vcan0  00000309   [8]  04 82 00 00 00 00 00 00
(000.657952)  vcan0  00000309   [8]  04 91 00 00 00 00 00 00
(000.658161)  vcan0  00000130   [8]  00 00 00 00 00 00 00 00
(000.658380)  vcan0  0000017C   [8]  4B 00 00 00 00 00 00 00
(000.658591)  vcan0  0000014A   [8]  00 00 00 6B 5C E2 70 54
(000.664004)  vcan0  0000017C   [8]  4B 00 00 00 00 00 00 00
(000.664214)  vcan0  00000130   [8]  00 00 00 00 00 00 00 00
(000.664426)  vcan0  0000014A   [8]  00 00 00 6B 99 74 16 28
(000.664636)  vcan0  00000309   [8]  04 A0 00 00 00 00 00 00
(000.669917)  vcan0  00000130   [8]  00 00 00 00 00 00 00 00
(000.670343)  vcan0  0000014A   [8]  00 00 00 6B D7 F3 FD 78
(000.670573)  vcan0  0000017C   [8]  4B 00 00 00 00 00 00 00
(000.670793)  vcan0  00000309   [8]  04 AF 00 00 00 00 00 00
(000.675977)  vcan0  0000014A   [8]  00 00 00 6C 13 A4 F4 CE
(000.676201)  vcan0  0000017C   [8]  4B 00 00 00 00 00 00 00
(000.676408)  vcan0  00000130   [8]  00 00 00 00 00 00 00 00
(000.676619)  vcan0  00000309   [8]  04 BE 00 00 00 00 00 00
(000.682159)  vcan0  0000017C   [8]  4B 00 00 00 00 00 00 00
(000.682401)  vcan0  00000309   [8]  04 CC 00 00 00 00 00 00
(000.682629)  vcan0  0000014A   [8]  00 00 00 6C 51 94 24 1A
(000.682847)  vcan0  00000130   [8]  00 00 00 00 00 00 00 00
(000.688100)  vcan0  00000309   [8]  04 DA 00 00 00 00 00 00
(000.688325)  vcan0  0000014A   [8]  00 00 00 6C 8B BD 5E A2
(000.688548)  vcan0  0000017C   [8]  4B 00 00 00 00 00 00 00
(000.688755)  vcan0  00000130   [8]  00 00 00 00 00 00 00 00
(000.694121)  vcan0  0000014A   [8]  00 00 00 6C CB 51 65 54
(000.694349)  vcan0  0000017C   [8]  4B 00 00 00 00 00 00 00
(000.694563)  vcan0  00000309   [8]  04 E9 00 00 00 00 00 00
(000.694773)  vcan0  00000130   [8]  00 00 00 00 00 00 00 00
(000.700125)  vcan0  00000130   [8]  00 00 00 00 00 00 00 00
(000.700355)  vcan0  0000014A   [8]  00 00 00 6D 02 91 B6 3E
(000.700568)  vcan0  00000309   [8]  04 F7 00 00 00 00 00 00
(000.700793)  vcan0  0000017C   [8]  4B 00 00 00 00 00 00 00
(000.706044)  vcan0  00000309   [8]  05 05 00 00 00 00 00 00
(000.706276)  vcan0  0000017C   [8]  4B 00 00 00 00 00 00 00
(000.706488)  vcan0  0000014A   [8]  00 00 00 6D 3C BA 23 E2
(000.706695)  vcan0  00000130   [8]  00 00 00 00 00 00 00 00
(000.712162)  vcan0  0000014A   [8]  00 00 00 6D 75 25 DC A4
(000.712383)  vcan0  00000309   [8]  05 13 00 00 00 00 00 00
(000.712606)  vcan0  0000017C   [8]  4B 00 00 00 00 00 00 00
(000.712817)  vcan0  00000130   [8]  00 00 00 00 00 00 00 00
(000.718199)  vcan0  0000014A   [8]  00 00 00 6D AA 75 3A E6
(000.718417)  vcan0  00000309   [8]  05 21 00 00 00 00 00 00
(000.718637)  vcan0  0000017C   [8]  4B 00 00 00 00 00 00 00
(000.718845)  vcan0  00000130   [8]  00 00 00 00 00 00 00 00
(000.724030)  vcan0  00000130   [8]  00 00 00 00 00 00 00 00
(000.724257)  vcan0  00000309   [8]  05 2F 00 00 00 00 00 00
(000.724469)  vcan0  0000014A   [8]  00 00 00 6D E6 7C C7 B8
(000.724688)  vcan0  0000017C   [8]  4B 00 00 00 00 00 00 00
(000.730283)  vcan0  00000309   [8]  05 3D 00 00 00 00 00 00
(000.730508)  vcan0  0000017C   [8]  4B 00 00 00 00 00 00 00
(000.730716)  vcan0  00000130   [8]  00 00 00 00 00 00 00 00
(000.730928)  vcan0  0000014A   [8]  00 00 00 6E 1C C6 83 98
(000.736061)  vcan0  00000309   [8]  05 4A 00 00 00 00 00 00
(000.736276)  vcan0  0000014A   [8]  00 00 00 6E 4E EB EC 30
(000.736484)  vcan0  00000130   [8]  00 00 00 00 00 00 00 00
(000.736708)  vcan0  0000017C   [8]  4B 00 00 00 00 00 00 00
(000.742022)  vcan0  00000130   [8]  00 00 00 00 00 00 00 00
(000.742254)  vcan0  0000017C   [8]  4B 00 00 00 00 00 00 00
(000.742466)  vcan0  00000309   [8]  05 58 00 00 00 00 00 00
(000.742677)  vcan0  0000014A   [8]  00 00 00 6E 87 A8 1D CE
(000.748107)  vcan0  0000017C   [8]  4B 00 00 00 00 00 00 00
(000.748322)  vcan0  0000014A   [8]  00 00 00 6E BD 56 09 22
(000.748538)  vcan0  00000309   [8]  05 66 00 00 00 00 00 00
(000.748746)  vcan0  00000130   [8]  00 00 00 00 00 00 00 00
(000.754022)  vcan0  0000017C   [8]  4B 00 00 00 00 00 00 00
(000.754242)  vcan0  0000014A   [8]  00 00 00 6E EF EA 9E F2
(000.754454)  vcan0  00000309   [8]  05 73 00 00 00 00 00 00
(000.754661)  vcan0  00000130   [8]  00 00 00 00 00 00 00 00
(000.760167)  vcan0  0000014A   [8]  00 00 00 6F 23 10 D5 9A
(000.760396)  vcan0  0000017C   [8]  4B 00 00 00 00 00 00 00
(000.760612)  vcan0  00000309   [8]  05 81 00 00 00 00 00 00
(000.760824)  vcan0  00000130   [8]  00 00 00 00 00 00 00 00
(000.766331)  vcan0  00000002   [8]  00 00 00 00 00 00 00 00
(000.766559)  vcan0  00000309   [8]  05 8E 00 00 00 00 00 00
(000.766784)  vcan0  0000017C   [8]  4B 00 00 00 00 00 00 00
(000.766998)  vcan0  0000014A   [8]  00 00 00 6F 55 46 F0 F8
(000.767206)  vcan0  00000130   [8]  00 00 00 00 00 00 00 00
(000.772045)  vcan0  00000130   [8]  00 00 00 00 00 00 00 00
(000.772280)  vcan0  0000017C   [8]  4B 00 00 00 00 00 00 00
(000.772492)  vcan0  00000309   [8]  05 9C 00 00 00 00 00 00
(000.772704)  vcan0  0000014A   [8]  00 00 00 6F 84 B8 8D 44
(000.778087)  vcan0  0000017C   [8]  4B 00 00 00 00 00 00 00
(000.778303)  vcan0  00000130   [8]  00 00 00 00 00 00 00 00
(000.778516)  vcan0  00000309   [8]  05 A9 00 00 00 00 00 00
(000.778728)  vcan0  0000014A   [8]  00 00 00 6F B7 BE B6 F8
(000.784141)  vcan0  00000130   [8]  00 00 00 00 00 00 00 00
(000.784379)  vcan0  0000017C   [8]  4B 00 00 00 00 00 00 00
(000.784590)  vcan0  00000309   [8]  05 B7 00 00 00 00 00 00
(000.784804)  vcan0  0000014A   [8]  00 00 00 6F E7 B7 13 74
(000.790314)  vcan0  0000014A   [8]  00 00 00 70 19 0B E2 02
(000.790541)  vcan0  0000017C   [8]  4B 00 00 00 00 00 00 00
(000.790748)  vcan0  00000130   [8]  00 00 00 00 00 00 00 00
(000.790959)  vcan0  00000309   [8]  05 C4 00 00 00 00 00 00
(000.796321)  vcan0  00000130   [8]  00 00 00 00 00 00 00 00
(000.796557)  vcan0  00000309   [8]  05 D1 00 00 00 00 00 00
(000.796772)  vcan0  0000014A   [8]  00 00 00 70 48 32 13 FC
(000.796995)  vcan0  0000017C   [8]  4B 00 00 00 00 00 00 00
(000.802131)  vcan0  00000309   [8]  05 DF 00 00 00 00 00 00
(000.802356)  vcan0  0000017C   [8]  4B 00 00 00 00 00 00 00
(000.802564)  vcan0  00000130   [8]  00 00 00 00 00 00 00 00
(000.802775)  vcan0  0000014A   [8]  00 00 00 70 70 24 6F BE
(000.808299)  vcan0  00000130   [8]  00 00 00 00 00 00 00 00
(000.808544)  vcan0  0000017C   [8]  4B 00 00 00 00 00 00 00
(000.808759)  vcan0  0000014A   [8]  00 00 00 70 9F 24 24 54
(000.808970)  vcan0  00000309   [8]  05 EC 00 00 00 00 00 00
(000.814509)  vcan0  0000017C   [8]  4B 00 00 00 00 00 00 00
(000.814727)  vcan0  00000130   [8]  00 00 00 00 00 00 00 00
(000.814943)  vcan0  0000014A   [8]  00 00 00 70 CB 9E CC 1C
(000.815155)  vcan0  00000309   [8]  05 F9 00 00 00 00 00 00
(000.820148)  vcan0  0000017C   [8]  4B 00 00 00 00 00 00 00
(000.820371)  vcan0  0000014A   [8]  00 00 00 70 F6 37 9A 36
(000.820582)  vcan0  00000309   [8]  06 06 00 00 00 00 00 00
(000.820789)  vcan0  00000130   [8]  00 00 00 00 00 00 00 00
(000.826019)  vcan0  0000014A   [8]  00 00 00 71 23 D6 D2 F4
(000.826242)  vcan0  0000017C   [8]  4B 00 00 00 00 00 00 00
(000.826454)  vcan0  00000309   [8]  06 13 00 00 00 00 00 00
(000.826661)  vcan0  00000130   [8]  00 00 00 00 00 00 00 00
(000.832177)  vcan0  00000309   [8]  06 21 00 00 00 00 00 00
(000.832386)  vcan0  00000130   [8]  00 00 00 00 00 00 00 00
(000.832605)  vcan0  0000017C   [8]  4B 00 00 00 00 00 00 00
(000.832816)  vcan0  0000014A   [8]  00 00 00 71 49 5E 8B 4E
(000.838070)  vcan0  0000017C   [8]  4B 00 00 00 00 00 00 00
(000.838281)  vcan0  00000130   [8]  00 00 00 00 00 00 00 00
(000.838495)  vcan0  0000014A   [8]  00 00 00 71 76 1C 93 2E
(000.838705)  vcan0  00000309   [8]  06 2E 00 00 00 00 00 00
(000.844091)  vcan0  0000017C   [8]  4B 00 00 00 00 00 00 00
(000.844305)  vcan0  00000130   [8]  00 00 00 00 00 00 00 00
(000.844519)  vcan0  00000309   [8]  06 3B 00 00 00 00 00 00
(000.844730)  vcan0  0000014A   [8]  00 00 00 71 9B 9A C3 78
(000.850160)  vcan0  00000309   [8]  06 48 00 00 00 00 00 00
(000.850388)  vcan0  0000017C   [8]  4B 00 00 00 00 00 00 00
(000.850601)  vcan0  0000014A   [8]  00 00 00 71 C4 3C 5D 08
(000.850810)  vcan0  00000130   [8]  00 00 00 00 00 00 00 00
(000.856052)  vcan0  00000309   [8]  06 55 00 00 00 00 00 00
(000.856261)  vcan0  00000130   [8]  00 00 00 00 00 00 00 00
(000.856473)  vcan0  0000014A   [8]  00 00 00 71 E9 3C 2B 2E
(000.856692)  vcan0  0000017C   [8]  4B 00 00 00 00 00 00 00
(000.862054)  vcan0  0000017C   [8]  4B 00 00 00 00 00 00 00
(000.862270)  vcan0  00000309   [8]  06 62 00 00 00 00 00 00
(000.862482)  vcan0  0000014A   [8]  00 00 00 72 0F 70 DF EC
(000.862689)  vcan0  00000130   [8]  00 00 00 00 00 00 00 00
(000.868066)  vcan0  0000014A   [8]  00 00 00 72 33 9E D7 60
(000.868289)  vcan0  0000017C   [8]  4B 00 00 00 00 00 00 00
(000.868496)  vcan0  00000130   [8]  00 00 00 00 00 00 00 00
(000.868706)  vcan0  00000309   [8]  06 6F 00 00 00 00 00 00
(000.874000)  vcan0  0000017C   [8]  4B 00 00 00 00 00 00 00
(000.874209)  vcan0  00000130   [8]  00 00 00 00 00 00 00 00
(000.874421)  vcan0  00000309   [8]  06 7C 00 00 00 00 00 00
(000.874631)  vcan0  0000014A   [8]  00 00 00 72 5A 49 86 E8
(000.880119)  vcan0  0000014A   [8]  00 00 00 72 7C EF B8 3C
(000.880346)  vcan0  0000017C   [8]  4B 00 00 00 00 00 00 00
(000.880558)  vcan0  00000309   [8]  06 89 00 00 00 00 00 00
(000.880764)  vcan0  00000130   [8]  00 00 00 00 00 00 00 00
(000.885914)  vcan0  00000130   [8]  00 00 00 00 00 00 00 00
(000.886138)  vcan0  0000014A   [8]  00 00 00 72 A1 41 72 98
(000.886361)  vcan0  0000017C   [8]  4B 00 00 00 00 00 00 00
(000.886572)  vcan0  00000309   [8]  06 96 00 00 00 00 00 00
(000.892050)  vcan0  0000014A   [8]  00 00 00 72 C2 60 A6 06
(000.892261)  vcan0  00000130   [8]  00 00 00 00 00 00 00 00
(000.892483)  vcan0  0000017C   [8]  4B 00 00 00 00 00 00 00
(000.892719)  vcan0  00000309   [8]  06 A3 00 00 00 00 00 00
(000.898074)  vcan0  00000309   [8]  06 B0 00 00 00 00 00 00
(000.898289)  vcan0  0000014A   [8]  00 00 00 72 E0 B4 62 E8
(000.898512)  vcan0  0000017C   [8]  4B 00 00 00 00 00 00 00
(000.898761)  vcan0  00000130   [8]  00 00 00 00 00 00 00 00
(000.904595)  vcan0  00000309   [8]  06 BD 00 00 00 00 00 00
(000.904875)  vcan0  0000017C   [8]  4B 00 00 00 00 00 00 00
(000.905111)  vcan0  0000014A   [8]  00 00 00 73 01 AE A0 1A
(000.905319)  vcan0  00000130   [8]  00 00 00 00 00 00 00 00
(000.909991)  vcan0  0000014A   [8]  00 00 00 73 22 EC 1C CC
(000.910210)  vcan0  00000130   [8]  00 00 00 00 00 00 00 00
(000.910436)  vcan0  00000309   [8]  06 C9 00 00 00 00 00 00
(000.910672)  vcan0  0000017C   [8]  4B 00 00 00 00 00 00 00
(000.916191)  vcan0  0000017C   [8]  4B 00 00 00 00 00 00 00
(000.916405)  vcan0  00000130   [8]  00 00 00 00 00 00 00 00
(000.916618)  vcan0  00000309   [8]  06 D6 00 00 00 00 00 00
(000.916882)  vcan0  0000014A   [8]  00 00 00 73 40 56 D6 78
(000.922109)  vcan0  00000130   [8]  00 00 00 00 00 00 00 00
(000.922334)  vcan0  0000014A   [8]  00 00 00 84 3A 40 05 08
(000.922558)  vcan0  0000017C   [8]  4B 00 00 00 00 00 00 00
(000.922770)  vcan0  00000309   [8]  06 E3 00 00 00 00 00 00
(000.928136)  vcan0  0000017C   [8]  4B 00 00 00 00 00 00 00
(000.928352)  vcan0  00000309   [8]  06 F0 00 00 00 00 00 00
(000.928560)  vcan0  00000130   [8]  00 00 00 00 00 00 00 00
(000.928772)  vcan0  0000014A   [8]  00 00 00 78 B8 11 00 02
(000.934326)  vcan0  0000017C   [8]  4B 00 00 00 00 00 00 00
(000.934543)  vcan0  00000309   [8]  06 FD 00 00 00 00 00 00
(000.934759)  vcan0  0000014A   [8]  00 00 00 78 B1 A1 36 C2
(000.934966)  vcan0  00000130   [8]  00 00 00 00 00 00 00 00
(000.940098)  vcan0  00000130   [8]  00 00 00 00 00 00 00 00
(000.940325)  vcan0  00000309   [8]  07 09 00 00 00 00 00 00
(000.940537)  vcan0  0000014A   [8]  00 00 00 78 AD 91 73 C8
(000.940756)  vcan0  0000017C   [8]  4B 00 00 00 00 00 00 00
(000.946171)  vcan0  00000130   [8]  00 00 00 00 00 00 00 00
(000.946400)  vcan0  00000309   [8]  07 16 00 00 00 00 00 00
(000.946623)  vcan0  0000017C   [8]  4B 00 00 00 00 00 00 00
(000.946859)  vcan0  0000014A   [8]  00 00 00 78 A8 B8 FE 12
(000.952002)  vcan0  00000309   [8]  07 23 00 00 00 00 00 00
(000.952220)  vcan0  0000014A   [8]  00 00 00 78 A3 10 59 6C
(000.952441)  vcan0  0000017C   [8]  4B 00 00 00 00 00 00 00
(000.952647)  vcan0  00000130   [8]  00 00 00 00 00 00 00 00
(000.958112)  vcan0  0000014A   [8]  00 00 00 78 98 4A 84 0C
(000.958323)  vcan0  00000130   [8]  00 00 00 00 00 00 00 00
(000.958545)  vcan0  0000017C   [8]  4B 00 00 00 00 00 00 00
(000.958756)  vcan0  00000309   [8]  07 30 00 00 00 00 00 00
(000.964026)  vcan0  0000017C   [8]  4B 00 00 00 00 00 00 00
(000.964244)  vcan0  00000130   [8]  00 00 00 00 00 00 00 00
(000.964460)  vcan0  00000309   [8]  07 3C 00 00 00 00 00 00
(000.964675)  vcan0  0000014A   [8]  00 00 00 78 92 B8 61 F4
(000.970013)  vcan0  0000014A   [8]  00 00 00 78 8D C3 00 3A
(000.970237)  vcan0  0000017C   [8]  4B 00 00 00 00 00 00 00
(000.970448)  vcan0  00000309   [8]  07 49 00 00 00 00 00 00
(000.970656)  vcan0  00000130   [8]  00 00 00 00 00 00 00 00
(000.976104)  vcan0  0000017C   [8]  4B 00 00 00 00 00 00 00
(000.976319)  vcan0  0000014A   [8]  00 00 00 78 80 49 16 5E
(000.976526)  vcan0  00000130   [8]  00 00 00 00 00 00 00 00
(000.976736)  vcan0  00000309   [8]  07 56 00 00 00 00 00 00
(000.981919)  vcan0  00000130   [8]  00 00 00 00 00 00 00 00
(000.982139)  vcan0  0000014A   [8]  00 00 00 78 7D E1 39 1A
(000.982350)  vcan0  00000309   [8]  07 62 00 00 00 00 00 00
(000.982568)  vcan0  0000017C   [8]  4B 00 00 00 00 00 00 00
(000.988019)  vcan0  0000017C   [8]  4B 00 00 00 00 00 00 00
(000.988230)  vcan0  00000130   [8]  00 00 00 00 00 00 00 00
(000.988443)  vcan0  00000309   [8]  07 6F 00 00 00 00 00 00
(000.988653)  vcan0  0000014A   [8]  00 00 00 78 6C 9F EF 42
(000.994243)  vcan0  00000130   [8]  00 00 00 00 00 00 00 00
(000.994480)  vcan0  0000017C   [8]  4B 00 00 00 00 00 00 00
(000.994692)  vcan0  0000014A   [8]  00 00 00 78 6D 4C DB 5A
(000.994903)  vcan0  00000309   [8]  07 74 00 00 00 00 00 00
(000.999926)  vcan0  0000014A   [8]  00 00 00 78 5A E2 EC 4E
(001.000141)  vcan0  00000309   [8]  07 7C 00 00 00 00 00 00
(001.000365)  vcan0  0000017C   [8]  4B 00 00 00 00 00 00 00
(001.000572)  vcan0  00000130   [8]  00 00 00 00 00 00 00 00
(001.006018)  vcan0  00000309   [8]  07 75 00 00 00 00 00 00
(001.006242)  vcan0  0000017C   [8]  4B 00 00 00 00 00 00 00
(001.006449)  vcan0  00000130   [8]  00 00 00 00 00 00 00 00
(001.006660)  vcan0  0000014A   [8]  00 00 00 78 4F E1 BF E4
(001.012040)  vcan0  00000130   [8]  00 00 00 00 00 00 00 00
(001.012261)  vcan0  00000309   [8]  07 7E 00 00 00 00 00 00
(001.012472)  vcan0  0000014A   [8]  00 00 00 78 4D AF 74 58
(001.012689)  vcan0  0000017C   [8]  4B 00 00 00 00 00 00 00
(001.012895)  vcan0  00000002   [8]  00 00 00 00 00 00 00 00
(001.017882)  vcan0  0000017C   [8]  4B 00 00 00 00 00 00 00
(001.018095)  vcan0  0000014A   [8]  00 00 00 78 43 64 64 C8
(001.018305)  vcan0  00000309   [8]  07 7E 00 00 00 00 00 00
(001.018511)  vcan0  00000130   [8]  00 00 00 00 00 00 00 00
(001.023904)  vcan0  0000037B   [8]  00 00 00 00 00 00 00 00
(001.024112)  vcan0  0000018F   [8]  00 00 00 00 00 00 00 00
(001.024324)  vcan0  0000014A   [8]  00 00 00 78 38 AA 4C 16
(001.024533)  vcan0  00000309   [8]  07 89 00 00 00 00 00 00
(001.024749)  vcan0  000001A4   [8]  00 67 00 00 00 00 00 00
(001.024965)  vcan0  0000017C   [8]  4B 00 00 00 00 00 00 00
(001.025180)  vcan0  00000374   [8]  00 00 00 00 00 00 00 00
(001.025385)  vcan0  00000130   [8]  00 00 00 00 00 00 00 00
(001.025595)  vcan0  000001A3   [8]  00 00 00 00 00 00 00 00
(001.025808)  vcan0  00000326   [8]  00 00 00 00 00 00 00 00
(001.029905)  vcan0  00000130   [8]  00 00 00 00 00 00 00 00
(001.030130)  vcan0  0000014A   [8]  00 00 00 78 31 6A 5E 62
(001.030349)  vcan0  0000017C   [8]  4B 00 00 00 00 00 00 00
(001.030558)  vcan0  00000309   [8]  07 88 00 00 00 00 00 00
(001.035894)  vcan0  00000309   [8]  07 93 00 00 00 00 00 00
(001.036123)  vcan0  0000017C   [8]  4B 00 00 00 00 00 00 00
(001.036330)  vcan0  00000130   [8]  00 00 00 00 00 00 00 00
(001.036541)  vcan0  0000014A   [8]  00 00 00 78 2A CF BF FA
(001.042363)  vcan0  0000017C   [8]  4B 00 00 00 00 00 00 00
(001.042594)  vcan0  00000309   [8]  07 94 00 00 00 00 00 00
(001.042820)  vcan0  0000014A   [8]  00 00 00 78 21 D5 28 1A
(001.043035)  vcan0  00000130   [8]  00 00 00 00 00 00 00 00
(001.048247)  vcan0  00000309   [8]  07 A1 00 00 00 00 00 00
(001.048479)  vcan0  0000014A   [8]  00 00 00 78 1A 0A AF 4E
(001.048718)  vcan0  0000017C   [8]  4B 00 00 00 00 00 00 00
(001.048948)  vcan0  00000130   [8]  00 00 00 00 00 00 00 00
(001.054464)  vcan0  0000017C   [8]  4B 00 00 00 00 00 00 00
(001.054702)  vcan0  00000309   [8]  07 A2 00 00 00 00 00 00
(001.054930)  vcan0  0000014A   [8]  00 00 00 78 14 C4 BD 70
(001.055144)  vcan0  00000130   [8]  00 00 00 00 00 00 00 00
(001.060480)  vcan0  00000309   [8]  07 AF 00 00 00 00 00 00
(001.060693)  vcan0  00000130   [8]  00 00 00 00 00 00 00 00
(001.060919)  vcan0  0000017C   [8]  4B 00 00 00 00 00 00 00
(001.061132)  vcan0  0000014A   [8]  00 00 00 78 0B 6B B0 F2
(001.066213)  vcan0  00000309   [8]  07 B1 00 00 00 00 00 00
(001.066437)  vcan0  0000014A   [8]  00 00 00 78 03 98 A9 36
(001.066645)  vcan0  00000130   [8]  00 00 00 00 00 00 00 00
(001.066869)  vcan0  0000017C   [8]  4B 00 00 00 00 00 00 00
(001.072401)  vcan0  0000017C   [8]  4B 00 00 00 00 00 00 00
(001.072634)  vcan0  00000309   [8]  07 BF 00 00 00 00 00 00
(001.072860)  vcan0  0000014A   [8]  00 00 00 77 FC 58 D3 F4
(001.073075)  vcan0  00000130   [8]  00 00 00 00 00 00 00 00
(001.078482)  vcan0  00000309   [8]  07 C1 00 00 00 00 00 00
(001.078716)  vcan0  0000014A   [8]  00 00 00 77 F2 21 E6 18
(001.078956)  vcan0  0000017C   [8]  4B 00 00 00 00 00 00 00
(001.079170)  vcan0  00000130   [8]  00 00 00 00 00 00 00 00
(001.084208)  vcan0  00000309   [8]  07 CF 00 00 00 00 00 00
(001.084435)  vcan0  0000017C   [8]  4B 00 00 00 00 00 00 00
(001.084643)  vcan0  00000130   [8]  00 00 00 00 00 00 00 00
(001.084897)  vcan0  0000014A   [8]  00 00 00 77 F2 27 32 54
(001.090323)  vcan0  0000014A   [8]  00 00 00 77 E6 99 78 46
(001.090555)  vcan0  00000309   [8]  07 D3 00 00 00 00 00 00
(001.090803)  vcan0  0000017C   [8]  4B 00 00 00 00 00 00 00
(001.091013)  vcan0  00000130   [8]  00 00 00 00 00 00 00 00
(001.096247)  vcan0  0000014A   [8]  00 00 00 77 E5 76 51 5C
(001.096466)  vcan0  00000130   [8]  00 00 00 00 00 00 00 00
(001.096706)  vcan0  0000017C   [8]  4B 00 00 00 00 00 00 00
(001.096944)  vcan0  00000309   [8]  07 E2 00 00 00 00 00 00
(001.102186)  vcan0  0000014A   [8]  00 00 00 77 DA 44 80 02
(001.102403)  vcan0  00000309   [8]  07 E5 00 00 00 00 00 00
(001.102624)  vcan0  0000017C   [8]  4B 00 00 00 00 00 00 00
(001.102831)  vcan0  00000130   [8]  00 00 00 00 00 00 00 00
(001.108355)  vcan0  0000014A   [8]  00 00 00 77 D5 DA 4D 84
(001.108573)  vcan0  00000309   [8]  07 F5 00 00 00 00 00 00
(001.108786)  vcan0  00000130   [8]  00 00 00 00 00 00 00 00
(001.109011)  vcan0  0000017C   [8]  4B 00 00 00 00 00 00 00
(001.114279)  vcan0  0000014A   [8]  00 00 00 77 D4 7B 4F 82
(001.114511)  vcan0  00000309   [8]  07 F9 00 00 00 00 00 00
(001.114725)  vcan0  00000130   [8]  00 00 00 00 00 00 00 00
(001.114964)  vcan0  0000017C   [8]  4B 00 00 00 00 00 00 00
(001.120407)  vcan0  0000017C   [8]  4B 00 00 00 00 00 00 00
(001.120627)  vcan0  00000130   [8]  00 00 00 00 00 00 00 00
(001.120874)  vcan0  00000309   [8]  08 08 00 00 00 00 00 00
(001.121091)  vcan0  0000014A   [8]  00 00 00 77 CA 2E DC 4C
(001.126385)  vcan0  0000017C   [8]  4B 00 00 00 00 00 00 00
(001.126604)  vcan0  00000309   [8]  08 0D 00 00 00 00 00 00
(001.126811)  vcan0  00000130   [8]  00 00 00 00 00 00 00 00
(001.127022)  vcan0  0000014A   [8]  00 00 00 77 C7 5E 53 B6
(001.132021)  vcan0  00000309   [8]  08 1D 00 00 00 00 00 00
(001.132234)  vcan0  00000130   [8]  00 00 00 00 00 00 00 00
(001.132448)  vcan0  0000014A   [8]  00 00 00 77 BE 5B 75 14
(001.132669)  vcan0  0000017C   [8]  4B 00 00 00 00 00 00 00
(001.138118)  vcan0  00000130   [8]  00 00 00 00 00 00 00 00
(001.138340)  vcan0  00000309   [8]  08 22 00 00 00 00 00 00
(001.138560)  vcan0  0000017C   [8]  4B 00 00 00 00 00 00 00
(001.138771)  vcan0  0000014A   [8]  00 00 00 83 48 11 CD 98
(001.144130)  vcan0  0000017C   [8]  4B 00 00 00 00 00 00 00
(001.144346)  vcan0  00000309   [8]  08 32 00 00 00 00 00 00
(001.144553)  vcan0  00000130   [8]  00 00 00 00 00 00 00 00
(001.144763)  vcan0  0000014A   [8]  00 00 00 7B 53 82 42 88
(001.150542)  vcan0  0000017C   [8]  4B 00 00 00 00 00 00 00
(001.150753)  vcan0  00000130   [8]  00 00 00 00 00 00 00 00
(001.150965)  vcan0  0000014A   [8]  00 00 00 7B 39 05 E2 CE
(001.151174)  vcan0  00000309   [8]  08 37 00 00 00 00 00 00
(001.156112)  vcan0  0000017C   [8]  4B 00 00 00 00 00 00 00
(001.156323)  vcan0  00000130   [8]  00 00 00 00 00 00 00 00
(001.156537)  vcan0  00000309   [8]  08 48 00 00 00 00 00 00
(001.156748)  vcan0  0000014A   [8]  00 00 00 7B 1A C5 23 6C
(001.162344)  vcan0  00000130   [8]  00 00 00 00 00 00 00 00
(001.162569)  vcan0  0000014A   [8]  00 00 00 7B 04 B2 D4 6C
(001.162780)  vcan0  00000309   [8]  08 4E 00 00 00 00 00 00
(001.163003)  vcan0  0000017C   [8]  4B 00 00 00 00 00 00 00
(001.168223)  vcan0  00000309   [8]  08 5F 00 00 00 00 00 00
(001.168435)  vcan0  00000130   [8]  00 00 00 00 00 00 00 00
(001.168649)  vcan0  0000014A   [8]  00 00 00 7A E2 73 3A 64
(001.168871)  vcan0  0000017C   [8]  4B 00 00 00 00 00 00 00
(001.174293)  vcan0  00000130   [8]  00 00 00 00 00 00 00 00
(001.174517)  vcan0  00000309   [8]  08 64 00 00 00 00 00 00
(001.174732)  vcan0  0000014A   [8]  00 00 00 7A CA 3B B1 A0
(001.174953)  vcan0  0000017C   [8]  4B 00 00 00 00 00 00 00
(001.179931)  vcan0  0000017C   [8]  4B 00 00 00 00 00 00 00
(001.180146)  vcan0  00000309   [8]  08 76 00 00 00 00 00 00
(001.180354)  vcan0  00000130   [8]  00 00 00 00 00 00 00 00
(001.180566)  vcan0  0000014A   [8]  00 00 00 7A AC B1 C1 36
(001.185930)  vcan0  00000309   [8]  08 7B 00 00 00 00 00 00
(001.186154)  vcan0  0000017C   [8]  4B 00 00 00 00 00 00 00
(001.186366)  vcan0  0000014A   [8]  00 00 00 7A 92 13 46 54
(001.186573)  vcan0  00000130   [8]  00 00 00 00 00 00 00 00
(001.192328)  vcan0  0000017C   [8]  4B 00 00 00 00 00 00 00
(001.192558)  vcan0  00000309   [8]  08 8D 00 00 00 00 00 00
(001.192785)  vcan0  0000014A   [8]  00 00 00 7A 70 C3 37 3C
(001.192999)  vcan0  00000130   [8]  00 00 00 00 00 00 00 00
(001.197883)  vcan0  00000130   [8]  00 00 00 00 00 00 00 00
(001.198119)  vcan0  00000309   [8]  08 93 00 00 00 00 00 00
(001.198332)  vcan0  0000014A   [8]  00 00 00 7A 57 D4 6B 16
(001.198552)  vcan0  0000017C   [8]  4B 00 00 00 00 00 00 00
(001.203955)  vcan0  00000130   [8]  00 00 00 00 00 00 00 00
(001.204178)  vcan0  0000014A   [8]  00 00 00 7A 39 34 7B A8
(001.204404)  vcan0  0000017C   [8]  4B 00 00 00 00 00 00 00
(001.204616)  vcan0  00000309   [8]  08 A4 00 00 00 00 00 00
(001.210161)  vcan0  00000130   [8]  00 00 00 00 00 00 00 00
(001.210392)  vcan0  0000014A   [8]  00 00 00 7A 1B 5B ED 5C
(001.210604)  vcan0  00000309   [8]  08 AB 00 00 00 00 00 00
(001.210826)  vcan0  0000017C   [8]  4B 00 00 00 00 00 00 00
(001.216087)  vcan0  0000014A   [8]  00 00 00 7A 01 15 DE 46
(001.216303)  vcan0  00000309   [8]  08 BC 00 00 00 00 00 00
(001.216524)  vcan0  0000017C   [8]  4B 00 00 00 00 00 00 00
(001.216732)  vcan0  00000130   [8]  00 00 00 00 00 00 00 00
(001.222111)  vcan0  0000017C   [8]  4B 00 00 00 00 00 00 00
(001.222322)  vcan0  00000130   [8]  00 00 00 00 00 00 00 00
(001.222536)  vcan0  00000309   [8]  08 C3 00 00 00 00 00 00
(001.222747)  vcan0  0000014A   [8]  00 00 00 79 E9 E4 FA 56
(001.228043)  vcan0  00000130   [8]  00 00 00 00 00 00 00 00
(001.228279)  vcan0  0000017C   [8]  4B 00 00 00 00 00 00 00
(001.228493)  vcan0  00000309   [8]  08 D4 00 00 00 00 00 00
(001.228705)  vcan0  0000014A   [8]  00 00 00 79 CC 79 6F 1E
(001.234765)  vcan0  0000017C   [8]  4B 00 00 00 00 00 00 00
(001.235003)  vcan0  0000014A   [8]  00 00 00 79 B0 13 96 98
(001.235222)  vcan0  00000130   [8]  00 00 00 00 00 00 00 00
(001.235448)  vcan0  00000309   [8]  08 DB 00 00 00 00 00 00
(001.240634)  vcan0  0000017C   [8]  4B 00 00 00 00 00 00 00
(001.240865)  vcan0  0000014A   [8]  00 00 00 79 9A 16 BE 66
(001.241099)  vcan0  00000130   [8]  00 00 00 00 00 00 00 00
(001.241327)  vcan0  00000309   [8]  08 ED 00 00 00 00 00 00
(001.246244)  vcan0  0000017C   [8]  4B 00 00 00 00 00 00 00
(001.246459)  vcan0  00000130   [8]  00 00 00 00 00 00 00 00
(001.246674)  vcan0  00000309   [8]  08 F4 00 00 00 00 00 00
(001.246889)  vcan0  0000014A   [8]  00 00 00 79 81 85 DA 04
(001.252439)  vcan0  0000014A   [8]  00 00 00 79 69 9C C9 E0
(001.252649)  vcan0  00000130   [8]  00 00 00 00 00 00 00 00
(001.252873)  vcan0  0000017C   [8]  4B 00 00 00 00 00 00 00
(001.253084)  vcan0  00000309   [8]  09 05 00 00 00 00 00 00
(001.258060)  vcan0  00000309   [8]  09 0C 00 00 00 00 00 00
(001.258273)  vcan0  00000002   [8]  00 00 00 00 00 00 00 00
(001.258481)  vcan0  00000130   [8]  00 00 00 00 00 00 00 00
(001.258698)  vcan0  0000014A   [8]  00 00 00 79 50 D8 4F 58
(001.258920)  vcan0  0000017C   [8]  4B 00 00 00 00 00 00 00
(001.264120)  vcan0  0000014A   [8]  00 00 00 79 3C 3B F0 A8
(001.264346)  vcan0  0000017C   [8]  4B 00 00 00 00 00 00 00
(001.264554)  vcan0  00000130   [8]  00 00 00 00 00 00 00 00
(001.264766)  vcan0  00000309   [8]  09 1E 00 00 00 00 00 00
(001.270143)  vcan0  00000130   [8]  00 00 00 00 00 00 00 00
(001.270383)  vcan0  0000017C   [8]  4B 00 00 00 00 00 00 00
(001.270599)  vcan0  0000014A   [8]  00 00 00 79 28 3E 8F 1A
(001.270811)  vcan0  00000309   [8]  09 25 00 00 00 00 00 00
(001.275972)  vcan0  0000014A   [8]  00 00 00 79 10 60 33 60
(001.276203)  vcan0  0000017C   [8]  4B 00 00 00 00 00 00 00
(001.276410)  vcan0  00000130   [8]  00 00 00 00 00 00 00 00
(001.276621)  vcan0  00000309   [8]  09 37 00 00 00 00 00 00
(001.282221)  vcan0  0000017C   [8]  4B 00 00 00 00 00 00 00
(001.282436)  vcan0  00000130   [8]  00 00 00 00 00 00 00 00
(001.282650)  vcan0  00000309   [8]  09 3E 00 00 00 00 00 00
(001.282862)  vcan0  0000014A   [8]  00 00 00 79 02 4F 9A 24
(001.288091)  vcan0  0000014A   [8]  00 00 00 78 E9 1D 4F A4
(001.288303)  vcan0  00000130   [8]  00 00 00 00 00 00 00 00
(001.288516)  vcan0  00000309   [8]  09 50 00 00 00 00 00 00
(001.288737)  vcan0  0000017C   [8]  4B 00 00 00 00 00 00 00
(001.294267)  vcan0  00000130   [8]  00 00 00 00 00 00 00 00
(001.294509)  vcan0  0000014A   [8]  00 00 00 78 D7 A3 37 32
(001.294756)  vcan0  0000017C   [8]  4B 00 00 00 00 00 00 00
(001.294972)  vcan0  00000309   [8]  09 57 00 00 00 00 00 00
(001.300428)  vcan0  00000130   [8]  00 00 00 00 00 00 00 00
(001.300680)  vcan0  0000017C   [8]  4B 00 00 00 00 00 00 00
(001.300899)  vcan0  0000014A   [8]  00 00 00 78 C6 A0 BC A4
(001.301110)  vcan0  00000309   [8]  09 69 00 00 00 00 00 00
(001.306582)  vcan0  00000309   [8]  09 70 00 00 00 00 00 00
(001.306794)  vcan0  00000130   [8]  00 00 00 00 00 00 00 00
(001.307016)  vcan0  0000017C   [8]  4B 00 00 00 00 00 00 00
(001.307228)  vcan0  0000014A   [8]  00 00 00 78 B4 AA F5 8E
(001.312814)  vcan0  0000017C   [8]  45 2C 00 00 00 00 00 00
(001.313027)  vcan0  00000130   [8]  00 00 00 00 00 00 00 00
(001.313245)  vcan0  00000309   [8]  09 82 00 00 00 00 00 00
(001.313459)  vcan0  0000014A   [8]  00 00 00 78 A3 7E D8 04
(001.318902)  vcan0  00000130   [8]  00 00 00 00 00 00 00 00
(001.319131)  vcan0  0000014A   [8]  00 00 00 80 99 4F 9A 34
(001.319354)  vcan0  0000017C   [8]  3D 77 00 00 00 00 00 00
(001.319564)  vcan0  00000309   [8]  09 89 00 00 00 00 00 00
(001.324138)  vcan0  00000130   [8]  00 00 00 00 00 00 00 00
(001.324363)  vcan0  00000309   [8]  09 9B 00 00 00 00 00 00
(001.324575)  vcan0  0000014A   [8]  00 00 00 7B 03 FF 05 CE
(001.324797)  vcan0  0000017C   [8]  2B 8C 00 00 00 00 00 00
(001.330031)  vcan0  0000017C   [8]  24 24 00 00 00 00 00 00
(001.330246)  vcan0  00000130   [8]  00 00 00 00 00 00 00 00
(001.330461)  vcan0  00000309   [8]  09 A2 00 00 00 00 00 00
(001.330673)  vcan0  0000014A   [8]  00 00 00 7A E7 8A 5A 24
(001.337011)  vcan0  0000014A   [8]  00 00 00 7A C6 5D 17 24
(001.337235)  vcan0  00000130   [8]  00 00 00 00 00 00 00 00
(001.337466)  vcan0  00000309   [8]  09 B3 00 00 00 00 00 00
(001.337706)  vcan0  0000017C   [8]  13 19 00 00 00 00 00 00
(001.342308)  vcan0  00000130   [8]  00 00 00 00 00 00 00 00
(001.342534)  vcan0  0000014A   [8]  00 00 00 7A A6 D9 6F 94
(001.342755)  vcan0  0000017C   [8]  0C AF 00 00 00 00 00 00
(001.342965)  vcan0  00000309   [8]  09 B9 00 00 00 00 00 00
(001.348137)  vcan0  0000014A   [8]  00 00 00 7A 83 54 2E 34
(001.348364)  vcan0  0000017C   [8]  00 00 00 00 00 00 01 D0
(001.348578)  vcan0  00000309   [8]  09 C8 00 00 00 00 00 00
(001.348790)  vcan0  00000130   [8]  00 00 00 00 00 00 00 00
(001.354317)  vcan0  00000130   [8]  00 00 00 00 00 00 00 00
(001.354554)  vcan0  0000017C   [8]  00 00 00 00 00 00 05 00
(001.354768)  vcan0  00000309   [8]  09 CD 00 00 00 00 00 00
(001.354979)  vcan0  0000014A   [8]  00 00 00 7A 67 4B 1A 68
(001.360240)  vcan0  00000130   [8]  00 00 00 00 00 00 00 00
(001.360479)  vcan0  0000017C   [8]  00 00 00 00 00 00 0D 80
(001.360689)  vcan0  00000309   [8]  09 DA 00 00 00 00 00 00
(001.360900)  vcan0  0000014A   [8]  00 00 00 7A 46 63 90 34
(001.366361)  vcan0  00000130   [8]  00 00 00 00 00 00 00 00
(001.366577)  vcan0  0000014A   [8]  00 00 00 7A 2B E5 14 4E
(001.366799)  vcan0  0000017C   [8]  00 00 00 00 00 00 0E F8
(001.367008)  vcan0  00000309   [8]  09 DC 00 00 00 00 00 00
(001.371966)  vcan0  0000017C   [8]  00 00 00 00 00 00 13 30
(001.372177)  vcan0  00000130   [8]  00 00 00 00 00 00 00 00
(001.372390)  vcan0  0000014A   [8]  00 00 00 7A 09 BD F6 14
(001.372600)  vcan0  00000309   [8]  09 E6 00 00 00 00 00 00
(001.377926)  vcan0  0000014A   [8]  00 00 00 79 EC 75 24 56
(001.378152)  vcan0  0000017C   [8]  00 00 00 00 00 00 13 30
(001.378360)  vcan0  00000130   [8]  00 00 00 00 00 00 00 00
(001.378570)  vcan0  00000309   [8]  09 E5 00 00 00 00 00 00
(001.384211)  vcan0  00000309   [8]  09 EC 00 00 00 00 00 00
(001.384434)  vcan0  0000017C   [8]  00 00 00 00 00 00 13 30
(001.384641)  vcan0  00000130   [8]  00 00 00 00 00 00 00 00
(001.384850)  vcan0  0000014A   [8]  00 00 00 79 D1 8E 5B 6A
(001.390066)  vcan0  00000130   [8]  00 00 00 00 00 00 00 00
(001.390309)  vcan0  0000017C   [8]  00 00 00 00 00 00 13 30
(001.390524)  vcan0  00000309   [8]  09 E9 00 00 00 00 00 00
(001.390766)  vcan0  0000014A   [8]  00 00 00 79 B4 F4 94 42
(001.396719)  vcan0  00000309   [8]  09 EE 00 00 00 00 00 00
(001.396945)  vcan0  00000130   [8]  00 00 00 00 00 00 00 00
(001.397189)  vcan0  0000014A   [8]  00 00 00 79 96 E1 3B CA
(001.397439)  vcan0  0000017C   [8]  00 00 00 00 00 00 13 30
(001.403076)  vcan0  00000130   [8]  00 00 00 00 00 00 00 00
(001.403341)  vcan0  00000309   [8]  09 E9 00 00 00 00 00 00
(001.403590)  vcan0  0000017C   [8]  00 00 00 00 00 00 13 30
(001.403823)  vcan0  0000014A   [8]  00 00 00 79 7E 9A 07 58
(001.408570)  vcan0  00000130   [8]  00 00 00 00 00 00 00 00
(001.408816)  vcan0  0000017C   [8]  00 00 00 00 00 00 13 30
(001.409029)  vcan0  00000309   [8]  09 EC 00 00 00 00 00 00
(001.409241)  vcan0  0000014A   [8]  00 00 00 79 62 A3 6E AA
(001.415190)  vcan0  00000130   [8]  00 00 00 00 00 00 00 00
(001.415436)  vcan0  0000014A   [8]  00 00 00 79 4A DB CD 60
(001.415668)  vcan0  0000017C   [8]  00 00 00 00 00 00 13 30
(001.415882)  vcan0  00000309   [8]  09 E6 00 00 00 00 00 00
(001.420528)  vcan0  0000014A   [8]  00 00 00 79 30 E8 20 18
(001.420741)  vcan0  00000130   [8]  00 00 00 00 00 00 00 00
(001.420956)  vcan0  00000309   [8]  09 E8 00 00 00 00 00 00
(001.421183)  vcan0  0000017C   [8]  00 00 00 00 00 00 13 30
(001.426620)  vcan0  0000014A   [8]  00 00 00 79 1C 5A E1 62
(001.426852)  vcan0  0000017C   [8]  00 00 00 00 00 00 12 F8
(001.427071)  vcan0  00000309   [8]  09 E1 00 00 00 00 00 00
(001.427280)  vcan0  00000130   [8]  00 00 00 00 00 00 00 00
(001.432395)  vcan0  0000014A   [8]  00 00 00 79 04 AE E8 7A
(001.432612)  vcan0  00000309   [8]  09 E2 00 00 00 00 00 00
(001.432820)  vcan0  00000130   [8]  00 00 00 00 00 00 00 00
(001.433042)  vcan0  0000017C   [8]  00 00 00 00 00 00 13 30
(001.438858)  vcan0  0000017C   [8]  00 00 00 00 00 00 0E 68
(001.439069)  vcan0  00000130   [8]  00 00 00 00 00 00 00 00
(001.439287)  vcan0  00000309   [8]  09 DA 00 00 00 00 00 00
(001.439499)  vcan0  0000014A   [8]  00 00 00 78 F0 14 B6 42
(001.444457)  vcan0  0000014A   [8]  00 00 00 78 DC 99 55 84
(001.444704)  vcan0  0000017C   [8]  00 00 00 00 00 00 0E D0
(001.444920)  vcan0  00000130   [8]  00 00 00 00 00 00 00 00
(001.445145)  vcan0  00000309   [8]  09 DA 00 00 00 00 00 00
(001.450277)  vcan0  0000017C   [8]  00 00 00 00 00 00 09 08
(001.450497)  vcan0  0000014A   [8]  00 00 00 78 C8 9E AC 20
(001.450708)  vcan0  00000309   [8]  09 D1 00 00 00 00 00 00
(001.450914)  vcan0  00000130   [8]  00 00 00 00 00 00 00 00
(001.456208)  vcan0  00000130   [8]  00 00 00 00 00 00 00 00
(001.456441)  vcan0  0000017C   [8]  00 00 00 00 00 00 09 38
(001.456656)  vcan0  00000309   [8]  09 D2 00 00 00 00 00 00
(001.456869)  vcan0  0000014A   [8]  00 00 00 78 B5 31 58 9E
(001.462094)  vcan0  0000014A   [8]  00 00 00 78 A4 88 CC 5A
(001.462304)  vcan0  00000130   [8]  00 00 00 00 00 00 00 00
(001.462528)  vcan0  0000017C   [8]  00 00 00 00 00 00 03 48
(001.462739)  vcan0  00000309   [8]  09 C9 00 00 00 00 00 00
(001.468032)  vcan0  0000017C   [8]  00 00 00 00 00 00 03 68
(001.468247)  vcan0  0000014A   [8]  00 00 00 78 94 20 14 26
(001.468459)  vcan0  00000309   [8]  09 C9 00 00 00 00 00 00
(001.468666)  vcan0  00000130   [8]  00 00 00 00 00 00 00 00
(001.474135)  vcan0  0000014A   [8]  00 00 00 78 81 CE 26 AA
(001.474344)  vcan0  00000130   [8]  00 00 00 00 00 00 00 00
(001.474557)  vcan0  00000309   [8]  09 C0 00 00 00 00 00 00
(001.474776)  vcan0  0000017C   [8]  04 03 00 00 00 00 00 00
(001.480000)  vcan0  0000017C   [8]  03 D4 00 00 00 00 00 00
(001.480213)  vcan0  00000130   [8]  00 00 00 00 00 00 00 00
(001.480430)  vcan0  0000014A   [8]  00 00 00 78 72 8C A7 48
(001.480641)  vcan0  00000309   [8]  09 C0 00 00 00 00 00 00
(001.486079)  vcan0  0000014A   [8]  00 00 00 78 64 16 D4 00
(001.486307)  vcan0  0000017C   [8]  0D 37 00 00 00 00 00 00
(001.486520)  vcan0  00000309   [8]  09 B7 00 00 00 00 00 00
(001.486727)  vcan0  00000130   [8]  00 00 00 00 00 00 00 00
(001.492336)  vcan0  0000017C   [8]  0D 17 00 00 00 00 00 00
(001.492556)  vcan0  0000014A   [8]  00 00 00 78 55 45 FF AE
(001.492766)  vcan0  00000130   [8]  00 00 00 00 00 00 00 00
(001.492978)  vcan0  00000309   [8]  09 B7 00 00 00 00 00 00
(001.498539)  vcan0  0000014A   [8]  00 00 00 78 47 29 88 00
(001.498762)  vcan0  00000130   [8]  00 00 00 00 00 00 00 00
(001.499010)  vcan0  0000017C   [8]  16 E1 00 00 00 00 00 00
(001.499238)  vcan0  00000309   [8]  09 AD 00 00 00 00 00 00
(001.504415)  vcan0  00000309   [8]  09 AD 00 00 00 00 00 00
(001.504628)  vcan0  00000002   [8]  00 00 00 00 00 00 00 00
(001.504834)  vcan0  00000130   [8]  00 00 00 00 00 00 00 00
(001.505059)  vcan0  0000014A   [8]  00 00 00 78 39 DD 6A 56
(001.505282)  vcan0  0000017C   [8]  16 D7 00 00 00 00 00 00
(001.510144)  vcan0  0000014A   [8]  00 00 00 78 2D D6 4F DC
(001.510369)  vcan0  0000017C   [8]  20 A8 00 00 00 00 00 00
(001.510577)  vcan0  00000130   [8]  00 00 00 00 00 00 00 00
(001.510792)  vcan0  00000309   [8]  09 A4 00 00 00 00 00 00
(001.516554)  vcan0  00000130   [8]  00 00 00 00 00 00 00 00
(001.516780)  vcan0  0000014A   [8]  00 00 00 78 22 E0 39 A8
(001.516995)  vcan0  00000309   [8]  09 A4 00 00 00 00 00 00
(001.517215)  vcan0  0000017C   [8]  20 73 00 00 00 00 00 00
(001.522077)  vcan0  0000018F   [8]  00 00 00 00 00 00 00 00
(001.522300)  vcan0  0000014A   [8]  00 00 00 78 18 AA C0 54
(001.522518)  vcan0  000001A3   [8]  00 00 00 00 00 00 00 00
(001.522741)  vcan0  0000017C   [8]  29 FE 00 00 00 00 00 00
(001.522952)  vcan0  00000309   [8]  09 9A 00 00 00 00 00 00
(001.523162)  vcan0  00000130   [8]  00 00 00 00 00 00 00 00
(001.528432)  vcan0  0000014A   [8]  00 00 00 78 0F CC DB 6C
(001.528651)  vcan0  00000130   [8]  00 00 00 00 00 00 00 00
(001.528891)  vcan0  0000017C   [8]  29 63 00 00 00 00 00 00
(001.529114)  vcan0  00000309   [8]  09 9B 00 00 00 00 00 00
(001.534539)  vcan0  00000130   [8]  00 00 00 00 00 00 00 00
(001.534800)  vcan0  0000017C   [8]  32 65 00 00 00 00 00 00
(001.535025)  vcan0  00000309   [8]  09 92 00 00 00 00 00 00
(001.535281)  vcan0  0000014A   [8]  00 00 00 7D FA 88 61 AC
(001.540203)  vcan0  00000309   [8]  09 94 00 00 00 00 00 00
(001.540427)  vcan0  0000017C   [8]  31 32 00 00 00 00 00 00
(001.540639)  vcan0  0000014A   [8]  00 00 00 79 D4 4C 52 C4
(001.540846)  vcan0  00000130   [8]  00 00 00 00 00 00 00 00
(001.546078)  vcan0  00000130   [8]  00 00 00 00 00 00 00 00
(001.546308)  vcan0  0000014A   [8]  00 00 00 79 C1 6B 9D 32
(001.546533)  vcan0  0000017C   [8]  39 72 00 00 00 00 00 00
(001.546745)  vcan0  00000309   [8]  09 8B 00 00 00 00 00 00
(001.552395)  vcan0  00000309   [8]  09 8E 00 00 00 00 00 00
(001.552621)  vcan0  0000017C   [8]  37 7A 00 00 00 00 00 00
(001.552829)  vcan0  00000130   [8]  00 00 00 00 00 00 00 00
(001.553041)  vcan0  0000014A   [8]  00 00 00 79 A9 38 6D 5C
(001.558158)  vcan0  00000309   [8]  09 86 00 00 00 00 00 00
(001.558372)  vcan0  0000014A   [8]  00 00 00 79 95 C6 F6 78
(001.558579)  vcan0  00000130   [8]  00 00 00 00 00 00 00 00
(001.558802)  vcan0  0000017C   [8]  3E D0 00 00 00 00 00 00
(001.563988)  vcan0  0000014A   [8]  00 00 00 79 7E A0 8C BE
(001.564213)  vcan0  0000017C   [8]  3B F5 00 00 00 00 00 00
(001.564420)  vcan0  00000130   [8]  00 00 00 00 00 00 00 00
(001.564631)  vcan0  00000309   [8]  09 89 00 00 00 00 00 00
(001.570066)  vcan0  00000130   [8]  00 00 00 00 00 00 00 00
(001.570290)  vcan0  0000014A   [8]  00 00 00 79 6D B5 97 30
(001.570504)  vcan0  00000309   [8]  09 83 00 00 00 00 00 00
(001.570722)  vcan0  0000017C   [8]  42 46 00 00 00 00 00 00
(001.575982)  vcan0  0000017C   [8]  3E 74 00 00 00 00 00 00
(001.576196)  vcan0  00000309   [8]  09 87 00 00 00 00 00 00
(001.576403)  vcan0  00000130   [8]  00 00 00 00 00 00 00 00
(001.576613)  vcan0  0000014A   [8]  00 00 00 79 55 24 C7 C4
(001.582144)  vcan0  0000017C   [8]  43 B7 00 00 00 00 00 00
(001.582374)  vcan0  00000309   [8]  09 82 00 00 00 00 00 00
(001.582590)  vcan0  00000130   [8]  00 00 00 00 00 00 00 00
(001.582814)  vcan0  0000014A   [8]  00 00 00 79 41 B8 3A 28
(001.588299)  vcan0  00000130   [8]  00 00 00 00 00 00 00 00
(001.588527)  vcan0  0000014A   [8]  00 00 00 79 30 4A BC C0
(001.588751)  vcan0  0000017C   [8]  3E E6 00 00 00 00 00 00
(001.588982)  vcan0  00000309   [8]  09 87 00 00 00 00 00 00
(001.594058)  vcan0  0000017C   [8]  43 20 00 00 00 00 00 00
(001.594272)  vcan0  00000309   [8]  09 82 00 00 00 00 00 00
(001.594484)  vcan0  0000014A   [8]  00 00 00 79 1B 25 88 B2
(001.594742)  vcan0  00000130   [8]  00 00 00 00 00 00 00 00
(001.600171)  vcan0  00000309   [8]  09 88 00 00 00 00 00 00
(001.600389)  vcan0  0000014A   [8]  00 00 00 79 06 34 BE AC
(001.600615)  vcan0  0000017C   [8]  3D 5A 00 00 00 00 00 00
(001.600921)  vcan0  00000130   [8]  00 00 00 00 00 00 00 00
(001.606117)  vcan0  00000130   [8]  00 00 00 00 00 00 00 00
(001.606339)  vcan0  00000309   [8]  09 85 00 00 00 00 00 00
(001.606559)  vcan0  0000017C   [8]  40 A1 00 00 00 00 00 00
(001.606770)  vcan0  0000014A   [8]  00 00 00 78 F4 DB F6 D2
(001.612348)  vcan0  00000130   [8]  00 00 00 00 00 00 00 00
(001.612587)  vcan0  0000014A   [8]  00 00 00 78 E1 62 6E B8
(001.612828)  vcan0  0000017C   [8]  3A 01 00 00 00 00 00 00
(001.613052)  vcan0  00000309   [8]  09 8C 00 00 00 00 00 00
(001.618494)  vcan0  00000130   [8]  00 00 00 00 00 00 00 00
(001.618735)  vcan0  0000017C   [8]  3C 7D 00 00 00 00 00 00
(001.618950)  vcan0  0000014A   [8]  00 00 00 78 CF 30 4F 54
(001.619162)  vcan0  00000309   [8]  09 89 00 00 00 00 00 00
(001.624293)  vcan0  0000014A   [8]  00 00 00 78 BC DF 3F 0A
(001.624510)  vcan0  00000309   [8]  09 90 00 00 00 00 00 00
(001.624732)  vcan0  0000017C   [8]  35 2F 00 00 00 00 00 00
(001.624939)  vcan0  00000130   [8]  00 00 00 00 00 00 00 00
(001.630473)  vcan0  00000130   [8]  00 00 00 00 00 00 00 00
(001.630735)  vcan0  0000017C   [8]  37 12 00 00 00 00 00 00
(001.630962)  vcan0  0000014A   [8]  00 00 00 78 AC FE A4 44
(001.631185)  vcan0  00000309   [8]  09 8E 00 00 00 00 00 00
(001.636392)  vcan0  00000309   [8]  09 96 00 00 00 00 00 00
(001.636611)  vcan0  0000014A   [8]  00 00 00 78 9B BB A9 5C
(001.636818)  vcan0  00000130   [8]  00 00 00 00 00 00 00 00
(001.637040)  vcan0  0000017C   [8]  2F 50 00 00 00 00 00 00
(001.642179)  vcan0  0000014A   [8]  00 00 00 78 8D B5 6E 64
(001.642405)  vcan0  00000309   [8]  09 95 00 00 00 00 00 00
(001.642615)  vcan0  00000130   [8]  00 00 00 00 00 00 00 00
(001.642839)  vcan0  0000017C   [8]  30 D5 00 00 00 00 00 00
(001.648095)  vcan0  00000309   [8]  09 9C 00 00 00 00 00 00
(001.648323)  vcan0  0000017C   [8]  28 DD 00 00 00 00 00 00
(001.648532)  vcan0  00000130   [8]  00 00 00 00 00 00 00 00
(001.648747)  vcan0  0000014A   [8]  00 00 00 78 7B C3 AE C0
(001.654169)  vcan0  0000017C   [8]  2A 40 00 00 00 00 00 00
(001.654378)  vcan0  00000130   [8]  00 00 00 00 00 00 00 00
(001.654589)  vcan0  00000309   [8]  09 9B 00 00 00 00 00 00
(001.654800)  vcan0  0000014A   [8]  00 00 00 78 70 8F 22 E6
(001.659944)  vcan0  00000309   [8]  09 A3 00 00 00 00 00 00
(001.660166)  vcan0  0000017C   [8]  22 53 00 00 00 00 00 00
(001.660373)  vcan0  00000130   [8]  00 00 00 00 00 00 00 00
(001.660583)  vcan0  0000014A   [8]  00 00 00 78 62 22 C2 BA
(001.666073)  vcan0  0000017C   [8]  23 D1 00 00 00 00 00 00
(001.666286)  vcan0  00000309   [8]  09 A1 00 00 00 00 00 00
(001.666496)  vcan0  0000014A   [8]  00 00 00 78 55 DC D7 CE
(001.666702)  vcan0  00000130   [8]  00 00 00 00 00 00 00 00
(001.672074)  vcan0  0000014A   [8]  00 00 00 78 45 42 D5 58
(001.672298)  vcan0  0000017C   [8]  1C 26 00 00 00 00 00 00
(001.672505)  vcan0  00000130   [8]  00 00 00 00 00 00 00 00
(001.672714)  vcan0  00000309   [8]  09 A9 00 00 00 00 00 00
(001.678027)  vcan0  0000014A   [8]  00 00 00 78 3A DF DD D2
(001.678244)  vcan0  00000309   [8]  09 A7 00 00 00 00 00 00
(001.678466)  vcan0  0000017C   [8]  1D F3 00 00 00 00 00 00
(001.678672)  vcan0  00000130   [8]  00 00 00 00 00 00 00 00
(001.684394)  vcan0  00000130   [8]  00 00 00 00 00 00 00 00
(001.684627)  vcan0  0000014A   [8]  00 00 00 78 2F 2D 23 0C
(001.684841)  vcan0  00000309   [8]  09 AE 00 00 00 00 00 00
(001.685128)  vcan0  0000017C   [8]  16 BB 00 00 00 00 00 00
(001.690191)  vcan0  0000017C   [8]  19 00 00 00 00 00 00 00
(001.690406)  vcan0  00000309   [8]  09 AC 00 00 00 00 00 00
(001.690613)  vcan0  00000130   [8]  00 00 00 00 00 00 00 00
(001.690892)  vcan0  0000014A   [8]  00 00 00 78 21 5B 38 80
(001.696099)  vcan0  0000014A   [8]  00 00 00 78 18 7F 57 52
(001.696313)  vcan0  00000309   [8]  09 B2 00 00 00 00 00 00
(001.696521)  vcan0  00000130   [8]  00 00 00 00 00 00 00 00
(001.696761)  vcan0  0000017C   [8]  12 5E 00 00 00 00 00 00
(001.702316)  vcan0  00000130   [8]  00 00 00 00 00 00 00 00
(001.702543)  vcan0  00000309   [8]  09 AF 00 00 00 00 00 00
(001.702765)  vcan0  0000017C   [8]  15 39 00 00 00 00 00 00
(001.702977)  vcan0  0000014A   [8]  00 00 00 78 0A C3 B2 CC
(001.708153)  vcan0  0000014A   [8]  00 00 00 78 03 61 EE A0
(001.708370)  vcan0  00000309   [8]  09 B5 00 00 00 00 00 00
(001.708579)  vcan0  00000130   [8]  00 00 00 00 00 00 00 00
(001.708805)  vcan0  0000017C   [8]  0F 3E 00 00 00 00 00 00
(001.714118)  vcan0  0000014A   [8]  00 00 00 77 F8 9A 10 E0
(001.714350)  vcan0  0000017C   [8]  12 C0 00 00 00 00 00 00
(001.714559)  vcan0  00000130   [8]  00 00 00 00 00 00 00 00
(001.714773)  vcan0  00000309   [8]  09 B2 00 00 00 00 00 00
(001.720125)  vcan0  0000017C   [8]  0D 72 00 00 00 00 00 00
(001.720335)  vcan0  00000130   [8]  00 00 00 00 00 00 00 00
(001.720546)  vcan0  0000014A   [8]  00 00 00 77 EC EC 4F B0
(001.720755)  vcan0  00000309   [8]  09 B7 00 00 00 00 00 00
(001.725997)  vcan0  0000017C   [8]  11 9F 00 00 00 00 00 00
(001.726211)  vcan0  0000014A   [8]  00 00 00 77 E7 BF E7 B4
(001.726421)  vcan0  00000309   [8]  09 B3 00 00 00 00 00 00
(001.726627)  vcan0  00000130   [8]  00 00 00 00 00 00 00 00
(001.731977)  vcan0  00000130   [8]  00 00 00 00 00 00 00 00
(001.732198)  vcan0  00000309   [8]  09 B8 00 00 00 00 00 00
(001.732417)  vcan0  0000017C   [8]  0C F8 00 00 00 00 00 00
(001.732627)  vcan0  0000014A   [8]  00 00 00 77 DB C8 54 D0
(001.738167)  vcan0  00000309   [8]  09 B3 00 00 00 00 00 00
(001.738391)  vcan0  0000017C   [8]  11 C9 00 00 00 00 00 00
(001.738599)  vcan0  00000130   [8]  00 00 00 00 00 00 00 00
(001.738815)  vcan0  0000014A   [8]  00 00 00 77 D6 FF 7C CC
(001.744199)  vcan0  00000309   [8]  09 B7 00 00 00 00 00 00
(001.744425)  vcan0  0000017C   [8]  0D B7 00 00 00 00 00 00
(001.744633)  vcan0  00000130   [8]  00 00 00 00 00 00 00 00
(001.744846)  vcan0  0000014A   [8]  00 00 00 77 CB 4B A3 A4
(001.750282)  vcan0  0000017C   [8]  13 1B 00 00 00 00 00 00
(001.750498)  vcan0  00000309   [8]  09 B1 00 00 00 00 00 00
(001.750707)  vcan0  00000130   [8]  00 00 00 00 00 00 00 00
(001.750914)  vcan0  00000002   [8]  00 00 00 00 00 00 00 00
(001.751127)  vcan0  0000014A   [8]  00 00 00 7B 19 F6 4D 14
(001.756147)  vcan0  00000130   [8]  00 00 00 00 00 00 00 00
(001.756379)  vcan0  0000017C   [8]  0F 88 00 00 00 00 00 00
(001.756591)  vcan0  00000309   [8]  09 B5 00 00 00 00 00 00
(001.756803)  vcan0  0000014A   [8]  00 00 00 78 C8 39 B5 98
(001.762088)  vcan0  00000309   [8]  09 AF 00 00 00 00 00 00
(001.762299)  vcan0  00000130   [8]  00 00 00 00 00 00 00 00
(001.762520)  vcan0  0000017C   [8]  15 69 00 00 00 00 00 00
(001.762731)  vcan0  0000014A   [8]  00 00 00 78 BA 6D 65 48
(001.768261)  vcan0  0000017C   [8]  12 38 00 00 00 00 00 00
(001.768478)  vcan0  00000130   [8]  00 00 00 00 00 00 00 00
(001.768696)  vcan0  0000014A   [8]  00 00 00 78 AE 4A 2B B0
(001.768908)  vcan0  00000309   [8]  09 B2 00 00 00 00 00 00
(001.774137)  vcan0  00000309   [8]  09 AC 00 00 00 00 00 00
(001.774349)  vcan0  00000130   [8]  00 00 00 00 00 00 00 00
(001.774572)  vcan0  0000017C   [8]  18 7A 00 00 00 00 00 00
(001.774788)  vcan0  0000014A   [8]  00 00 00 78 A1 C4 F4 EC
(001.780169)  vcan0  0000017C   [8]  15 8D 00 00 00 00 00 00
(001.780385)  vcan0  0000014A   [8]  00 00 00 78 92 DF 66 64
(001.780592)  vcan0  00000130   [8]  00 00 00 00 00 00 00 00
(001.780803)  vcan0  00000309   [8]  09 AF 00 00 00 00 00 00
(001.786352)  vcan0  0000017C   [8]  1C 12 00 00 00 00 00 00
(001.786565)  vcan0  00000309   [8]  09 A8 00 00 00 00 00 00
(001.786775)  vcan0  0000014A   [8]  00 00 00 78 8A 06 E7 56
(001.786982)  vcan0  00000130   [8]  00 00 00 00 00 00 00 00
(001.792272)  vcan0  00000309   [8]  09 AB 00 00 00 00 00 00
(001.792481)  vcan0  00000130   [8]  00 00 00 00 00 00 00 00
(001.792703)  vcan0  0000017C   [8]  19 4A 00 00 00 00 00 00
(001.792914)  vcan0  0000014A   [8]  00 00 00 78 77 0F A3 92
(001.798291)  vcan0  00000309   [8]  09 A5 00 00 00 00 00 00
(001.798502)  vcan0  00000130   [8]  00 00 00 00 00 00 00 00
(001.798724)  vcan0  0000017C   [8]  1F EE 00 00 00 00 00 00
(001.798935)  vcan0  0000014A   [8]  00 00 00 78 6D 1A CA 06
(001.804391)  vcan0  00000309   [8]  09 A7 00 00 00 00 00 00
(001.804608)  vcan0  0000014A   [8]  00 00 00 78 60 E4 0B E2
(001.804816)  vcan0  00000130   [8]  00 00 00 00 00 00 00 00
(001.805042)  vcan0  0000017C   [8]  1D 2C 00 00 00 00 00 00
(001.810069)  vcan0  00000309   [8]  09 A1 00 00 00 00 00 00
(001.810296)  vcan0  0000017C   [8]  23 CF 00 00 00 00 00 00
(001.810503)  vcan0  00000130   [8]  00 00 00 00 00 00 00 00
(001.810714)  vcan0  0000014A   [8]  00 00 00 78 54 B7 6E 50
(001.816399)  vcan0  00000309   [8]  09 A4 00 00 00 00 00 00
(001.816616)  vcan0  0000014A   [8]  00 00 00 78 46 D4 1D B6
(001.816838)  vcan0  0000017C   [8]  20 F6 00 00 00 00 00 00
(001.817045)  vcan0  00000130   [8]  00 00 00 00 00 00 00 00
(001.822112)  vcan0  0000014A   [8]  00 00 00 78 3C BA 10 3A
(001.822339)  vcan0  0000017C   [8]  27 79 00 00 00 00 00 00
(001.822551)  vcan0  00000309   [8]  09 9D 00 00 00 00 00 00
(001.822758)  vcan0  00000130   [8]  00 00 00 00 00 00 00 00
(001.828069)  vcan0  0000014A   [8]  00 00 00 78 31 A6 B6 B2
(001.828278)  vcan0  00000130   [8]  00 00 00 00 00 00 00 00
(001.828498)  vcan0  0000017C   [8]  24 6F 00 00 00 00 00 00
(001.828708)  vcan0  00000309   [8]  09 A0 00 00 00 00 00 00
(001.834329)  vcan0  00000309   [8]  09 9A 00 00 00 00 00 00
(001.834559)  vcan0  0000014A   [8]  00 00 00 78 27 1F 11 1C
(001.834800)  vcan0  0000017C   [8]  2A B7 00 00 00 00 00 00
(001.835014)  vcan0  00000130   [8]  00 00 00 00 00 00 00 00
(001.840172)  vcan0  0000017C   [8]  27 66 00 00 00 00 00 00
(001.840388)  vcan0  0000014A   [8]  00 00 00 78 1A FC AA 3A
(001.840595)  vcan0  00000130   [8]  00 00 00 00 00 00 00 00
(001.840805)  vcan0  00000309   [8]  09 9D 00 00 00 00 00 00
(001.846176)  vcan0  0000017C   [8]  2D 5D 00 00 00 00 00 00
(001.846393)  vcan0  0000014A   [8]  00 00 00 78 13 15 C5 7A
(001.846604)  vcan0  00000309   [8]  09 98 00 00 00 00 00 00
(001.846810)  vcan0  00000130   [8]  00 00 00 00 00 00 00 00
(001.852438)  vcan0  0000014A   [8]  00 00 00 78 08 77 5D 4E
(001.852666)  vcan0  0000017C   [8]  29 B5 00 00 00 00 00 00
(001.852873)  vcan0  00000130   [8]  00 00 00 00 00 00 00 00
(001.853084)  vcan0  00000309   [8]  09 9B 00 00 00 00 00 00
(001.858283)  vcan0  0000017C   [8]  2F 4C 00 00 00 00 00 00
(001.858502)  vcan0  00000309   [8]  09 96 00 00 00 00 00 00
(001.858711)  vcan0  00000130   [8]  00 00 00 00 00 00 00 00
(001.858923)  vcan0  0000014A   [8]  00 00 00 77 FD 9E E8 BA
(001.864352)  vcan0  00000130   [8]  00 00 00 00 00 00 00 00
(001.864595)  vcan0  00000309   [8]  09 9A 00 00 00 00 00 00
(001.864835)  vcan0  0000017C   [8]  2B 42 00 00 00 00 00 00
(001.865058)  vcan0  0000014A   [8]  00 00 00 77 F5 F9 F8 DA
(001.870142)  vcan0  00000130   [8]  00 00 00 00 00 00 00 00
(001.870372)  vcan0  0000014A   [8]  00 00 00 77 E9 DB F8 DE
(001.870585)  vcan0  00000309   [8]  09 95 00 00 00 00 00 00
(001.870804)  vcan0  0000017C   [8]  30 6F 00 00 00 00 00 00
(001.876124)  vcan0  00000130   [8]  00 00 00 00 00 00 00 00
(001.876356)  vcan0  0000017C   [8]  2B FF 00 00 00 00 00 00
(001.876570)  vcan0  00000309   [8]  09 99 00 00 00 00 00 00
(001.876786)  vcan0  0000014A   [8]  00 00 00 77 E4 82 FC B0
(001.882249)  vcan0  00000309   [8]  09 94 00 00 00 00 00 00
(001.882463)  vcan0  00000130   [8]  00 00 00 00 00 00 00 00
(001.882678)  vcan0  0000014A   [8]  00 00 00 77 DB 20 93 32
(001.882899)  vcan0  0000017C   [8]  30 C1 00 00 00 00 00 00
(001.888086)  vcan0  0000017C   [8]  2B EC 00 00 00 00 00 00
(001.888300)  vcan0  0000014A   [8]  00 00 00 77 D4 C6 E7 3A
(001.888510)  vcan0  00000309   [8]  09 99 00 00 00 00 00 00
(001.888716)  vcan0  00000130   [8]  00 00 00 00 00 00 00 00
(001.894041)  vcan0  00000130   [8]  00 00 00 00 00 00 00 00
(001.894289)  vcan0  0000014A   [8]  00 00 00 77 CC B0 9A 2E
(001.894502)  vcan0  00000309   [8]  09 95 00 00 00 00 00 00
(001.894725)  vcan0  0000017C   [8]  30 47 00 00 00 00 00 00
(001.900417)  vcan0  0000014A   [8]  00 00 00 77 C6 9C C5 46
(001.900664)  vcan0  0000017C   [8]  2B 15 00 00 00 00 00 00
(001.900880)  vcan0  00000130   [8]  00 00 00 00 00 00 00 00
(001.901105)  vcan0  00000309   [8]  09 9A 00 00 00 00 00 00
(001.906463)  vcan0  00000309   [8]  09 96 00 00 00 00 00 00
(001.906698)  vcan0  0000014A   [8]  00 00 00 77 BC 8E 2B B4
(001.906914)  vcan0  00000130   [8]  00 00 00 00 00 00 00 00
(001.907157)  vcan0  0000017C   [8]  2F 16 00 00 00 00 00 00
(001.912510)  vcan0  00000130   [8]  00 00 00 00 00 00 00 00
(001.912769)  vcan0  0000017C   [8]  29 96 00 00 00 00 00 00
(001.912996)  vcan0  00000309   [8]  09 9C 00 00 00 00 00 00
(001.913221)  vcan0  0000014A   [8]  00 00 00 77 B9 98 E4 C4
(001.918445)  vcan0  00000130   [8]  00 00 00 00 00 00 00 00
(001.918678)  vcan0  0000014A   [8]  00 00 00 77 B1 BE FE 94
(001.918917)  vcan0  0000017C   [8]  2D 4F 00 00 00 00 00 00
(001.919138)  vcan0  00000309   [8]  09 98 00 00 00 00 00 00
(001.924386)  vcan0  00000130   [8]  00 00 00 00 00 00 00 00
(001.924619)  vcan0  0000014A   [8]  00 00 00 77 AB 85 54 80
(001.924854)  vcan0  0000017C   [8]  27 95 00 00 00 00 00 00
(001.925074)  vcan0  00000309   [8]  09 9E 00 00 00 00 00 00
(001.930383)  vcan0  0000014A   [8]  00 00 00 77 A8 2A D0 98
(001.930598)  vcan0  00000130   [8]  00 00 00 00 00 00 00 00
(001.930824)  vcan0  0000017C   [8]  2B 19 00 00 00 00 00 00
(001.931035)  vcan0  00000309   [8]  09 9A 00 00 00 00 00 00
(001.936567)  vcan0  00000130   [8]  00 00 00 00 00 00 00 00
(001.936792)  vcan0  00000309   [8]  09 A0 00 00 00 00 00 00
(001.937013)  vcan0  0000017C   [8]  25 3B 00 00 00 00 00 00
(001.937223)  vcan0  0000014A   [8]  00 00 00 77 A1 11 6C 82
(001.942062)  vcan0  0000017C   [8]  28 A3 00 00 00 00 00 00
(001.942277)  vcan0  0000014A   [8]  00 00 00 77 9E 97 73 94
(001.942484)  vcan0  00000130   [8]  00 00 00 00 00 00 00 00
(001.942692)  vcan0  00000309   [8]  09 9C 00 00 00 00 00 00
(001.948202)  vcan0  0000014A   [8]  00 00 00 77 95 DC 86 70
(001.948418)  vcan0  00000309   [8]  09 A2 00 00 00 00 00 00
(001.948639)  vcan0  0000017C   [8]  22 B8 00 00 00 00 00 00
(001.948847)  vcan0  00000130   [8]  00 00 00 00 00 00 00 00
(001.953990)  vcan0  00000309   [8]  09 9F 00 00 00 00 00 00
(001.954211)  vcan0  0000014A   [8]  00 00 00 77 91 CF AE 44
(001.954420)  vcan0  00000130   [8]  00 00 00 00 00 00 00 00
(001.954641)  vcan0  0000017C   [8]  26 19 00 00 00 00 00 00
(001.960072)  vcan0  00000130   [8]  00 00 00 00 00 00 00 00
(001.960292)  vcan0  00000309   [8]  09 A5 00 00 00 00 00 00
(001.960505)  vcan0  0000014A   [8]  00 00 00 77 8E A0 D9 38
(001.960724)  vcan0  0000017C   [8]  20 37 00 00 00 00 00 00
(001.966080)  vcan0  00000130   [8]  00 00 00 00 00 00 00 00
(001.966322)  vcan0  0000017C   [8]  23 A7 00 00 00 00 00 00
(001.966535)  vcan0  0000014A   [8]  00 00 00 77 8C BD 16 98
(001.966745)  vcan0  00000309   [8]  09 A1 00 00 00 00 00 00
(001.972339)  vcan0  0000014A   [8]  00 00 00 00 57 29 35 54
(001.972567)  vcan0  0000017C   [8]  1D E3 00 00 00 00 00 00
(001.972776)  vcan0  00000130   [8]  00 00 00 00 00 00 00 00
(001.972988)  vcan0  00000309   [8]  09 A7 00 00 00 00 00 00
(001.978547)  vcan0  00000130   [8]  00 00 00 00 00 00 00 00
(001.978808)  vcan0  0000017C   [8]  21 7A 00 00 00 00 00 00
(001.979036)  vcan0  00000309   [8]  09 A3 00 00 00 00 00 00
(001.979262)  vcan0  0000014A   [8]  00 00 00 4B 77 BC 27 4A
(001.984734)  vcan0  00000130   [8]  00 00 00 00 00 00 00 00
(001.984986)  vcan0  0000017C   [8]  1C 4C 00 00 00 00 00 00
(001.985202)  vcan0  0000014A   [8]  00 00 00 4C 41 2D 85 8E
(001.985415)  vcan0  00000309   [8]  09 A9 00 00 00 00 00 00
(001.990649)  vcan0  00000309   [8]  09 A5 00 00 00 00 00 00
(001.990883)  vcan0  0000017C   [8]  1F F8 00 00 00 00 00 00
(001.991098)  vcan0  0000014A   [8]  00 00 00 4C ED D3 78 C4
(001.991305)  vcan0  00000130   [8]  00 00 00 00 00 00 00 00
(001.996264)  vcan0  0000014A   [8]  00 00 00 4D F3 A5 02 DE
(001.996499)  vcan0  0000017C   [8]  1A DE 00 00 00 00 00 00
(001.996709)  vcan0  00000002   [8]  00 00 00 00 00 00 00 00
(001.996915)  vcan0  00000130   [8]  00 00 00 00 00 00 00 00
(001.997128)  vcan0  00000309   [8]  09 AA 00 00 00 00 00 00
(002.002384)  vcan0  0000014A   [8]  00 00 00 4E CD 59 64 2E
(002.002596)  vcan0  00000130   [8]  00 00 00 00 00 00 00 00
(002.002810)  vcan0  00000309   [8]  09 A6 00 00 00 00 00 00
(002.003037)  vcan0  0000017C   [8]  1E D4 00 00 00 00 00 00
(002.008384)  vcan0  00000130   [8]  00 00 00 00 00 00 00 00
(002.008618)  vcan0  0000017C   [8]  19 D8 00 00 00 00 00 00
(002.008831)  vcan0  00000309   [8]  09 AB 00 00 00 00 00 00
(002.009043)  vcan0  0000014A   [8]  00 00 00 4F F4 09 6E 26
(002.014583)  vcan0  0000014A   [8]  00 00 00 50 EC 6C 5A 28
(002.014799)  vcan0  00000130   [8]  00 00 00 00 00 00 00 00
(002.015022)  vcan0  0000017C   [8]  1E 10 00 00 00 00 00 00
(002.015231)  vcan0  00000309   [8]  09 A7 00 00 00 00 00 00
(002.020312)  vcan0  000001A4   [8]  00 67 00 00 00 00 00 00
(002.020534)  vcan0  00000326   [8]  00 00 00 00 00 00 00 00
(002.020746)  vcan0  00000309   [8]  09 AB 00 00 00 00 00 00
(002.020954)  vcan0  00000130   [8]  00 00 00 00 00 00 00 00
(002.021172)  vcan0  0000017C   [8]  19 42 00 00 00 00 00 00
(002.021383)  vcan0  0000014A   [8]  00 00 00 52 23 9E 1F 2C
(002.021589)  vcan0  0000018F   [8]  00 00 00 00 00 00 00 00
(002.021803)  vcan0  0000037B   [8]  00 00 00 00 00 00 00 00
(002.022018)  vcan0  00000374   [8]  00 00 00 00 00 00 00 00
(002.022228)  vcan0  000001A3   [8]  00 00 00 00 00 00 00 00
(002.026545)  vcan0  00000309   [8]  09 A7 00 00 00 00 00 00
(002.026773)  vcan0  0000014A   [8]  00 00 00 53 29 FE FF 62
(002.027003)  vcan0  0000017C   [8]  1D B8 00 00 00 00 00 00
(002.027214)  vcan0  00000130   [8]  00 00 00 00 00 00 00 00
(002.033046)  vcan0  0000017C   [8]  19 1B 00 00 00 00 00 00
(002.033271)  vcan0  00000309   [8]  09 AC 00 00 00 00 00 00
(002.033480)  vcan0  00000130   [8]  00 00 00 00 00 00 00 00
(002.033694)  vcan0  0000014A   [8]  00 00 00 54 78 F7 D5 54
(002.038900)  vcan0  0000017C   [8]  1D CD 00 00 00 00 00 00
(002.039131)  vcan0  0000014A   [8]  00 00 00 55 92 C6 43 42
(002.039348)  vcan0  00000309   [8]  09 A7 00 00 00 00 00 00
(002.039556)  vcan0  00000130   [8]  00 00 00 00 00 00 00 00
(002.044722)  vcan0  00000309   [8]  09 AB 00 00 00 00 00 00
(002.044954)  vcan0  0000017C   [8]  19 60 00 00 00 00 00 00
(002.045162)  vcan0  00000130   [8]  00 00 00 00 00 00 00 00
(002.045380)  vcan0  0000014A   [8]  00 00 00 56 DD 72 19 BE
(002.050540)  vcan0  00000309   [8]  09 A6 00 00 00 00 00 00
(002.050757)  vcan0  0000014A   [8]  00 00 00 57 F7 2A B3 BC
(002.050964)  vcan0  00000130   [8]  00 00 00 00 00 00 00 00
(002.051184)  vcan0  0000017C   [8]  1E 46 00 00 00 00 00 00
(002.056665)  vcan0  0000017C   [8]  1A 03 00 00 00 00 00 00
(002.056878)  vcan0  00000130   [8]  00 00 00 00 00 00 00 00
(002.057092)  vcan0  0000014A   [8]  00 00 00 59 3B CB 16 DA
(002.057308)  vcan0  00000309   [8]  09 AB 00 00 00 00 00 00
(002.062859)  vcan0  0000017C   [8]  1F 15 00 00 00 00 00 00
(002.063071)  vcan0  00000130   [8]  00 00 00 00 00 00 00 00
(002.063283)  vcan0  00000309   [8]  09 A6 00 00 00 00 00 00
(002.063493)  vcan0  0000014A   [8]  00 00 00 5A 4B 8B 93 6E
(002.068181)  vcan0  0000014A   [8]  00 00 00 5B 84 6D 89 92
(002.068406)  vcan0  0000017C   [8]  1A F4 00 00 00 00 00 00
(002.068617)  vcan0  00000309   [8]  09 AA 00 00 00 00 00 00
(002.068823)  vcan0  00000130   [8]  00 00 00 00 00 00 00 00
(002.074305)  vcan0  0000014A   [8]  00 00 00 5C 88 2B 0F 10
(002.074522)  vcan0  00000309   [8]  09 A5 00 00 00 00 00 00
(002.074730)  vcan0  00000130   [8]  00 00 00 00 00 00 00 00
(002.074949)  vcan0  0000017C   [8]  20 28 00 00 00 00 00 00
(002.080886)  vcan0  00000130   [8]  00 00 00 00 00 00 00 00
(002.081125)  vcan0  0000014A   [8]  00 00 00 5D B4 2C 23 6E
(002.081364)  vcan0  0000017C   [8]  1C 1F 00 00 00 00 00 00
(002.081586)  vcan0  00000309   [8]  09 A9 00 00 00 00 00 00
(002.086785)  vcan0  0000014A   [8]  00 00 00 5E A9 E0 EF FE
(002.087027)  vcan0  0000017C   [8]  21 6A 00 00 00 00 00 00
(002.087250)  vcan0  00000309   [8]  09 A3 00 00 00 00 00 00
(002.087464)  vcan0  00000130   [8]  00 00 00 00 00 00 00 00
(002.092731)  vcan0  00000309   [8]  09 A7 00 00 00 00 00 00
(002.092964)  vcan0  0000014A   [8]  00 00 00 5F C3 96 31 2C
(002.093202)  vcan0  0000017C   [8]  1D 6F 00 00 00 00 00 00
(002.093418)  vcan0  00000130   [8]  00 00 00 00 00 00 00 00
(002.098526)  vcan0  00000130   [8]  00 00 00 00 00 00 00 00
(002.098761)  vcan0  0000014A   [8]  00 00 00 60 AC 89 D5 1A
(002.098998)  vcan0  0000017C   [8]  22 C6 00 00 00 00 00 00
(002.099222)  vcan0  00000309   [8]  09 A2 00 00 00 00 00 00
(002.104744)  vcan0  00000130   [8]  00 00 00 00 00 00 00 00
(002.104992)  vcan0  0000017C   [8]  1E CD 00 00 00 00 00 00
(002.105214)  vcan0  00000309   [8]  09 A6 00 00 00 00 00 00
(002.105436)  vcan0  0000014A   [8]  00 00 00 61 B4 2C 98 BC
(002.110330)  vcan0  0000017C   [8]  24 24 00 00 00 00 00 00
(002.110547)  vcan0  0000014A   [8]  00 00 00 62 8F CF 98 AC
(002.110754)  vcan0  00000130   [8]  00 00 00 00 00 00 00 00
(002.110966)  vcan0  00000309   [8]  09 A1 00 00 00 00 00 00
(002.116344)  vcan0  0000014A   [8]  00 00 00 63 84 5F 9C 66
(002.116561)  vcan0  00000309   [8]  09 A5 00 00 00 00 00 00
(002.116767)  vcan0  00000130   [8]  00 00 00 00 00 00 00 00
(002.116987)  vcan0  0000017C   [8]  20 23 00 00 00 00 00 00
(002.122371)  vcan0  00000309   [8]  09 9F 00 00 00 00 00 00
(002.122588)  vcan0  0000014A   [8]  00 00 00 64 51 E6 F8 88
(002.122813)  vcan0  0000017C   [8]  25 6E 00 00 00 00 00 00
(002.123020)  vcan0  00000130   [8]  00 00 00 00 00 00 00 00
(002.128762)  vcan0  00000309   [8]  09 A3 00 00 00 00 00 00
(002.129003)  vcan0  0000017C   [8]  21 5C 00 00 00 00 00 00
(002.129226)  vcan0  0000014A   [8]  00 00 00 65 33 9E 5E E2
(002.129439)  vcan0  00000130   [8]  00 00 00 00 00 00 00 00
(002.134280)  vcan0  00000309   [8]  09 9E 00 00 00 00 00 00
(002.134508)  vcan0  0000017C   [8]  26 93 00 00 00 00 00 00
(002.134721)  vcan0  0000014A   [8]  00 00 00 65 F3 4A D8 C2
(002.134930)  vcan0  00000130   [8]  00 00 00 00 00 00 00 00
(002.140332)  vcan0  0000014A   [8]  00 00 00 66 C3 BA 19 BA
(002.140565)  vcan0  0000017C   [8]  22 67 00 00 00 00 00 00
(002.140773)  vcan0  00000130   [8]  00 00 00 00 00 00 00 00
(002.140985)  vcan0  00000309   [8]  09 A2 00 00 00 00 00 00
(002.146269)  vcan0  00000130   [8]  00 00 00 00 00 00 00 00
(002.146497)  vcan0  00000309   [8]  09 9D 00 00 00 00 00 00
(002.146710)  vcan0  0000014A   [8]  00 00 00 67 70 64 FF 8A
(002.146931)  vcan0  0000017C   [8]  27 81 00 00 00 00 00 00
(002.152290)  vcan0  0000017C   [8]  23 36 00 00 00 00 00 00
(002.152510)  vcan0  0000014A   [8]  00 00 00 68 34 28 8E AE
(002.152719)  vcan0  00000130   [8]  00 00 00 00 00 00 00 00
(002.152931)  vcan0  00000309   [8]  09 A2 00 00 00 00 00 00
(002.158270)  vcan0  00000130   [8]  00 00 00 00 00 00 00 00
(002.158511)  vcan0  00000309   [8]  09 9D 00 00 00 00 00 00
(002.158749)  vcan0  0000017C   [8]  28 2F 00 00 00 00 00 00
(002.158972)  vcan0  0000014A   [8]  00 00 00 68 D9 53 D6 D2
(002.164440)  vcan0  0000017C   [8]  23 C0 00 00 00 00 00 00
(002.164656)  vcan0  00000309   [8]  09 A1 00 00 00 00 00 00
(002.164867)  vcan0  0000014A   [8]  00 00 00 69 88 10 EF 96
(002.165075)  vcan0  00000130   [8]  00 00 00 00 00 00 00 00
(002.170574)  vcan0  00000309   [8]  09 9C 00 00 00 00 00 00
(002.170806)  vcan0  00000130   [8]  00 00 00 00 00 00 00 00
(002.171041)  vcan0  0000017C   [8]  28 94 00 00 00 00 00 00
(002.171253)  vcan0  0000014A   [8]  00 00 00 6A 1B F8 38 0C
(002.176421)  vcan0  00000130   [8]  00 00 00 00 00 00 00 00
(002.176650)  vcan0  0000014A   [8]  00 00 00 6A C1 83 65 DA
(002.176879)  vcan0  0000017C   [8]  24 01 00 00 00 00 00 00
(002.177092)  vcan0  00000309   [8]  09 A1 00 00 00 00 00 00
(002.182468)  vcan0  00000130   [8]  00 00 00 00 00 00 00 00
(002.182706)  vcan0  0000017C   [8]  28 B0 00 00 00 00 00 00
(002.182917)  vcan0  0000014A   [8]  00 00 00 6B 47 01 0A F6
(002.183133)  vcan0  00000309   [8]  09 9C 00 00 00 00 00 00
(002.188314)  vcan0  00000309   [8]  09 A1 00 00 00 00 00 00
(002.188525)  vcan0  00000130   [8]  00 00 00 00 00 00 00 00
(002.188741)  vcan0  0000014A   [8]  00 00 00 6B DE 9A 6B 2E
(002.188961)  vcan0  0000017C   [8]  23 F9 00 00 00 00 00 00
(002.194380)  vcan0  0000014A   [8]  00 00 00 6C 5B 63 12 F2
(002.194594)  vcan0  00000309   [8]  09 9C 00 00 00 00 00 00
(002.194802)  vcan0  00000130   [8]  00 00 00 00 00 00 00 00
(002.195020)  vcan0  0000017C   [8]  28 85 00 00 00 00 00 00
(002.200229)  vcan0  0000017C   [8]  23 AF 00 00 00 00 00 00
(002.200446)  vcan0  00000309   [8]  09 A1 00 00 00 00 00 00
(002.200657)  vcan0  0000014A   [8]  00 00 00 6C E2 67 A7 FA
(002.200864)  vcan0  00000130   [8]  00 00 00 00 00 00 00 00
(002.206603)  vcan0  0000017C   [8]  28 1B 00 00 00 00 00 00
(002.206822)  vcan0  0000014A   [8]  00 00 00 6D 55 C3 9A 9E
(002.207033)  vcan0  00000309   [8]  09 9D 00 00 00 00 00 00
(002.207241)  vcan0  00000130   [8]  00 00 00 00 00 00 00 00
(002.212485)  vcan0  00000130   [8]  00 00 00 00 00 00 00 00
(002.212725)  vcan0  0000017C   [8]  23 2B 00 00 00 00 00 00
(002.212938)  vcan0  0000014A   [8]  01 FF FF F6 20 2F B4 B2
(002.213149)  vcan0  00000309   [8]  09 A2 00 00 00 00 00 00
(002.218390)  vcan0  00000309   [8]  09 9D 00 00 00 00 00 00
(002.218601)  vcan0  00000130   [8]  00 00 00 00 00 00 00 00
(002.218824)  vcan0  0000017C   [8]  27 84 00 00 00 00 00 00
(002.219039)  vcan0  0000014A   [8]  00 00 00 01 8E 22 14 76
(002.224402)  vcan0  0000017C   [8]  22 FD 00 00 00 00 00 00
(002.224618)  vcan0  00000309   [8]  09 A2 00 00 00 00 00 00
(002.224825)  vcan0  00000130   [8]  00 00 00 00 00 00 00 00
(002.225035)  vcan0  0000014A   [8]  00 00 00 02 59 20 22 24
(002.230144)  vcan0  0000014A   [8]  00 00 00 03 54 F7 85 4A
(002.230367)  vcan0  0000017C   [8]  27 20 00 00 00 00 00 00
(002.230574)  vcan0  00000130   [8]  00 00 00 00 00 00 00 00
(002.230788)  vcan0  00000309   [8]  09 9E 00 00 00 00 00 00
(002.236303)  vcan0  0000017C   [8]  23 A8 00 00 00 00 00 00
(002.236518)  vcan0  00000309   [8]  09 A1 00 00 00 00 00 00
(002.236724)  vcan0  00000130   [8]  00 00 00 00 00 00 00 00
(002.236934)  vcan0  0000014A   [8]  00 00 00 05 7F 9E 1F E2
(002.242555)  vcan0  00000002   [8]  00 00 00 00 00 00 00 00
(002.242791)  vcan0  0000017C   [8]  27 7C 00 00 00 00 00 00
(002.243003)  vcan0  0000014A   [8]  00 00 00 07 7F DC 6A E6
(002.243209)  vcan0  00000130   [8]  00 00 00 00 00 00 00 00
(002.243420)  vcan0  00000309   [8]  09 9D 00 00 00 00 00 00
(002.248567)  vcan0  00000309   [8]  09 A1 00 00 00 00 00 00
(002.248788)  vcan0  0000014A   [8]  00 00 00 0A 54 E0 DB 8E
(002.248995)  vcan0  00000130   [8]  00 00 00 00 00 00 00 00
(002.249216)  vcan0  0000017C   [8]  23 C9 00 00 00 00 00 00
(002.254718)  vcan0  0000014A   [8]  00 00 00 0C B6 6F 72 8E
(002.254952)  vcan0  00000309   [8]  09 9D 00 00 00 00 00 00
(002.255192)  vcan0  0000017C   [8]  27 D2 00 00 00 00 00 00
(002.255407)  vcan0  00000130   [8]  00 00 00 00 00 00 00 00
(002.260689)  vcan0  0000014A   [8]  00 00 00 0F D7 7F 70 90
(002.260903)  vcan0  00000130   [8]  00 00 00 00 00 00 00 00
(002.261116)  vcan0  00000309   [8]  09 A1 00 00 00 00 00 00
(002.261336)  vcan0  0000017C   [8]  23 7B 00 00 00 00 00 00
(002.266531)  vcan0  00000309   [8]  09 9D 00 00 00 00 00 00
(002.266747)  vcan0  00000130   [8]  00 00 00 00 00 00 00 00
(002.266971)  vcan0  0000017C   [8]  27 89 00 00 00 00 00 00
(002.267185)  vcan0  0000014A   [8]  00 00 00 12 77 A1 5C 22
(002.272534)  vcan0  0000014A   [8]  00 00 00 15 DF F1 E3 08
(002.272751)  vcan0  00000309   [8]  09 A2 00 00 00 00 00 00
(002.272974)  vcan0  0000017C   [8]  22 CA 00 00 00 00 00 00
(002.273229)  vcan0  00000130   [8]  00 00 00 00 00 00 00 00
(002.278400)  vcan0  00000130   [8]  00 00 00 00 00 00 00 00
(002.278657)  vcan0  0000017C   [8]  26 D2 00 00 00 00 00 00
(002.278882)  vcan0  00000309   [8]  09 9E 00 00 00 00 00 00
(002.279106)  vcan0  0000014A   [8]  00 00 00 18 C0 11 30 66
(002.284510)  vcan0  00000130   [8]  00 00 00 00 00 00 00 00
(002.284752)  vcan0  0000017C   [8]  21 D3 00 00 00 00 00 00
(002.284968)  vcan0  00000309   [8]  09 A3 00 00 00 00 00 00
(002.285181)  vcan0  0000014A   [8]  00 00 00 1C 31 C2 33 2E
(002.290358)  vcan0  00000309   [8]  09 9F 00 00 00 00 00 00
(002.290585)  vcan0  0000017C   [8]  25 D5 00 00 00 00 00 00
(002.290798)  vcan0  0000014A   [8]  00 00 00 1F 1D 11 51 AE
(002.291006)  vcan0  00000130   [8]  00 00 00 00 00 00 00 00
(002.296348)  vcan0  0000014A   [8]  00 00 00 22 80 23 93 CC
(002.296564)  vcan0  00000309   [8]  09 A4 00 00 00 00 00 00
(002.296771)  vcan0  00000130   [8]  00 00 00 00 00 00 00 00
(002.296990)  vcan0  0000017C   [8]  20 B4 00 00 00 00 00 00
(002.302438)  vcan0  0000017C   [8]  24 B5 00 00 00 00 00 00
(002.302657)  vcan0  0000014A   [8]  00 00 00 25 63 97 0A 2A
(002.302868)  vcan0  00000309   [8]  09 A0 00 00 00 00 00 00
(002.303074)  vcan0  00000130   [8]  00 00 00 00 00 00 00 00
(002.308645)  vcan0  00000130   [8]  00 00 00 00 00 00 00 00
(002.308884)  vcan0  0000017C   [8]  1F 8A 00 00 00 00 00 00
(002.309098)  vcan0  0000014A   [8]  00 00 00 28 AC C1 1D FA
(002.309310)  vcan0  00000309   [8]  09 A5 00 00 00 00 00 00
(002.314449)  vcan0  0000014A   [8]  00 00 00 2B 7A 2A 82 CA
(002.314673)  vcan0  0000017C   [8]  23 93 00 00 00 00 00 00
(002.314885)  vcan0  00000309   [8]  09 A1 00 00 00 00 00 00
(002.315148)  vcan0  00000130   [8]  00 00 00 00 00 00 00 00
(002.320476)  vcan0  00000309   [8]  09 A6 00 00 00 00 00 00
(002.320691)  vcan0  00000130   [8]  00 00 00 00 00 00 00 00
(002.320904)  vcan0  0000014A   [8]  00 00 00 2E A1 81 08 DA
(002.321127)  vcan0  0000017C   [8]  1E 6F 00 00 00 00 00 00
(002.326662)  vcan0  0000014A   [8]  00 00 00 31 50 63 C2 44
(002.326888)  vcan0  0000017C   [8]  22 89 00 00 00 00 00 00
(002.327099)  vcan0  00000309   [8]  09 A2 00 00 00 00 00 00
(002.327305)  vcan0  00000130   [8]  00 00 00 00 00 00 00 00
(002.332601)  vcan0  0000017C   [8]  1D 77 00 00 00 00 00 00
(002.332819)  vcan0  00000309   [8]  09 A7 00 00 00 00 00 00
(002.333031)  vcan0  0000014A   [8]  00 00 00 34 55 E4 B1 08
(002.333237)  vcan0  00000130   [8]  00 00 00 00 00 00 00 00
(002.338682)  vcan0  00000130   [8]  00 00 00 00 00 00 00 00
(002.338994)  vcan0  00000309   [8]  09 A3 00 00 00 00 00 00
(002.339214)  vcan0  0000014A   [8]  00 00 00 36 DC 30 79 A8
(002.339434)  vcan0  0000017C   [8]  21 AA 00 00 00 00 00 00
(002.344752)  vcan0  00000130   [8]  00 00 00 00 00 00 00 00
(002.344988)  vcan0  0000017C   [8]  1C B3 00 00 00 00 00 00
(002.345201)  vcan0  0000014A   [8]  00 00 00 39 B4 A0 5B C6
(002.345411)  vcan0  00000309   [8]  09 A8 00 00 00 00 00 00
(002.350325)  vcan0  0000014A   [8]  00 00 00 3C 1A 80 9A 54
(002.350552)  vcan0  0000017C   [8]  21 04 00 00 00 00 00 00
(002.350764)  vcan0  00000309   [8]  09 A4 00 00 00 00 00 00
(002.350971)  vcan0  00000130   [8]  00 00 00 00 00 00 00 00
(002.356390)  vcan0  0000014A   [8]  00 00 00 3E C0 0A B3 84
(002.356606)  vcan0  00000130   [8]  00 00 00 00 00 00 00 00
(002.356819)  vcan0  00000309   [8]  09 A9 00 00 00 00 00 00
(002.357039)  vcan0  0000017C   [8]  1C 2C 00 00 00 00 00 00
(002.362657)  vcan0  0000017C   [8]  20 A0 00 00 00 00 00 00
(002.362890)  vcan0  00000309   [8]  09 A4 00 00 00 00 00 00
(002.363107)  vcan0  00000130   [8]  00 00 00 00 00 00 00 00
(002.363331)  vcan0  0000014A   [8]  00 00 00 41 00 AD B1 E4
(002.368657)  vcan0  00000130   [8]  00 00 00 00 00 00 00 00
(002.368898)  vcan0  0000014A   [8]  00 00 00 43 7A ED 0D FA
(002.369125)  vcan0  00000309   [8]  09 A9 00 00 00 00 00 00
(002.369377)  vcan0  0000017C   [8]  1B EA 00 00 00 00 00 00
(002.374594)  vcan0  0000017C   [8]  20 7F 00 00 00 00 00 00
(002.374833)  vcan0  00000309   [8]  09 A4 00 00 00 00 00 00
(002.375060)  vcan0  0000014A   [8]  00 00 00 45 8E C6 4D A0
(002.375287)  vcan0  00000130   [8]  00 00 00 00 00 00 00 00
(002.380633)  vcan0  00000309   [8]  09 A9 00 00 00 00 00 00
(002.380878)  vcan0  0000017C   [8]  1B EA 00 00 00 00 00 00
(002.381104)  vcan0  0000014A   [8]  00 00 00 47 E0 79 33 22
(002.381320)  vcan0  00000130   [8]  00 00 00 00 00 00 00 00
(002.386700)  vcan0  00000130   [8]  00 00 00 00 00 00 00 00
(002.386938)  vcan0  00000309   [8]  09 A4 00 00 00 00 00 00
(002.387161)  vcan0  0000014A   [8]  00 00 00 49 CE DC BC 78
(002.387395)  vcan0  0000017C   [8]  20 A0 00 00 00 00 00 00
(002.392621)  vcan0  00000309   [8]  09 A9 00 00 00 00 00 00
(002.392838)  vcan0  00000130   [8]  00 00 00 00 00 00 00 00
(002.393060)  vcan0  0000014A   [8]  00 00 00 4B EF 57 B6 20
(002.393331)  vcan0  0000017C   [8]  1C 28 00 00 00 00 00 00
(002.398670)  vcan0  0000017C   [8]  20 FC 00 00 00 00 00 00
(002.398899)  vcan0  00000309   [8]  09 A4 00 00 00 00 00 00
(002.399125)  vcan0  0000014A   [8]  00 00 00 4D BF 95 33 FE
(002.399353)  vcan0  00000130   [8]  00 00 00 00 00 00 00 00
(002.404553)  vcan0  0000014A   [8]  00 00 00 4F B4 9E 70 C6
(002.404786)  vcan0  0000017C   [8]  1C 9B 00 00 00 00 00 00
(002.404999)  vcan0  00000309   [8]  09 A8 00 00 00 00 00 00
(002.405208)  vcan0  00000130   [8]  00 00 00 00 00 00 00 00
(002.410373)  vcan0  0000014A   [8]  00 00 00 51 5C B9 B2 AE
(002.410584)  vcan0  00000130   [8]  00 00 00 00 00 00 00 00
(002.410812)  vcan0  0000017C   [8]  21 87 00 00 00 00 00 00
(002.411026)  vcan0  00000309   [8]  09 A3 00 00 00 00 00 00
(002.416340)  vcan0  0000014A   [8]  00 00 00 53 2B AE 06 7A
(002.416574)  vcan0  00000309   [8]  09 A8 00 00 00 00 00 00
(002.416785)  vcan0  00000130   [8]  00 00 00 00 00 00 00 00
(002.417008)  vcan0  0000017C   [8]  1D 39 00 00 00 00 00 00
(002.422484)  vcan0  00000130   [8]  00 00 00 00 00 00 00 00
(002.422714)  vcan0  0000014A   [8]  00 00 00 54 B0 7E 6F 66
(002.422935)  vcan0  0000017C   [8]  22 37 00 00 00 00 00 00
(002.423145)  vcan0  00000309   [8]  09 A3 00 00 00 00 00 00
(002.428646)  vcan0  00000130   [8]  00 00 00 00 00 00 00 00
(002.428896)  vcan0  00000309   [8]  09 A7 00 00 00 00 00 00
(002.429135)  vcan0  0000017C   [8]  1D F5 00 00 00 00 00 00
(002.429357)  vcan0  0000014A   [8]  00 00 00 56 5C 3E 9D AA
(002.434388)  vcan0  00000309   [8]  09 A2 00 00 00 00 00 00
(002.434600)  vcan0  00000130   [8]  00 00 00 00 00 00 00 00
