(000.000000)  vcan0  1FFFFFFF   [8]  00 00 00 00 00 00 00 00
(000.003832)  vcan0  0000014A   [8]  00 00 00 EE 6B 28 1D CE
(000.004074)  vcan0  000001A4   [8]  00 67 00 00 00 00 00 00
(000.004288)  vcan0  00000130   [8]  00 00 00 00 00 00 00 00
(000.004501)  vcan0  0000018F   [8]  00 00 00 00 00 00 00 00
(000.004743)  vcan0  0000017C   [8]  4B 00 00 00 00 00 00 00
(000.004977)  vcan0  00000374   [8]  00 00 00 00 00 00 00 00
(000.005204)  vcan0  0000037B   [8]  00 00 00 00 00 00 00 00
(000.005428)  vcan0  000001A3   [8]  00 00 00 00 00 00 00 00
(000.005657)  vcan0  00000326   [8]  00 00 00 00 00 00 00 00
(000.005878)  vcan0  00000309   [8]  00 6B 00 00 00 00 00 00
(000.006093)  vcan0  00000002   [8]  00 00 00 00 00 00 00 00
(000.008664)  vcan0  0000017C   [8]  4B 00 00 00 00 00 00 00
(000.008891)  vcan0  0000014A   [8]  00 00 01 65 A0 BC 3B 9A
(000.009104)  vcan0  00000130   [8]  00 00 00 00 00 00 00 00
(000.009326)  vcan0  00000309   [8]  00 87 00 00 00 00 00 00
(000.014515)  vcan0  00000130   [8]  00 00 00 00 00 00 00 00
(000.014737)  vcan0  0000014A   [8]  00 00 01 DC D6 50 EE 6C
(000.014948)  vcan0  00000309   [8]  00 A3 00 00 00 00 00 00
(000.015167)  vcan0  0000017C   [8]  4B 00 00 00 00 00 00 00
(000.020074)  vcan0  00000130   [8]  00 00 00 00 00 00 00 00
(000.020298)  vcan0  00000309   [8]  00 BF 00 00 00 00 00 00
(000.020519)  vcan0  0000017C   [8]  4B 00 00 00 00 00 00 00
(000.020729)  vcan0  0000014A   [8]  00 00 02 54 0B E4 77 36
(000.026403)  vcan0  00000309   [8]  00 DC 00 00 00 00 00 00
(000.026612)  vcan0  00000130   [8]  00 00 00 00 00 00 00 00
(000.026822)  vcan0  0000014A   [8]  00 00 02 CB 41 78 00 00
(000.027040)  vcan0  0000017C   [8]  4B 00 00 00 00 00 00 00
(000.031606)  vcan0  00000130   [8]  00 00 00 00 00 00 00 00
(000.031859)  vcan0  0000017C   [8]  4B 00 00 00 00 00 00 00
(000.032084)  vcan0  00000309   [8]  00 F8 00 00 00 00 00 00
(000.032327)  vcan0  0000014A   [8]  00 00 03 42 77 0D DC D6
(000.037579)  vcan0  0000017C   [8]  4B 00 00 00 00 00 00 00
(000.037791)  vcan0  00000130   [8]  00 00 00 00 00 00 00 00
(000.038006)  vcan0  0000014A   [8]  00 00 03 48 BA 62 59 04
(000.038218)  vcan0  00000309   [8]  01 14 00 00 00 00 00 00
(000.043543)  vcan0  0000017C   [8]  4B 00 00 00 00 00 00 00
(000.043785)  vcan0  00000309   [8]  01 30 00 00 00 00 00 00
(000.043995)  vcan0  00000130   [8]  00 00 00 00 00 00 00 00
(000.044208)  vcan0  0000014A   [8]  00 00 03 49 A5 16 9F A6
(000.050061)  vcan0  00000309   [8]  01 4D 00 00 00 00 00 00
(000.050279)  vcan0  0000014A   [8]  00 00 03 4A 8F CA E6 48
(000.050486)  vcan0  00000130   [8]  00 00 00 00 00 00 00 00
(000.050708)  vcan0  0000017C   [8]  4B 00 00 00 00 00 00 00
(000.055981)  vcan0  0000017C   [8]  4B 00 00 00 00 00 00 00
(000.056198)  vcan0  0000014A   [8]  00 00 03 4B 7A 7F 2C EA
(000.056410)  vcan0  00000309   [8]  01 69 00 00 00 00 00 00
(000.056618)  vcan0  00000130   [8]  00 00 00 00 00 00 00 00
(000.061671)  vcan0  0000014A   [8]  00 00 03 4B 7A 7F 2C EA
(000.061898)  vcan0  0000017C   [8]  4B 00 00 00 00 00 00 00
(000.062110)  vcan0  00000309   [8]  01 85 00 00 00 00 00 00
(000.062316)  vcan0  00000130   [8]  00 00 00 00 00 00 00 00
(000.067997)  vcan0  00000130   [8]  00 00 00 00 00 00 00 00
(000.068220)  vcan0  0000014A   [8]  00 00 03 4B 7A 7F 2C EA
(000.068432)  vcan0  00000309   [8]  01 A1 00 00 00 00 00 00
(000.068653)  vcan0  0000017C   [8]  4B 00 00 00 00 00 00 00
(000.073695)  vcan0  00000309   [8]  01 BD 00 00 00 00 00 00
(000.073941)  vcan0  0000017C   [8]  4B 00 00 00 00 00 00 00
(000.074166)  vcan0  0000014A   [8]  00 00 03 4B 7A 7F 2C EA
(000.074380)  vcan0  00000130   [8]  00 00 00 00 00 00 00 00
(000.079960)  vcan0  0000014A   [8]  00 00 03 4B 7A 7F 2C EA
(000.080205)  vcan0  0000017C   [8]  4B 00 00 00 00 00 00 00
(000.080422)  vcan0  00000130   [8]  00 00 00 00 00 00 00 00
(000.080647)  vcan0  00000309   [8]  01 DA 00 00 00 00 00 00
(000.085732)  vcan0  0000017C   [8]  4B 00 00 00 00 00 00 00
(000.085950)  vcan0  00000309   [8]  01 F6 00 00 00 00 00 00
(000.086161)  vcan0  0000014A   [8]  00 00 03 4B 7A 7F 2C EA
(000.086367)  vcan0  00000130   [8]  00 00 00 00 00 00 00 00
(000.091581)  vcan0  00000130   [8]  00 00 00 00 00 00 00 00
(000.091824)  vcan0  00000309   [8]  02 12 00 00 00 00 00 00
(000.092036)  vcan0  0000014A   [8]  00 00 03 4B 7A 7F 2C EA
(000.092256)  vcan0  0000017C   [8]  4B 00 00 00 00 00 00 00
(000.097537)  vcan0  0000014A   [8]  00 00 03 4B 7A 7F 2C EA
(000.097788)  vcan0  00000309   [8]  02 2E 00 00 00 00 00 00
(000.097996)  vcan0  00000130   [8]  00 00 00 00 00 00 00 00
(000.098215)  vcan0  0000017C   [8]  4B 00 00 00 00 00 00 00
(000.103780)  vcan0  00000130   [8]  00 00 00 00 00 00 00 00
(000.104018)  vcan0  00000309   [8]  02 4B 00 00 00 00 00 00
(000.104243)  vcan0  0000014A   [8]  00 00 03 4B 7A 7F 2C EA
(000.104480)  vcan0  0000017C   [8]  4B 00 00 00 00 00 00 00
(000.110184)  vcan0  0000017C   [8]  4B 00 00 00 00 00 00 00
(000.110411)  vcan0  00000309   [8]  02 67 00 00 00 00 00 00
(000.110625)  vcan0  00000130   [8]  00 00 00 00 00 00 00 00
(000.110847)  vcan0  0000014A   [8]  00 00 03 4B 7A 7F 2C EA
(000.115534)  vcan0  00000130   [8]  00 00 00 00 00 00 00 00
(000.115758)  vcan0  0000014A   [8]  00 00 03 4B 7A 7F 2C EA
(000.115969)  vcan0  00000309   [8]  02 83 00 00 00 00 00 00
(000.116188)  vcan0  0000017C   [8]  4B 00 00 00 00 00 00 00
(000.121845)  vcan0  00000309   [8]  02 9F 00 00 00 00 00 00
(000.122063)  vcan0  00000130   [8]  00 00 00 00 00 00 00 00
(000.122307)  vcan0  0000017C   [8]  4B 00 00 00 00 00 00 00
(000.122531)  vcan0  0000014A   [8]  00 00 03 4B 7A 7F 2C EA
(000.127651)  vcan0  0000017C   [8]  4B 00 00 00 00 00 00 00
(000.127868)  vcan0  00000309   [8]  02 BB 00 00 00 00 00 00
(000.128074)  vcan0  00000130   [8]  00 00 00 00 00 00 00 00
(000.128284)  vcan0  0000014A   [8]  00 00 03 4B 7A 7F 2C EA
(000.133693)  vcan0  00000309   [8]  02 D8 00 00 00 00 00 00
(000.133910)  vcan0  00000130   [8]  00 00 00 00 00 00 00 00
(000.134132)  vcan0  0000014A   [8]  00 00 03 4B 7A 7F 2C EA
(000.134368)  vcan0  0000017C   [8]  4B 00 00 00 00 00 00 00
(000.139799)  vcan0  0000014A   [8]  00 00 03 4B 7A 7F 2C EA
(000.140014)  vcan0  00000130   [8]  00 00 00 00 00 00 00 00
(000.140247)  vcan0  0000017C   [8]  4B 00 00 00 00 00 00 00
(000.140469)  vcan0  00000309   [8]  02 F4 00 00 00 00 00 00
(000.145559)  vcan0  00000309   [8]  03 10 00 00 00 00 00 00
(000.145778)  vcan0  0000014A   [8]  00 00 03 4B 7A 7F 2C EA
(000.146003)  vcan0  0000017C   [8]  4B 00 00 00 00 00 00 00
(000.146210)  vcan0  00000130   [8]  00 00 00 00 00 00 00 00
(000.151744)  vcan0  0000014A   [8]  00 00 03 4B 7A 7F 2C EA
(000.151971)  vcan0  00000309   [8]  03 2C 00 00 00 00 00 00
(000.152192)  vcan0  0000017C   [8]  4B 00 00 00 00 00 00 00
(000.152400)  vcan0  00000130   [8]  00 00 00 00 00 00 00 00
(000.158000)  vcan0  00000130   [8]  00 00 00 00 00 00 00 00
(000.158237)  vcan0  00000309   [8]  03 49 00 00 00 00 00 00
(000.158474)  vcan0  0000017C   [8]  4B 00 00 00 00 00 00 00
(000.158696)  vcan0  0000014A   [8]  00 00 03 4B 7A 7F 2C EA
(000.163773)  vcan0  00000130   [8]  00 00 00 00 00 00 00 00
(000.163998)  vcan0  0000014A   [8]  00 00 03 4B 7A 7F 2C EA
(000.164219)  vcan0  0000017C   [8]  4B 00 00 00 00 00 00 00
(000.164429)  vcan0  00000309   [8]  03 65 00 00 00 00 00 00
(000.169734)  vcan0  00000130   [8]  00 00 00 00 00 00 00 00
(000.169955)  vcan0  00000309   [8]  03 81 00 00 00 00 00 00
(000.170177)  vcan0  0000017C   [8]  4B 00 00 00 00 00 00 00
(000.170389)  vcan0  0000014A   [8]  00 00 03 4B 7A 7F 2C EA
(000.175652)  vcan0  00000309   [8]  03 9D 00 00 00 00 00 00
(000.175877)  vcan0  0000017C   [8]  4B 00 00 00 00 00 00 00
(000.176084)  vcan0  00000130   [8]  00 00 00 00 00 00 00 00
(000.176298)  vcan0  0000014A   [8]  00 00 03 4B 7A 7F 2C EA
(000.181767)  vcan0  00000130   [8]  00 00 00 00 00 00 00 00
(000.181991)  vcan0  0000014A   [8]  00 00 03 4B 7A 7F 2C EA
(000.182202)  vcan0  00000309   [8]  03 BA 00 00 00 00 00 00
(000.182423)  vcan0  0000017C   [8]  4B 00 00 00 00 00 00 00
(000.187472)  vcan0  00000130   [8]  00 00 00 00 00 00 00 00
(000.187697)  vcan0  0000014A   [8]  00 00 03 4B 7A 7F 2C EA
(000.187920)  vcan0  0000017C   [8]  4B 00 00 00 00 00 00 00
(000.188130)  vcan0  00000309   [8]  03 D6 00 00 00 00 00 00
(000.193877)  vcan0  00000309   [8]  03 F2 00 00 00 00 00 00
(000.194093)  vcan0  0000014A   [8]  00 00 03 4B 7A 7F 2C EA
(000.194301)  vcan0  00000130   [8]  00 00 00 00 00 00 00 00
(000.194522)  vcan0  0000017C   [8]  4B 00 00 00 00 00 00 00
(000.199490)  vcan0  00000130   [8]  00 00 00 00 00 00 00 00
(000.199712)  vcan0  0000014A   [8]  00 00 03 4B 7A 7F 2C EA
(000.199924)  vcan0  00000309   [8]  04 0E 00 00 00 00 00 00
(000.200144)  vcan0  0000017C   [8]  4B 00 00 00 00 00 00 00
(000.205602)  vcan0  0000014A   [8]  00 00 03 4B 7A 7F 2C EA
(000.205817)  vcan0  00000309   [8]  04 2A 00 00 00 00 00 00
(000.206036)  vcan0  0000017C   [8]  4B 00 00 00 00 00 00 00
(000.206242)  vcan0  00000130   [8]  00 00 00 00 00 00 00 00
(000.211728)  vcan0  00000309   [8]  04 10 00 00 00 00 00 00
(000.211945)  vcan0  0000014A   [8]  00 00 03 4B 7A 7F 2C EA
(000.212165)  vcan0  0000017C   [8]  4B 00 00 00 00 00 00 00
(000.212372)  vcan0  00000130   [8]  00 00 00 00 00 00 00 00
(000.217632)  vcan0  0000014A   [8]  00 00 03 4B 7A 7F 2C EA
(000.217849)  vcan0  00000309   [8]  03 8B 00 00 00 00 00 00
(000.218071)  vcan0  0000017C   [8]  4B 00 00 00 00 00 00 00
(000.218279)  vcan0  00000130   [8]  00 00 00 00 00 00 00 00
(000.223833)  vcan0  0000017C   [8]  4B 00 00 00 00 00 00 00
(000.224044)  vcan0  00000130   [8]  00 00 00 00 00 00 00 00
(000.224258)  vcan0  0000014A   [8]  00 00 03 4B 7A 7F 2C EA
(000.224467)  vcan0  00000309   [8]  03 16 00 00 00 00 00 00
(000.229904)  vcan0  0000017C   [8]  4B 00 00 00 00 00 00 00
(000.230121)  vcan0  00000309   [8]  02 AE 00 00 00 00 00 00
(000.230333)  vcan0  0000014A   [8]  00 00 03 4B 7A 7F 2C EA
(000.230540)  vcan0  00000130   [8]  00 00 00 00 00 00 00 00
(000.235847)  vcan0  0000014A   [8]  00 00 03 4B 7A 7F 2C EA
(000.236090)  vcan0  00000130   [8]  00 00 00 00 00 00 00 00
(000.236307)  vcan0  00000309   [8]  02 50 00 00 00 00 00 00
(000.236526)  vcan0  0000017C   [8]  4B 00 00 00 00 00 00 00
(000.241850)  vcan0  00000309   [8]  01 FD 00 00 00 00 00 00
(000.242061)  vcan0  00000130   [8]  00 00 00 00 00 00 00 00
(000.242282)  vcan0  0000017C   [8]  4B 00 00 00 00 00 00 00
(000.242493)  vcan0  0000014A   [8]  00 00 03 4B 7A 7F 2C EA
(000.248193)  vcan0  00000002   [8]  00 00 00 00 00 00 00 00
(000.248402)  vcan0  00000130   [8]  00 00 00 00 00 00 00 00
(000.248621)  vcan0  0000014A   [8]  00 00 03 4B 7A 7F 2C EA
(000.248841)  vcan0  0000017C   [8]  4B 00 00 00 00 00 00 00
(000.249051)  vcan0  00000309   [8]  01 B2 00 00 00 00 00 00
(000.253675)  vcan0  00000130   [8]  00 00 00 00 00 00 00 00
(000.253896)  vcan0  0000014A   [8]  00 00 03 4B 7A 7F 2C EA
(000.254108)  vcan0  00000309   [8]  01 6F 00 00 00 00 00 00
(000.254327)  vcan0  0000017C   [8]  4B 00 00 00 00 00 00 00
(000.259729)  vcan0  0000017C   [8]  4B 00 00 00 00 00 00 00
(000.259938)  vcan0  00000130   [8]  00 00 00 00 00 00 00 00
(000.260149)  vcan0  0000014A   [8]  00 00 03 4B 7A 7F 2C EA
(000.260358)  vcan0  00000309   [8]  01 34 00 00 00 00 00 00
(000.266179)  vcan0  0000014A   [8]  00 00 03 4B 7A 7F 2C EA
(000.266405)  vcan0  0000017C   [8]  4B 00 00 00 00 00 00 00
(000.266617)  vcan0  00000309   [8]  01 00 00 00 00 00 00 00
(000.266822)  vcan0  00000130   [8]  00 00 00 00 00 00 00 00
(000.271713)  vcan0  0000014A   [8]  00 00 03 4B 7A 7F 2C EA
(000.271936)  vcan0  0000017C   [8]  4B 00 00 00 00 00 00 00
(000.272146)  vcan0  00000309   [8]  00 D1 00 00 00 00 00 00
(000.272353)  vcan0  00000130   [8]  00 00 00 00 00 00 00 00
(000.277696)  vcan0  00000130   [8]  00 00 00 00 00 00 00 00
(000.277923)  vcan0  00000309   [8]  00 A8 00 00 00 00 00 00
(000.278145)  vcan0  0000017C   [8]  4B 00 00 00 00 00 00 00
(000.278355)  vcan0  0000014A   [8]  00 00 03 4B 7A 7F 2C EA
(000.283673)  vcan0  00000130   [8]  00 00 00 00 00 00 00 00
(000.283904)  vcan0  0000017C   [8]  4B 00 00 00 00 00 00 00
(000.284118)  vcan0  00000309   [8]  00 83 00 00 00 00 00 00
(000.284330)  vcan0  0000014A   [8]  00 00 03 4B 7A 7F 2C EA
(000.289580)  vcan0  00000130   [8]  00 00 00 00 00 00 00 00
(000.289802)  vcan0  0000014A   [8]  00 00 03 4B 7A 7F 2C EA
(000.290014)  vcan0  00000309   [8]  00 63 00 00 00 00 00 00
(000.290234)  vcan0  0000017C   [8]  4B 00 00 00 00 00 00 00
(000.295620)  vcan0  00000130   [8]  00 00 00 00 00 00 00 00
(000.295842)  vcan0  00000309   [8]  00 47 00 00 00 00 00 00
(000.296064)  vcan0  0000017C   [8]  4B 00 00 00 00 00 00 00
(000.296274)  vcan0  0000014A   [8]  00 00 03 4B 7A 7F 2C EA
(000.302274)  vcan0  0000017C   [8]  4B 00 00 00 00 00 00 00
(000.302485)  vcan0  00000130   [8]  00 00 00 00 00 00 00 00
(000.302698)  vcan0  0000014A   [8]  00 00 03 4B 7A 7F 2C EA
(000.302909)  vcan0  00000309   [8]  00 2F 00 00 00 00 00 00
(000.307985)  vcan0  0000017C   [8]  4B 00 00 00 00 00 00 00
(000.308196)  vcan0  00000130   [8]  00 00 00 00 00 00 00 00
(000.308411)  vcan0  00000309   [8]  00 19 00 00 00 00 00 00
(000.308621)  vcan0  0000014A   [8]  00 00 03 4B 7A 7F 2C EA
(000.313877)  vcan0  0000014A   [8]  00 00 03 4B 7A 7F 2C EA
(000.314103)  vcan0  0000017C   [8]  4B 00 00 00 00 00 00 00
(000.314314)  vcan0  00000309   [8]  00 07 00 00 00 00 00 00
(000.314520)  vcan0  00000130   [8]  00 00 00 00 00 00 00 00
(000.319886)  vcan0  00000130   [8]  00 00 00 00 00 00 00 00
(000.320118)  vcan0  0000017C   [8]  4B 00 00 00 00 00 00 00
(000.320329)  vcan0  00000309   [8]  00 09 00 00 00 00 00 00
(000.320540)  vcan0  0000014A   [8]  00 00 03 4B 7A 7F 2C EA
(000.325867)  vcan0  00000130   [8]  00 00 00 00 00 00 00 00
(000.326088)  vcan0  00000309   [8]  00 17 00 00 00 00 00 00
(000.326312)  vcan0  0000017C   [8]  4B 00 00 00 00 00 00 00
(000.326523)  vcan0  0000014A   [8]  00 00 03 4B 7A 7F 2C EA
(000.331832)  vcan0  0000017C   [8]  4B 00 00 00 00 00 00 00
(000.332047)  vcan0  00000309   [8]  00 23 00 00 00 00 00 00
(000.332254)  vcan0  00000130   [8]  00 00 00 00 00 00 00 00
(000.332466)  vcan0  0000014A   [8]  00 00 03 4B 7A 7F 2C EA
(000.337755)  vcan0  00000130   [8]  00 00 00 00 00 00 00 00
(000.337989)  vcan0  0000017C   [8]  4B 00 00 00 00 00 00 00
(000.338200)  vcan0  00000309   [8]  00 2C 00 00 00 00 00 00
(000.338410)  vcan0  0000014A   [8]  00 00 03 4B 7A 7F 2C EA
(000.343737)  vcan0  0000017C   [8]  4B 00 00 00 00 00 00 00
(000.343952)  vcan0  0000014A   [8]  00 00 03 4B 7A 7F 2C EA
(000.344162)  vcan0  00000309   [8]  00 35 00 00 00 00 00 00
(000.344368)  vcan0  00000130   [8]  00 00 00 00 00 00 00 00
(000.350078)  vcan0  0000014A   [8]  00 00 03 4B 7A 7F 2C EA
(000.350289)  vcan0  00000130   [8]  00 00 00 00 00 00 00 00
(000.350502)  vcan0  00000309   [8]  00 3C 00 00 00 00 00 00
(000.350721)  vcan0  0000017C   [8]  4B 00 00 00 00 00 00 00
(000.356145)  vcan0  0000017C   [8]  4B 00 00 00 00 00 00 00
(000.356362)  vcan0  0000014A   [8]  00 00 03 4B 7A 7F 2C EA
(000.356569)  vcan0  00000130   [8]  00 00 00 00 00 00 00 00
(000.356781)  vcan0  00000309   [8]  00 41 00 00 00 00 00 00
(000.362066)  vcan0  00000309   [8]  00 46 00 00 00 00 00 00
(000.363276)  vcan0  0000017C   [8]  4B 00 00 00 00 00 00 00
(000.363491)  vcan0  0000014A   [8]  00 00 03 4B 7A 7F 2C EA
(000.363698)  vcan0  00000130   [8]  00 00 00 00 00 00 00 00
(000.367825)  vcan0  00000130   [8]  00 00 00 00 00 00 00 00
(000.368055)  vcan0  0000017C   [8]  4B 00 00 00 00 00 00 00
(000.368267)  vcan0  0000014A   [8]  00 00 03 4B 7A 7F 2C EA
(000.368478)  vcan0  00000309   [8]  00 49 00 00 00 00 00 00
(000.373629)  vcan0  00000130   [8]  00 00 00 00 00 00 00 00
(000.373857)  vcan0  0000017C   [8]  4B 00 00 00 00 00 00 00
(000.374069)  vcan0  0000014A   [8]  00 00 03 4B 7A 7F 2C EA
(000.374279)  vcan0  00000309   [8]  00 4C 00 00 00 00 00 00
(000.379691)  vcan0  0000017C   [8]  4B 00 00 00 00 00 00 00
(000.379901)  vcan0  00000130   [8]  00 00 00 00 00 00 00 00
(000.380114)  vcan0  00000309   [8]  00 4E 00 00 00 00 00 00
(000.380325)  vcan0  0000014A   [8]  00 00 03 4B 7A 7F 2C EA
(000.385613)  vcan0  00000309   [8]  00 4F 00 00 00 00 00 00
(000.385838)  vcan0  0000017C   [8]  4B 00 00 00 00 00 00 00
(000.386045)  vcan0  00000130   [8]  00 00 00 00 00 00 00 00
(000.386255)  vcan0  0000014A   [8]  00 00 03 4B 7A 7F 2C EA
(000.391705)  vcan0  0000014A   [8]  00 00 03 4B 74 4B 45 3C
(000.391931)  vcan0  0000017C   [8]  4B 00 00 00 00 00 00 00
(000.392138)  vcan0  00000130   [8]  00 00 00 00 00 00 00 00
(000.392348)  vcan0  00000309   [8]  00 50 00 00 00 00 00 00
(000.397675)  vcan0  00000130   [8]  00 00 00 00 00 00 00 00
(000.397895)  vcan0  0000014A   [8]  00 00 03 48 49 4C 2F 7C
(000.398116)  vcan0  0000017C   [8]  4B 00 00 00 00 00 00 00
(000.398326)  vcan0  00000309   [8]  00 6D 00 00 00 00 00 00
(000.403841)  vcan0  0000014A   [8]  00 00 03 46 CB BF 12 EA
(000.404050)  vcan0  00000130   [8]  00 00 00 00 00 00 00 00
(000.404273)  vcan0  0000017C   [8]  4B 00 00 00 00 00 00 00
(000.404483)  vcan0  00000309   [8]  00 8E 00 00 00 00 00 00
(000.409793)  vcan0  0000014A   [8]  00 00 03 42 9F 58 42 9A
(000.410003)  vcan0  00000130   [8]  00 00 00 00 00 00 00 00
(000.410217)  vcan0  00000309   [8]  00 C9 00 00 00 00 00 00
(000.410437)  vcan0  0000017C   [8]  4B 00 00 00 00 00 00 00
(000.415687)  vcan0  0000017C   [8]  4B 00 00 00 00 00 00 00
(000.415903)  vcan0  0000014A   [8]  00 00 03 3E 67 6D CF 7C
(000.416114)  vcan0  00000309   [8]  00 FC 00 00 00 00 00 00
(000.416321)  vcan0  00000130   [8]  00 00 00 00 00 00 00 00
(000.421630)  vcan0  00000130   [8]  00 00 00 00 00 00 00 00
(000.421850)  vcan0  00000309   [8]  01 12 00 00 00 00 00 00
(000.422063)  vcan0  0000014A   [8]  00 00 03 3A A7 E4 D3 28
(000.422285)  vcan0  0000017C   [8]  4B 00 00 00 00 00 00 00
(000.427690)  vcan0  00000130   [8]  00 00 00 00 00 00 00 00
(000.427910)  vcan0  0000014A   [8]  00 00 03 35 AD 58 9E 10
(000.428131)  vcan0  0000017C   [8]  4B 00 00 00 00 00 00 00
(000.428341)  vcan0  00000309   [8]  01 4B 00 00 00 00 00 00
(000.433612)  vcan0  0000017C   [8]  4B 00 00 00 00 00 00 00
(000.433826)  vcan0  00000309   [8]  01 78 00 00 00 00 00 00
(000.434037)  vcan0  0000014A   [8]  00 00 03 30 A0 4C A2 7E
(000.434243)  vcan0  00000130   [8]  00 00 00 00 00 00 00 00
(000.439579)  vcan0  00000309   [8]  01 A3 00 00 00 00 00 00
(000.439807)  vcan0  0000017C   [8]  4B 00 00 00 00 00 00 00
(000.440017)  vcan0  0000014A   [8]  00 00 03 2B 2B C5 2E 70
(000.440223)  vcan0  00000130   [8]  00 00 00 00 00 00 00 00
(000.445612)  vcan0  0000017C   [8]  4B 00 00 00 00 00 00 00
(000.445828)  vcan0  00000309   [8]  01 C5 00 00 00 00 00 00
(000.446039)  vcan0  0000014A   [8]  00 00 03 26 24 5C BF AA
(000.446245)  vcan0  00000130   [8]  00 00 00 00 00 00 00 00
(000.451528)  vcan0  00000309   [8]  01 ED 00 00 00 00 00 00
(000.451737)  vcan0  00000130   [8]  00 00 00 00 00 00 00 00
(000.451957)  vcan0  0000017C   [8]  4B 00 00 00 00 00 00 00
(000.452167)  vcan0  0000014A   [8]  00 00 03 1F C1 4F 21 7A
(000.457642)  vcan0  00000130   [8]  00 00 00 00 00 00 00 00
(000.457861)  vcan0  00000309   [8]  02 0A 00 00 00 00 00 00
(000.458073)  vcan0  0000014A   [8]  00 00 03 1A 21 8A E8 9C
(000.458291)  vcan0  0000017C   [8]  4B 00 00 00 00 00 00 00
(000.463565)  vcan0  0000014A   [8]  00 00 03 13 4E EE 48 B0
(000.463789)  vcan0  0000017C   [8]  4B 00 00 00 00 00 00 00
(000.463995)  vcan0  00000130   [8]  00 00 00 00 00 00 00 00
(000.464205)  vcan0  00000309   [8]  02 2F 00 00 00 00 00 00
(000.469597)  vcan0  0000017C   [8]  4B 00 00 00 00 00 00 00
(000.469810)  vcan0  00000309   [8]  02 4B 00 00 00 00 00 00
(000.470016)  vcan0  00000130   [8]  00 00 00 00 00 00 00 00
(000.470226)  vcan0  0000014A   [8]  00 00 03 0D 2F 2E 22 36
(000.475575)  vcan0  0000014A   [8]  00 00 03 05 F7 FF 18 AC
(000.475791)  vcan0  00000309   [8]  02 68 00 00 00 00 00 00
(000.476012)  vcan0  0000017C   [8]  4B 00 00 00 00 00 00 00
(000.476218)  vcan0  00000130   [8]  00 00 00 00 00 00 00 00
(000.500601)  vcan0  0000014A   [8]  00 00 02 FF 9E 05 20 D6
(000.500824)  vcan0  00000309   [8]  02 82 00 00 00 00 00 00
(000.501047)  vcan0  0000017C   [8]  4B 00 00 00 00 00 00 00
(000.501254)  vcan0  00000130   [8]  00 00 00 00 00 00 00 00
(000.503206)  vcan0  0000017C   [8]  4B 00 00 00 00 00 00 00
(000.503423)  vcan0  0000014A   [8]  00 00 02 F8 08 6E 45 2C
(000.503630)  vcan0  00000130   [8]  00 00 00 00 00 00 00 00
(000.503840)  vcan0  00000309   [8]  02 9D 00 00 00 00 00 00
(000.508769)  vcan0  00000002   [8]  00 00 00 00 00 00 00 00
(000.508984)  vcan0  00000130   [8]  00 00 00 00 00 00 00 00
(000.509205)  vcan0  00000309   [8]  02 B5 00 00 00 00 00 00
(000.509416)  vcan0  0000014A   [8]  00 00 02 F1 51 73 0A 5C
(000.509637)  vcan0  0000017C   [8]  4B 00 00 00 00 00 00 00
(000.515060)  vcan0  0000014A   [8]  00 00 02 E9 7D 73 57 F8
(000.515282)  vcan0  000001A3   [8]  00 00 00 00 00 00 00 00
(000.515489)  vcan0  0000018F   [8]  00 00 00 00 00 00 00 00
(000.515706)  vcan0  00000309   [8]  02 CE 00 00 00 00 00 00
(000.515911)  vcan0  00000130   [8]  00 00 00 00 00 00 00 00
(000.516129)  vcan0  0000017C   [8]  4B 00 00 00 00 00 00 00
(000.520804)  vcan0  0000014A   [8]  00 00 02 E2 76 1F DA D6
(000.521030)  vcan0  0000017C   [8]  4B 00 00 00 00 00 00 00
(000.521242)  vcan0  00000309   [8]  02 E5 00 00 00 00 00 00
(000.521448)  vcan0  00000130   [8]  00 00 00 00 00 00 00 00
(000.526942)  vcan0  0000017C   [8]  4B 00 00 00 00 00 00 00
(000.527158)  vcan0  00000309   [8]  02 FC 00 00 00 00 00 00
(000.527368)  vcan0  0000014A   [8]  00 00 02 DA 68 B3 3B 2C
(000.527574)  vcan0  00000130   [8]  00 00 00 00 00 00 00 00
(000.533017)  vcan0  00000309   [8]  03 11 00 00 00 00 00 00
(000.533234)  vcan0  0000014A   [8]  00 00 02 D3 24 2A 3D 74
(000.533454)  vcan0  0000017C   [8]  4B 00 00 00 00 00 00 00
(000.533660)  vcan0  00000130   [8]  00 00 00 00 00 00 00 00
(000.538822)  vcan0  00000130   [8]  00 00 00 00 00 00 00 00
(000.539044)  vcan0  0000014A   [8]  00 00 02 CA F0 63 25 EC
(000.539255)  vcan0  00000309   [8]  03 27 00 00 00 00 00 00
(000.539474)  vcan0  0000017C   [8]  4B 00 00 00 00 00 00 00
(000.544909)  vcan0  0000014A   [8]  00 00 02 C3 7D 62 D6 E4
(000.545134)  vcan0  0000017C   [8]  4B 00 00 00 00 00 00 00
(000.545345)  vcan0  00000309   [8]  03 3C 00 00 00 00 00 00
(000.545552)  vcan0  00000130   [8]  00 00 00 00 00 00 00 00
(000.550897)  vcan0  00000309   [8]  03 50 00 00 00 00 00 00
(000.551114)  vcan0  0000014A   [8]  00 00 02 BB 22 68 BF 2C
(000.551334)  vcan0  0000017C   [8]  4B 00 00 00 00 00 00 00
(000.551540)  vcan0  00000130   [8]  00 00 00 00 00 00 00 00
(000.557029)  vcan0  00000130   [8]  00 00 00 00 00 00 00 00
(000.557250)  vcan0  0000014A   [8]  00 00 02 B3 82 1F CC E2
(000.557461)  vcan0  00000309   [8]  03 64 00 00 00 00 00 00
(000.557680)  vcan0  0000017C   [8]  4B 00 00 00 00 00 00 00
(000.563005)  vcan0  00000130   [8]  00 00 00 00 00 00 00 00
(000.563232)  vcan0  00000309   [8]  03 77 00 00 00 00 00 00
(000.563455)  vcan0  0000017C   [8]  4B 00 00 00 00 00 00 00
(000.563665)  vcan0  0000014A   [8]  00 00 02 AB 17 54 C8 62
(000.568833)  vcan0  00000309   [8]  03 8A 00 00 00 00 00 00
(000.569050)  vcan0  0000014A   [8]  00 00 02 A3 4D 72 29 A6
(000.569271)  vcan0  0000017C   [8]  4B 00 00 00 00 00 00 00
(000.569479)  vcan0  00000130   [8]  00 00 00 00 00 00 00 00
(000.574927)  vcan0  0000017C   [8]  4B 00 00 00 00 00 00 00
(000.575143)  vcan0  00000309   [8]  03 9C 00 00 00 00 00 00
(000.575350)  vcan0  00000130   [8]  00 00 00 00 00 00 00 00
(000.575560)  vcan0  0000014A   [8]  00 00 02 9A D5 BC F3 32
(000.580855)  vcan0  00000309   [8]  03 AF 00 00 00 00 00 00
(000.581101)  vcan0  0000017C   [8]  4B 00 00 00 00 00 00 00
(000.581327)  vcan0  0000014A   [8]  00 00 02 92 F1 E9 FF FC
(000.581541)  vcan0  00000130   [8]  00 00 00 00 00 00 00 00
(000.586839)  vcan0  00000309   [8]  03 C0 00 00 00 00 00 00
(000.587063)  vcan0  0000017C   [8]  4B 00 00 00 00 00 00 00
(000.587270)  vcan0  00000130   [8]  00 00 00 00 00 00 00 00
(000.587480)  vcan0  0000014A   [8]  00 00 02 8A 76 E2 F4 94
(000.592793)  vcan0  00000130   [8]  00 00 00 00 00 00 00 00
(000.593029)  vcan0  0000017C   [8]  4B 00 00 00 00 00 00 00
(000.593242)  vcan0  0000014A   [8]  00 00 02 82 75 3B 29 06
(000.593453)  vcan0  00000309   [8]  03 D3 00 00 00 00 00 00
(000.598795)  vcan0  0000014A   [8]  00 00 02 79 FD 4B BD 6A
(000.599006)  vcan0  00000130   [8]  00 00 00 00 00 00 00 00
(000.599225)  vcan0  00000309   [8]  03 E3 00 00 00 00 00 00
(000.599445)  vcan0  0000017C   [8]  4B 00 00 00 00 00 00 00
(000.604746)  vcan0  00000309   [8]  03 F5 00 00 00 00 00 00
(000.604971)  vcan0  0000017C   [8]  4B 00 00 00 00 00 00 00
(000.605179)  vcan0  00000130   [8]  00 00 00 00 00 00 00 00
(000.605393)  vcan0  0000014A   [8]  00 00 02 71 F2 A0 97 D2
(000.610662)  vcan0  00000309   [8]  04 05 00 00 00 00 00 00
(000.610873)  vcan0  00000130   [8]  00 00 00 00 00 00 00 00
(000.611086)  vcan0  0000014A   [8]  00 00 02 69 7C CB 02 F0
(000.611308)  vcan0  0000017C   [8]  4B 00 00 00 00 00 00 00
(000.617002)  vcan0  0000014A   [8]  00 00 02 61 65 5D 40 30
(000.617221)  vcan0  00000130   [8]  00 00 00 00 00 00 00 00
(000.617462)  vcan0  0000017C   [8]  4B 00 00 00 00 00 00 00
(000.617685)  vcan0  00000309   [8]  04 17 00 00 00 00 00 00
(000.623153)  vcan0  0000017C   [8]  4B 00 00 00 00 00 00 00
(000.623385)  vcan0  00000309   [8]  04 26 00 00 00 00 00 00
(000.623610)  vcan0  0000014A   [8]  00 00 02 59 01 0B FC C2
(000.623824)  vcan0  00000130   [8]  00 00 00 00 00 00 00 00
(000.628853)  vcan0  00000130   [8]  00 00 00 00 00 00 00 00
(000.629078)  vcan0  0000014A   [8]  00 00 02 50 DD 6B F7 B8
(000.629304)  vcan0  0000017C   [8]  4B 00 00 00 00 00 00 00
(000.629514)  vcan0  00000309   [8]  04 37 00 00 00 00 00 00
(000.634827)  vcan0  00000130   [8]  00 00 00 00 00 00 00 00
(000.635069)  vcan0  0000017C   [8]  4B 00 00 00 00 00 00 00
(000.635284)  vcan0  00000309   [8]  04 47 00 00 00 00 00 00
(000.635495)  vcan0  0000014A   [8]  00 00 02 48 8C 0C 91 0C
(000.641083)  vcan0  00000309   [8]  04 57 00 00 00 00 00 00
(000.641298)  vcan0  00000130   [8]  00 00 00 00 00 00 00 00
(000.641510)  vcan0  0000014A   [8]  00 00 02 40 6D AE 4E DA
(000.641731)  vcan0  0000017C   [8]  4B 00 00 00 00 00 00 00
(000.646859)  vcan0  00000130   [8]  00 00 00 00 00 00 00 00
(000.647083)  vcan0  0000014A   [8]  00 00 02 38 30 B0 A4 44
(000.647299)  vcan0  00000309   [8]  04 67 00 00 00 00 00 00
(000.647518)  vcan0  0000017C   [8]  4B 00 00 00 00 00 00 00
(000.652851)  vcan0  00000309   [8]  04 77 00 00 00 00 00 00
(000.653063)  vcan0  00000130   [8]  00 00 00 00 00 00 00 00
(000.653285)  vcan0  0000017C   [8]  4B 00 00 00 00 00 00 00
(000.653496)  vcan0  0000014A   [8]  00 00 02 30 0E CF A8 26
(000.658906)  vcan0  00000130   [8]  00 00 00 00 00 00 00 00
(000.659136)  vcan0  0000017C   [8]  4B 00 00 00 00 00 00 00
(000.659348)  vcan0  00000309   [8]  04 86 00 00 00 00 00 00
(000.659558)  vcan0  0000014A   [8]  00 00 02 27 F2 39 BF 0E
(000.664698)  vcan0  00000130   [8]  00 00 00 00 00 00 00 00
(000.664919)  vcan0  00000309   [8]  04 95 00 00 00 00 00 00
(000.665140)  vcan0  0000017C   [8]  4B 00 00 00 00 00 00 00
(000.665354)  vcan0  0000014A   [8]  00 00 02 1F DF D8 32 14
(000.671148)  vcan0  00000309   [8]  04 A4 00 00 00 00 00 00
(000.671365)  vcan0  0000014A   [8]  00 00 02 17 E0 76 7A 22
(000.671588)  vcan0  0000017C   [8]  4B 00 00 00 00 00 00 00
(000.671795)  vcan0  00000130   [8]  00 00 00 00 00 00 00 00
(000.677030)  vcan0  0000014A   [8]  00 00 02 0F E9 B6 52 44
(000.677240)  vcan0  00000130   [8]  00 00 00 00 00 00 00 00
(000.677461)  vcan0  0000017C   [8]  4B 00 00 00 00 00 00 00
(000.677670)  vcan0  00000309   [8]  04 B3 00 00 00 00 00 00
(000.682833)  vcan0  0000014A   [8]  00 00 02 08 01 0A 62 4C
(000.683046)  vcan0  00000309   [8]  04 C2 00 00 00 00 00 00
(000.683253)  vcan0  00000130   [8]  00 00 00 00 00 00 00 00
(000.683472)  vcan0  0000017C   [8]  4B 00 00 00 00 00 00 00
(000.688744)  vcan0  00000309   [8]  04 D1 00 00 00 00 00 00
(000.688959)  vcan0  0000014A   [8]  00 00 02 00 28 5D F0 08
(000.689166)  vcan0  00000130   [8]  00 00 00 00 00 00 00 00
(000.689386)  vcan0  0000017C   [8]  4B 00 00 00 00 00 00 00
(000.695155)  vcan0  00000309   [8]  04 E0 00 00 00 00 00 00
(000.695364)  vcan0  00000130   [8]  00 00 00 00 00 00 00 00
(000.695575)  vcan0  0000014A   [8]  00 00 01 F8 5D 20 66 5E
(000.695796)  vcan0  0000017C   [8]  4B 00 00 00 00 00 00 00
(000.700866)  vcan0  0000014A   [8]  00 00 01 F0 A0 0E 5D 14
(000.701081)  vcan0  00000309   [8]  04 EE 00 00 00 00 00 00
(000.701287)  vcan0  00000130   [8]  00 00 00 00 00 00 00 00
(000.701520)  vcan0  0000017C   [8]  4B 00 00 00 00 00 00 00
(000.706856)  vcan0  00000309   [8]  04 FD 00 00 00 00 00 00
(000.707072)  vcan0  0000014A   [8]  00 00 01 E8 FB 75 CC C4
(000.707279)  vcan0  00000130   [8]  00 00 00 00 00 00 00 00
(000.707498)  vcan0  0000017C   [8]  4B 00 00 00 00 00 00 00
(000.712829)  vcan0  00000130   [8]  00 00 00 00 00 00 00 00
(000.713048)  vcan0  0000014A   [8]  00 00 01 E1 61 73 62 88
(000.713268)  vcan0  0000017C   [8]  4B 00 00 00 00 00 00 00
(000.713478)  vcan0  00000309   [8]  05 0B 00 00 00 00 00 00
(000.718703)  vcan0  0000017C   [8]  4B 00 00 00 00 00 00 00
(000.718911)  vcan0  00000130   [8]  00 00 00 00 00 00 00 00
(000.719123)  vcan0  0000014A   [8]  00 00 01 D9 DD EC 8B 1C
(000.719333)  vcan0  00000309   [8]  05 1A 00 00 00 00 00 00
(000.724731)  vcan0  00000130   [8]  00 00 00 00 00 00 00 00
(000.724953)  vcan0  0000014A   [8]  00 00 01 D2 6B 05 D8 98
(000.725173)  vcan0  0000017C   [8]  4B 00 00 00 00 00 00 00
(000.725383)  vcan0  00000309   [8]  05 28 00 00 00 00 00 00
(000.730674)  vcan0  00000130   [8]  00 00 00 00 00 00 00 00
(000.730895)  vcan0  0000014A   [8]  00 00 01 CB 0C 46 AD 02
(000.731114)  vcan0  0000017C   [8]  4B 00 00 00 00 00 00 00
(000.731323)  vcan0  00000309   [8]  05 36 00 00 00 00 00 00
(000.736815)  vcan0  00000130   [8]  00 00 00 00 00 00 00 00
(000.737043)  vcan0  0000017C   [8]  4B 00 00 00 00 00 00 00
(000.737255)  vcan0  00000309   [8]  05 44 00 00 00 00 00 00
(000.737465)  vcan0  0000014A   [8]  00 00 01 C3 C0 02 9F CE
(000.742946)  vcan0  0000014A   [8]  00 00 01 BC 88 D1 42 38
(000.743161)  vcan0  00000309   [8]  05 52 00 00 00 00 00 00
(000.743380)  vcan0  0000017C   [8]  4B 00 00 00 00 00 00 00
(000.743586)  vcan0  00000130   [8]  00 00 00 00 00 00 00 00
(000.748854)  vcan0  00000130   [8]  00 00 00 00 00 00 00 00
(000.749081)  vcan0  0000017C   [8]  4B 00 00 00 00 00 00 00
(000.749292)  vcan0  00000309   [8]  05 60 00 00 00 00 00 00
(000.749505)  vcan0  0000014A   [8]  00 00 01 B5 65 49 B1 0E
(000.754890)  vcan0  00000309   [8]  05 6E 00 00 00 00 00 00
(000.755100)  vcan0  00000130   [8]  00 00 00 00 00 00 00 00
(000.755322)  vcan0  0000017C   [8]  4B 00 00 00 00 00 00 00
(000.755528)  vcan0  00000002   [8]  00 00 00 00 00 00 00 00
(000.755738)  vcan0  0000014A   [8]  00 00 01 AE 55 1F 16 C6
(000.760838)  vcan0  00000309   [8]  05 7C 00 00 00 00 00 00
(000.761048)  vcan0  00000130   [8]  00 00 00 00 00 00 00 00
(000.761270)  vcan0  0000017C   [8]  4B 00 00 00 00 00 00 00
(000.761480)  vcan0  0000014A   [8]  00 00 01 A7 5E 70 66 A4
(000.767235)  vcan0  00000309   [8]  05 8A 00 00 00 00 00 00
(000.767447)  vcan0  00000130   [8]  00 00 00 00 00 00 00 00
(000.767669)  vcan0  0000017C   [8]  4B 00 00 00 00 00 00 00
(000.767881)  vcan0  0000014A   [8]  00 00 01 A0 79 61 F8 86
(000.772940)  vcan0  00000130   [8]  00 00 00 00 00 00 00 00
(000.773172)  vcan0  0000017C   [8]  4B 00 00 00 00 00 00 00
(000.773384)  vcan0  0000014A   [8]  00 00 01 99 AC AB 40 BA
(000.773594)  vcan0  00000309   [8]  05 97 00 00 00 00 00 00
(000.778976)  vcan0  0000017C   [8]  4B 00 00 00 00 00 00 00
(000.779186)  vcan0  00000130   [8]  00 00 00 00 00 00 00 00
(000.779398)  vcan0  0000014A   [8]  00 00 01 92 F7 DB 52 FE
(000.779608)  vcan0  00000309   [8]  05 A5 00 00 00 00 00 00
(000.784766)  vcan0  0000014A   [8]  00 00 01 8C 57 38 BE 4E
(000.784994)  vcan0  0000017C   [8]  4B 00 00 00 00 00 00 00
(000.785205)  vcan0  00000309   [8]  05 B3 00 00 00 00 00 00
(000.785412)  vcan0  00000130   [8]  00 00 00 00 00 00 00 00
(000.790967)  vcan0  0000014A   [8]  00 00 01 85 CB 93 E4 D2
(000.791220)  vcan0  00000309   [8]  05 C0 00 00 00 00 00 00
(000.791453)  vcan0  0000017C   [8]  4B 00 00 00 00 00 00 00
(000.791661)  vcan0  00000130   [8]  00 00 00 00 00 00 00 00
(000.796837)  vcan0  0000017C   [8]  4B 00 00 00 00 00 00 00
(000.797047)  vcan0  00000130   [8]  00 00 00 00 00 00 00 00
(000.797260)  vcan0  0000014A   [8]  00 00 01 7F 57 78 B3 8A
(000.797473)  vcan0  00000309   [8]  05 CE 00 00 00 00 00 00
(000.802950)  vcan0  0000014A   [8]  00 00 01 78 FE AF BD C8
(000.803170)  vcan0  00000309   [8]  05 DC 00 00 00 00 00 00
(000.803391)  vcan0  0000017C   [8]  4B 00 00 00 00 00 00 00
(000.803597)  vcan0  00000130   [8]  00 00 00 00 00 00 00 00
(000.809315)  vcan0  0000017C   [8]  4B 00 00 00 00 00 00 00
(000.809529)  vcan0  00000130   [8]  00 00 00 00 00 00 00 00
(000.809742)  vcan0  00000309   [8]  05 E9 00 00 00 00 00 00
(000.809954)  vcan0  0000014A   [8]  00 00 01 72 BC AE 06 5C
(000.815042)  vcan0  00000130   [8]  00 00 00 00 00 00 00 00
(000.815277)  vcan0  00000309   [8]  05 F7 00 00 00 00 00 00
(000.815492)  vcan0  0000014A   [8]  00 00 01 6C 8C 50 0F 06
(000.815713)  vcan0  0000017C   [8]  4B 00 00 00 00 00 00 00
(000.820898)  vcan0  00000130   [8]  00 00 00 00 00 00 00 00
(000.821120)  vcan0  0000014A   [8]  00 00 01 66 7A 37 DC 4A
(000.821341)  vcan0  0000017C   [8]  4B 00 00 00 00 00 00 00
(000.821550)  vcan0  00000309   [8]  06 04 00 00 00 00 00 00
(000.826878)  vcan0  00000130   [8]  00 00 00 00 00 00 00 00
(000.827099)  vcan0  00000309   [8]  06 11 00 00 00 00 00 00
(000.827311)  vcan0  0000014A   [8]  00 00 01 60 7F 70 46 9E
(000.827534)  vcan0  0000017C   [8]  4B 00 00 00 00 00 00 00
(000.832678)  vcan0  00000130   [8]  00 00 00 00 00 00 00 00
(000.832896)  vcan0  00000309   [8]  06 1F 00 00 00 00 00 00
(000.833107)  vcan0  0000014A   [8]  00 00 01 5A 99 67 8E E6
(000.833325)  vcan0  0000017C   [8]  4B 00 00 00 00 00 00 00
(000.838683)  vcan0  0000014A   [8]  00 00 01 54 CA 72 EB 0A
(000.838897)  vcan0  00000309   [8]  06 2C 00 00 00 00 00 00
(000.839116)  vcan0  0000017C   [8]  4B 00 00 00 00 00 00 00
(000.839322)  vcan0  00000130   [8]  00 00 00 00 00 00 00 00
(000.844827)  vcan0  0000014A   [8]  00 00 01 4F 1D 61 8C 3E
(000.845042)  vcan0  00000309   [8]  06 3A 00 00 00 00 00 00
(000.845248)  vcan0  00000130   [8]  00 00 00 00 00 00 00 00
(000.845467)  vcan0  0000017C   [8]  4B 00 00 00 00 00 00 00
(000.850831)  vcan0  0000014A   [8]  00 00 01 49 7C E5 63 B6
(000.851061)  vcan0  00000309   [8]  06 47 00 00 00 00 00 00
(000.851276)  vcan0  00000130   [8]  00 00 00 00 00 00 00 00
(000.851524)  vcan0  0000017C   [8]  4B 00 00 00 00 00 00 00
(000.856838)  vcan0  0000014A   [8]  00 00 01 43 FC 13 3A E2
(000.857058)  vcan0  00000309   [8]  06 54 00 00 00 00 00 00
(000.857278)  vcan0  0000017C   [8]  4B 00 00 00 00 00 00 00
(000.857485)  vcan0  00000130   [8]  00 00 00 00 00 00 00 00
(000.862870)  vcan0  00000309   [8]  06 61 00 00 00 00 00 00
(000.863081)  vcan0  00000130   [8]  00 00 00 00 00 00 00 00
(000.863297)  vcan0  0000014A   [8]  00 00 01 3E 8C 6F 3D CC
(000.863517)  vcan0  0000017C   [8]  4B 00 00 00 00 00 00 00
(000.868791)  vcan0  0000014A   [8]  00 00 01 39 3C A9 A3 76
(000.869007)  vcan0  00000309   [8]  06 6F 00 00 00 00 00 00
(000.869226)  vcan0  0000017C   [8]  4B 00 00 00 00 00 00 00
(000.869433)  vcan0  00000130   [8]  00 00 00 00 00 00 00 00
(000.874800)  vcan0  0000017C   [8]  4B 00 00 00 00 00 00 00
(000.875015)  vcan0  00000309   [8]  06 7C 00 00 00 00 00 00
(000.875225)  vcan0  0000014A   [8]  00 00 01 34 06 51 FA FE
(000.875431)  vcan0  00000130   [8]  00 00 00 00 00 00 00 00
(000.880666)  vcan0  00000130   [8]  00 00 00 00 00 00 00 00
(000.880897)  vcan0  0000017C   [8]  4B 00 00 00 00 00 00 00
(000.881109)  vcan0  0000014A   [8]  00 00 01 2E E0 7D 5C DA
(000.881319)  vcan0  00000309   [8]  06 89 00 00 00 00 00 00
(000.886718)  vcan0  00000130   [8]  00 00 00 00 00 00 00 00
(000.886939)  vcan0  00000309   [8]  06 96 00 00 00 00 00 00
(000.887151)  vcan0  0000014A   [8]  00 00 01 29 D9 02 4D B6
(000.887370)  vcan0  0000017C   [8]  4B 00 00 00 00 00 00 00
(000.892982)  vcan0  00000309   [8]  06 A3 00 00 00 00 00 00
(000.893199)  vcan0  0000014A   [8]  00 00 01 24 EA 85 6E 34
(000.893420)  vcan0  0000017C   [8]  4B 00 00 00 00 00 00 00
(000.893626)  vcan0  00000130   [8]  00 00 00 00 00 00 00 00
(000.898828)  vcan0  00000309   [8]  06 B0 00 00 00 00 00 00
(000.899045)  vcan0  0000014A   [8]  00 00 01 20 14 6B E9 40
(000.899252)  vcan0  00000130   [8]  00 00 00 00 00 00 00 00
(000.899472)  vcan0  0000017C   [8]  4B 00 00 00 00 00 00 00
(000.904976)  vcan0  0000014A   [8]  00 00 01 1B 4F 5F F7 62
(000.905194)  vcan0  00000309   [8]  06 BD 00 00 00 00 00 00
(000.905415)  vcan0  0000017C   [8]  4B 00 00 00 00 00 00 00
(000.905624)  vcan0  00000130   [8]  00 00 00 00 00 00 00 00
(000.910785)  vcan0  0000017C   [8]  4B 00 00 00 00 00 00 00
(000.911001)  vcan0  0000014A   [8]  00 00 01 16 A7 91 86 D8
(000.911212)  vcan0  00000309   [8]  06 CA 00 00 00 00 00 00
(000.911418)  vcan0  00000130   [8]  00 00 00 00 00 00 00 00
(000.916763)  vcan0  0000014A   [8]  00 00 01 12 17 C5 D0 EE
(000.916978)  vcan0  00000309   [8]  06 D7 00 00 00 00 00 00
(000.917184)  vcan0  00000130   [8]  00 00 00 00 00 00 00 00
(000.917403)  vcan0  0000017C   [8]  4B 00 00 00 00 00 00 00
(000.922829)  vcan0  0000014A   [8]  00 00 01 0D 9E 2B 2C 5A
(000.923039)  vcan0  00000130   [8]  00 00 00 00 00 00 00 00
(000.923250)  vcan0  00000309   [8]  06 E4 00 00 00 00 00 00
(000.923469)  vcan0  0000017C   [8]  4B 00 00 00 00 00 00 00
(000.928799)  vcan0  00000130   [8]  00 00 00 00 00 00 00 00
(000.929026)  vcan0  0000017C   [8]  4B 00 00 00 00 00 00 00
(000.929237)  vcan0  0000014A   [8]  00 00 01 09 3B 15 FF C8
(000.929446)  vcan0  00000309   [8]  06 F1 00 00 00 00 00 00
(000.934697)  vcan0  0000014A   [8]  00 00 01 04 F0 33 48 CA
(000.934912)  vcan0  00000309   [8]  06 FE 00 00 00 00 00 00
(000.935118)  vcan0  00000130   [8]  00 00 00 00 00 00 00 00
(000.935337)  vcan0  0000017C   [8]  4B 00 00 00 00 00 00 00
(000.940649)  vcan0  00000130   [8]  00 00 00 00 00 00 00 00
(000.940876)  vcan0  0000017C   [8]  4B 00 00 00 00 00 00 00
(000.941086)  vcan0  00000309   [8]  07 0B 00 00 00 00 00 00
(000.941299)  vcan0  0000014A   [8]  00 00 01 00 BE 9E 80 08
(000.946673)  vcan0  00000130   [8]  00 00 00 00 00 00 00 00
(000.946901)  vcan0  0000017C   [8]  4B 00 00 00 00 00 00 00
(000.947112)  vcan0  0000014A   [8]  00 00 00 FC A5 69 93 BE
(000.947322)  vcan0  00000309   [8]  07 18 00 00 00 00 00 00
(000.952727)  vcan0  00000309   [8]  07 25 00 00 00 00 00 00
(000.952951)  vcan0  0000017C   [8]  4B 00 00 00 00 00 00 00
(000.953162)  vcan0  0000014A   [8]  00 00 00 F8 B2 D6 B7 C4
(000.953367)  vcan0  00000130   [8]  00 00 00 00 00 00 00 00
(000.959026)  vcan0  00000130   [8]  00 00 00 00 00 00 00 00
(000.959254)  vcan0  0000017C   [8]  4B 00 00 00 00 00 00 00
(000.959466)  vcan0  00000309   [8]  07 32 00 00 00 00 00 00
(000.959675)  vcan0  0000014A   [8]  00 00 00 F4 C9 FA 7D 62
(000.965265)  vcan0  00000130   [8]  00 00 00 00 00 00 00 00
(000.965487)  vcan0  00000309   [8]  07 3F 00 00 00 00 00 00
(000.965699)  vcan0  0000014A   [8]  00 00 00 F1 01 6C 67 FE
(000.965917)  vcan0  0000017C   [8]  4B 00 00 00 00 00 00 00
(000.971074)  vcan0  00000130   [8]  00 00 00 00 00 00 00 00
(000.971298)  vcan0  00000309   [8]  07 4B 00 00 00 00 00 00
(000.971509)  vcan0  0000014A   [8]  00 00 00 ED 46 BC 68 6A
(000.971727)  vcan0  0000017C   [8]  4B 00 00 00 00 00 00 00
(000.976711)  vcan0  00000309   [8]  07 58 00 00 00 00 00 00
(000.976933)  vcan0  0000017C   [8]  4B 00 00 00 00 00 00 00
(000.977140)  vcan0  00000130   [8]  00 00 00 00 00 00 00 00
(000.977350)  vcan0  0000014A   [8]  00 00 00 E9 B2 23 5B 5C
(000.983208)  vcan0  00000130   [8]  00 00 00 00 00 00 00 00
(000.983437)  vcan0  0000017C   [8]  4B 00 00 00 00 00 00 00
(000.983649)  vcan0  00000309   [8]  07 65 00 00 00 00 00 00
(000.983858)  vcan0  0000014A   [8]  00 00 00 E6 0B C6 8A 96
(000.989113)  vcan0  0000017C   [8]  4B 00 00 00 00 00 00 00
(000.989323)  vcan0  00000130   [8]  00 00 00 00 00 00 00 00
(000.989534)  vcan0  00000309   [8]  07 70 00 00 00 00 00 00
(000.989744)  vcan0  0000014A   [8]  00 00 00 E2 D6 8E 70 A2
(000.994738)  vcan0  0000014A   [8]  00 00 00 DE E3 4C F5 2A
(000.994948)  vcan0  00000130   [8]  00 00 00 00 00 00 00 00
(000.995168)  vcan0  0000017C   [8]  4B 00 00 00 00 00 00 00
(000.995378)  vcan0  00000309   [8]  07 7E 00 00 00 00 00 00
(001.000745)  vcan0  00000309   [8]  07 80 00 00 00 00 00 00
(001.000955)  vcan0  00000130   [8]  00 00 00 00 00 00 00 00
(001.001167)  vcan0  0000014A   [8]  00 00 00 DC 6D BF 96 0E
(001.001385)  vcan0  0000017C   [8]  4B 00 00 00 00 00 00 00
(001.001591)  vcan0  00000002   [8]  00 00 00 00 00 00 00 00
(001.006772)  vcan0  0000017C   [8]  4B 00 00 00 00 00 00 00
(001.006981)  vcan0  00000130   [8]  00 00 00 00 00 00 00 00
(001.007192)  vcan0  0000014A   [8]  00 00 00 D8 52 EF 22 90
(001.007401)  vcan0  00000309   [8]  07 8A 00 00 00 00 00 00
(001.012687)  vcan0  00000326   [8]  00 00 00 00 00 00 00 00
(001.012910)  vcan0  0000017C   [8]  4B 00 00 00 00 00 00 00
(001.013126)  vcan0  0000037B   [8]  00 00 00 00 00 00 00 00
(001.013333)  vcan0  0000018F   [8]  00 00 00 00 00 00 00 00
(001.013538)  vcan0  00000130   [8]  00 00 00 00 00 00 00 00
(001.013748)  vcan0  00000309   [8]  07 83 00 00 00 00 00 00
(001.013956)  vcan0  0000014A   [8]  00 00 00 D5 8F 0B 7A 62
(001.014170)  vcan0  00000374   [8]  00 00 00 00 00 00 00 00
(001.014379)  vcan0  000001A3   [8]  00 00 00 00 00 00 00 00
(001.014592)  vcan0  000001A4   [8]  00 67 00 00 00 00 00 00
(001.018697)  vcan0  0000014A   [8]  00 00 00 D2 8C 3F 81 F0
(001.018910)  vcan0  00000309   [8]  07 8D 00 00 00 00 00 00
(001.019130)  vcan0  0000017C   [8]  4B 00 00 00 00 00 00 00
(001.019336)  vcan0  00000130   [8]  00 00 00 00 00 00 00 00
(001.024666)  vcan0  00000130   [8]  00 00 00 00 00 00 00 00
(001.024885)  vcan0  00000309   [8]  07 8E 00 00 00 00 00 00
(001.025104)  vcan0  0000017C   [8]  4B 00 00 00 00 00 00 00
(001.025314)  vcan0  0000014A   [8]  00 00 00 CF DA 0F 51 28
(001.030708)  vcan0  00000130   [8]  00 00 00 00 00 00 00 00
(001.030941)  vcan0  0000017C   [8]  4B 00 00 00 00 00 00 00
(001.031153)  vcan0  00000309   [8]  07 98 00 00 00 00 00 00
(001.031363)  vcan0  0000014A   [8]  00 00 00 CC 65 27 D4 F6
(001.036734)  vcan0  0000017C   [8]  4B 00 00 00 00 00 00 00
(001.036950)  vcan0  00000309   [8]  07 98 00 00 00 00 00 00
(001.037157)  vcan0  00000130   [8]  00 00 00 00 00 00 00 00
(001.037367)  vcan0  0000014A   [8]  00 00 00 C9 D3 B4 F6 62
(001.042727)  vcan0  0000017C   [8]  4B 00 00 00 00 00 00 00
(001.042951)  vcan0  00000309   [8]  07 A4 00 00 00 00 00 00
(001.043158)  vcan0  00000130   [8]  00 00 00 00 00 00 00 00
(001.043369)  vcan0  0000014A   [8]  00 00 00 C6 FE E7 3C D2
(001.048671)  vcan0  00000130   [8]  00 00 00 00 00 00 00 00
(001.048890)  vcan0  00000309   [8]  07 A4 00 00 00 00 00 00
(001.049101)  vcan0  0000014A   [8]  00 00 00 C4 92 A8 4E 3C
(001.049320)  vcan0  0000017C   [8]  4B 00 00 00 00 00 00 00
(001.054730)  vcan0  00000130   [8]  00 00 00 00 00 00 00 00
(001.054957)  vcan0  0000017C   [8]  4B 00 00 00 00 00 00 00
(001.055169)  vcan0  0000014A   [8]  00 00 00 C1 8C 03 C0 A6
(001.055378)  vcan0  00000309   [8]  07 B1 00 00 00 00 00 00
(001.060880)  vcan0  0000014A   [8]  00 00 00 BF 42 54 F7 92
(001.061125)  vcan0  0000017C   [8]  4B 00 00 00 00 00 00 00
(001.061340)  vcan0  00000130   [8]  00 00 00 00 00 00 00 00
(001.061563)  vcan0  00000309   [8]  07 B2 00 00 00 00 00 00
(001.067016)  vcan0  00000130   [8]  00 00 00 00 00 00 00 00
(001.067249)  vcan0  0000014A   [8]  00 00 00 BC A6 0F 69 B8
(001.067470)  vcan0  00000309   [8]  07 BF 00 00 00 00 00 00
(001.067712)  vcan0  0000017C   [8]  4B 00 00 00 00 00 00 00
(001.073031)  vcan0  00000309   [8]  07 C2 00 00 00 00 00 00
(001.073242)  vcan0  00000130   [8]  00 00 00 00 00 00 00 00
(001.073455)  vcan0  0000014A   [8]  00 00 00 BA 82 39 95 6E
(001.073676)  vcan0  0000017C   [8]  4B 00 00 00 00 00 00 00
(001.079292)  vcan0  0000014A   [8]  00 00 00 B7 DA 87 AD 3E
(001.079506)  vcan0  00000130   [8]  00 00 00 00 00 00 00 00
(001.079718)  vcan0  00000309   [8]  07 CF 00 00 00 00 00 00
(001.079937)  vcan0  0000017C   [8]  4B 00 00 00 00 00 00 00
(001.085139)  vcan0  00000130   [8]  00 00 00 00 00 00 00 00
(001.085364)  vcan0  00000309   [8]  07 D2 00 00 00 00 00 00
(001.085585)  vcan0  0000017C   [8]  4B 00 00 00 00 00 00 00
(001.085795)  vcan0  0000014A   [8]  00 00 00 B5 C6 F8 EF 16
(001.091137)  vcan0  0000014A   [8]  00 00 00 B3 7D 50 8D 24
(001.091364)  vcan0  0000017C   [8]  4B 00 00 00 00 00 00 00
(001.091570)  vcan0  00000130   [8]  00 00 00 00 00 00 00 00
(001.091780)  vcan0  00000309   [8]  07 E1 00 00 00 00 00 00
(001.098177)  vcan0  00000309   [8]  07 E4 00 00 00 00 00 00
(001.098428)  vcan0  0000017C   [8]  4B 00 00 00 00 00 00 00
(001.098637)  vcan0  00000130   [8]  00 00 00 00 00 00 00 00
(001.098850)  vcan0  0000014A   [8]  00 00 00 B1 8B 09 5F 72
(001.103032)  vcan0  0000014A   [8]  00 00 00 AF 35 F1 6F 98
(001.103247)  vcan0  00000130   [8]  00 00 00 00 00 00 00 00
(001.103463)  vcan0  00000309   [8]  07 F3 00 00 00 00 00 00
(001.103683)  vcan0  0000017C   [8]  4B 00 00 00 00 00 00 00
(001.108776)  vcan0  00000130   [8]  00 00 00 00 00 00 00 00
(001.108999)  vcan0  0000014A   [8]  00 00 00 AD 5B 64 3A 12
(001.109222)  vcan0  0000017C   [8]  4B 00 00 00 00 00 00 00
(001.109433)  vcan0  00000309   [8]  07 F6 00 00 00 00 00 00
(001.115000)  vcan0  00000130   [8]  00 00 00 00 00 00 00 00
(001.115229)  vcan0  0000014A   [8]  00 00 00 AB 59 15 B3 02
(001.115442)  vcan0  00000309   [8]  08 06 00 00 00 00 00 00
(001.115664)  vcan0  0000017C   [8]  4B 00 00 00 00 00 00 00
(001.121158)  vcan0  00000309   [8]  08 0A 00 00 00 00 00 00
(001.121379)  vcan0  0000014A   [8]  00 00 00 A9 9A DC DF AA
(001.121587)  vcan0  00000130   [8]  00 00 00 00 00 00 00 00
(001.121808)  vcan0  0000017C   [8]  4B 00 00 00 00 00 00 00
(001.127043)  vcan0  00000130   [8]  00 00 00 00 00 00 00 00
(001.127268)  vcan0  0000014A   [8]  00 00 00 A7 8D 34 09 A0
(001.127492)  vcan0  0000017C   [8]  4B 00 00 00 00 00 00 00
(001.127703)  vcan0  00000309   [8]  08 1A 00 00 00 00 00 00
(001.133057)  vcan0  00000130   [8]  00 00 00 00 00 00 00 00
(001.133281)  vcan0  0000014A   [8]  00 00 00 A5 ED 84 80 3A
(001.133497)  vcan0  00000309   [8]  08 1E 00 00 00 00 00 00
(001.133717)  vcan0  0000017C   [8]  4B 00 00 00 00 00 00 00
(001.138815)  vcan0  00000130   [8]  00 00 00 00 00 00 00 00
(001.139037)  vcan0  0000014A   [8]  00 00 00 A4 25 1A CE D6
(001.139248)  vcan0  00000309   [8]  08 2F 00 00 00 00 00 00
(001.139467)  vcan0  0000017C   [8]  4B 00 00 00 00 00 00 00
(001.145363)  vcan0  0000014A   [8]  00 00 00 A2 9D 95 4A 56
(001.145595)  vcan0  00000309   [8]  08 34 00 00 00 00 00 00
(001.145810)  vcan0  00000130   [8]  00 00 00 00 00 00 00 00
(001.146051)  vcan0  0000017C   [8]  4B 00 00 00 00 00 00 00
(001.151142)  vcan0  0000014A   [8]  00 00 00 A0 C6 26 1B BA
(001.151374)  vcan0  00000309   [8]  08 44 00 00 00 00 00 00
(001.151612)  vcan0  0000017C   [8]  4B 00 00 00 00 00 00 00
(001.151826)  vcan0  00000130   [8]  00 00 00 00 00 00 00 00
(001.157184)  vcan0  0000014A   [8]  00 00 00 9F 59 AF 97 EC
(001.157395)  vcan0  00000130   [8]  00 00 00 00 00 00 00 00
(001.157608)  vcan0  00000309   [8]  08 49 00 00 00 00 00 00
(001.157829)  vcan0  0000017C   [8]  4B 00 00 00 00 00 00 00
(001.162889)  vcan0  0000014A   [8]  00 00 00 9D C9 A7 A7 78
(001.163099)  vcan0  00000130   [8]  00 00 00 00 00 00 00 00
(001.163312)  vcan0  00000309   [8]  08 5A 00 00 00 00 00 00
(001.163534)  vcan0  0000017C   [8]  4B 00 00 00 00 00 00 00
(001.168758)  vcan0  00000130   [8]  00 00 00 00 00 00 00 00
(001.168993)  vcan0  0000017C   [8]  4B 00 00 00 00 00 00 00
(001.169205)  vcan0  0000014A   [8]  00 00 00 9C 6A 9B 89 6E
(001.169416)  vcan0  00000309   [8]  08 60 00 00 00 00 00 00
(001.174794)  vcan0  0000014A   [8]  00 00 00 9A D4 B2 58 F2
(001.175010)  vcan0  00000309   [8]  08 71 00 00 00 00 00 00
(001.175230)  vcan0  0000017C   [8]  4B 00 00 00 00 00 00 00
(001.175437)  vcan0  00000130   [8]  00 00 00 00 00 00 00 00
(001.180723)  vcan0  0000014A   [8]  00 00 00 99 8B D9 0B 46
(001.180939)  vcan0  00000309   [8]  08 76 00 00 00 00 00 00
(001.181147)  vcan0  00000130   [8]  00 00 00 00 00 00 00 00
(001.181368)  vcan0  0000017C   [8]  4B 00 00 00 00 00 00 00
(001.187036)  vcan0  0000017C   [8]  4B 00 00 00 00 00 00 00
(001.187251)  vcan0  0000014A   [8]  00 00 00 98 39 53 96 32
(001.187459)  vcan0  00000130   [8]  00 00 00 00 00 00 00 00
(001.187670)  vcan0  00000309   [8]  08 88 00 00 00 00 00 00
(001.193124)  vcan0  0000014A   [8]  00 00 00 96 FA 59 F3 72
(001.193341)  vcan0  00000309   [8]  08 8E 00 00 00 00 00 00
(001.193549)  vcan0  00000130   [8]  00 00 00 00 00 00 00 00
(001.193769)  vcan0  0000017C   [8]  4B 00 00 00 00 00 00 00
(001.198825)  vcan0  00000130   [8]  00 00 00 00 00 00 00 00
(001.199045)  vcan0  0000014A   [8]  00 00 00 95 99 A9 93 06
(001.199265)  vcan0  0000017C   [8]  4B 00 00 00 00 00 00 00
(001.199475)  vcan0  00000309   [8]  08 9F 00 00 00 00 00 00
(001.204833)  vcan0  0000017C   [8]  4B 00 00 00 00 00 00 00
(001.205048)  vcan0  0000014A   [8]  00 00 00 94 7C 18 D3 A4
(001.205255)  vcan0  00000130   [8]  00 00 00 00 00 00 00 00
(001.205466)  vcan0  00000309   [8]  08 A5 00 00 00 00 00 00
(001.210978)  vcan0  00000309   [8]  08 B6 00 00 00 00 00 00
(001.211186)  vcan0  00000130   [8]  00 00 00 00 00 00 00 00
(001.211398)  vcan0  0000014A   [8]  00 00 00 93 4A 5F 88 90
(001.211618)  vcan0  0000017C   [8]  4B 00 00 00 00 00 00 00
(001.216722)  vcan0  0000017C   [8]  4B 00 00 00 00 00 00 00
(001.216937)  vcan0  00000309   [8]  08 BD 00 00 00 00 00 00
(001.217144)  vcan0  00000130   [8]  00 00 00 00 00 00 00 00
(001.217355)  vcan0  0000014A   [8]  00 00 00 92 3D 46 9F 0A
(001.222643)  vcan0  00000309   [8]  08 CE 00 00 00 00 00 00
(001.222865)  vcan0  0000017C   [8]  4B 00 00 00 00 00 00 00
(001.223076)  vcan0  0000014A   [8]  00 00 00 91 00 DB AD 1A
(001.223282)  vcan0  00000130   [8]  00 00 00 00 00 00 00 00
(001.228704)  vcan0  00000309   [8]  08 D5 00 00 00 00 00 00
(001.228918)  vcan0  0000014A   [8]  00 00 00 90 0A C6 B0 5C
(001.229124)  vcan0  00000130   [8]  00 00 00 00 00 00 00 00
(001.229342)  vcan0  0000017C   [8]  4B 00 00 00 00 00 00 00
(001.234879)  vcan0  00000130   [8]  00 00 00 00 00 00 00 00
(001.235098)  vcan0  0000014A   [8]  00 00 00 8F 03 3F 23 06
(001.235319)  vcan0  0000017C   [8]  4B 00 00 00 00 00 00 00
(001.235529)  vcan0  00000309   [8]  08 E7 00 00 00 00 00 00
(001.241003)  vcan0  00000130   [8]  00 00 00 00 00 00 00 00
(001.241227)  vcan0  0000014A   [8]  00 00 00 8E 13 EF 23 1C
(001.241438)  vcan0  00000309   [8]  08 ED 00 00 00 00 00 00
(001.241659)  vcan0  0000017C   [8]  4B 00 00 00 00 00 00 00
(001.247221)  vcan0  00000002   [8]  00 00 00 00 00 00 00 00
(001.247462)  vcan0  00000309   [8]  08 FF 00 00 00 00 00 00
(001.247688)  vcan0  0000014A   [8]  00 00 00 8D 0C 06 16 52
(001.247901)  vcan0  00000130   [8]  00 00 00 00 00 00 00 00
(001.248138)  vcan0  0000017C   [8]  4B 00 00 00 00 00 00 00
(001.253452)  vcan0  00000309   [8]  09 06 00 00 00 00 00 00
(001.253698)  vcan0  0000017C   [8]  4B 00 00 00 00 00 00 00
(001.253922)  vcan0  0000014A   [8]  00 00 00 8C 31 E1 38 82
(001.254135)  vcan0  00000130   [8]  00 00 00 00 00 00 00 00
(001.259134)  vcan0  00000130   [8]  00 00 00 00 00 00 00 00
(001.259360)  vcan0  0000014A   [8]  00 00 00 8B 48 F5 BA BE
(001.259572)  vcan0  00000309   [8]  09 17 00 00 00 00 00 00
(001.259791)  vcan0  0000017C   [8]  4B 00 00 00 00 00 00 00
(001.265141)  vcan0  0000017C   [8]  4B 00 00 00 00 00 00 00
(001.265358)  vcan0  00000309   [8]  09 1E 00 00 00 00 00 00
(001.265565)  vcan0  00000130   [8]  00 00 00 00 00 00 00 00
(001.265776)  vcan0  0000014A   [8]  00 00 00 8A 7C A7 3C 5A
(001.270951)  vcan0  00000309   [8]  09 30 00 00 00 00 00 00
(001.271161)  vcan0  00000130   [8]  00 00 00 00 00 00 00 00
(001.271374)  vcan0  0000014A   [8]  00 00 00 89 96 9A 8B 1E
(001.271595)  vcan0  0000017C   [8]  4B 00 00 00 00 00 00 00
(001.277006)  vcan0  0000014A   [8]  00 00 00 88 DA 48 EB E0
(001.277233)  vcan0  0000017C   [8]  4B 00 00 00 00 00 00 00
(001.277440)  vcan0  00000130   [8]  00 00 00 00 00 00 00 00
(001.277650)  vcan0  00000309   [8]  09 37 00 00 00 00 00 00
(001.282917)  vcan0  00000309   [8]  09 49 00 00 00 00 00 00
(001.283141)  vcan0  0000017C   [8]  4B 00 00 00 00 00 00 00
(001.283348)  vcan0  00000130   [8]  00 00 00 00 00 00 00 00
(001.283559)  vcan0  0000014A   [8]  00 00 00 88 12 EC 01 FC
(001.288810)  vcan0  00000130   [8]  00 00 00 00 00 00 00 00
(001.289032)  vcan0  00000309   [8]  09 50 00 00 00 00 00 00
(001.289252)  vcan0  0000017C   [8]  4B 00 00 00 00 00 00 00
(001.289463)  vcan0  0000014A   [8]  00 00 00 87 5F 74 A0 D4
(001.294703)  vcan0  00000309   [8]  09 62 00 00 00 00 00 00
(001.294919)  vcan0  0000014A   [8]  00 00 00 86 9B AE F5 86
(001.295138)  vcan0  0000017C   [8]  4B 00 00 00 00 00 00 00
(001.295345)  vcan0  00000130   [8]  00 00 00 00 00 00 00 00
(001.300848)  vcan0  00000309   [8]  09 69 00 00 00 00 00 00
(001.301057)  vcan0  00000130   [8]  00 00 00 00 00 00 00 00
(001.301268)  vcan0  0000014A   [8]  00 00 00 85 F6 CC BA 56
(001.301486)  vcan0  0000017C   [8]  4B 00 00 00 00 00 00 00
(001.307042)  vcan0  0000017C   [8]  4B 00 00 00 00 00 00 00
(001.307258)  vcan0  00000309   [8]  09 7B 00 00 00 00 00 00
(001.307466)  vcan0  00000130   [8]  00 00 00 00 00 00 00 00
(001.307676)  vcan0  0000014A   [8]  00 00 00 85 4E 57 09 24
(001.312849)  vcan0  0000017C   [8]  4B 00 00 00 00 00 00 00
(001.313064)  vcan0  00000130   [8]  00 00 00 00 00 00 00 00
(001.313277)  vcan0  00000309   [8]  09 82 00 00 00 00 00 00
(001.313488)  vcan0  0000014A   [8]  00 00 00 84 B1 8D 11 EC
(001.319038)  vcan0  00000130   [8]  00 00 00 00 00 00 00 00
(001.319278)  vcan0  00000309   [8]  09 94 00 00 00 00 00 00
(001.319503)  vcan0  0000014A   [8]  00 00 00 0D 7B F9 19 60
(001.319741)  vcan0  0000017C   [8]  4B 00 00 00 00 00 00 00
(001.324881)  vcan0  00000309   [8]  09 9B 00 00 00 00 00 00
(001.325098)  vcan0  0000014A   [8]  01 FF FF D4 E4 E5 E1 1A
(001.325319)  vcan0  0000017C   [8]  4B 00 00 00 00 00 00 00
(001.325526)  vcan0  00000130   [8]  00 00 00 00 00 00 00 00
(001.330835)  vcan0  0000017C   [8]  4B 00 00 00 00 00 00 00
(001.331052)  vcan0  0000014A   [8]  01 FF FF D4 9B 2C A0 9A
(001.331263)  vcan0  00000309   [8]  09 AC 00 00 00 00 00 00
(001.331470)  vcan0  00000130   [8]  00 00 00 00 00 00 00 00
(001.336912)  vcan0  0000014A   [8]  01 FF FF D4 EF 4D 76 3E
(001.337128)  vcan0  00000309   [8]  09 B4 00 00 00 00 00 00
(001.337335)  vcan0  00000130   [8]  00 00 00 00 00 00 00 00
(001.337555)  vcan0  0000017C   [8]  4B 00 00 00 00 00 00 00
(001.343147)  vcan0  0000017C   [8]  4B 00 00 00 00 00 00 00
(001.343359)  vcan0  00000130   [8]  00 00 00 00 00 00 00 00
(001.343571)  vcan0  00000309   [8]  09 C4 00 00 00 00 00 00
(001.343781)  vcan0  0000014A   [8]  01 FF FF D6 2D 51 06 56
(001.348749)  vcan0  0000014A   [8]  01 FF FF D8 05 AD 1C AA
(001.348960)  vcan0  00000130   [8]  00 00 00 00 00 00 00 00
(001.349173)  vcan0  00000309   [8]  09 CC 00 00 00 00 00 00
(001.349397)  vcan0  0000017C   [8]  4B 00 00 00 00 00 00 00
(001.355118)  vcan0  0000017C   [8]  4B 00 00 00 00 00 00 00
(001.355349)  vcan0  00000309   [8]  09 DB 00 00 00 00 00 00
(001.355577)  vcan0  00000130   [8]  00 00 00 00 00 00 00 00
(001.355802)  vcan0  0000014A   [8]  01 FF FF DA FB 0A 2C 82
(001.360941)  vcan0  00000130   [8]  00 00 00 00 00 00 00 00
(001.361169)  vcan0  00000309   [8]  09 E3 00 00 00 00 00 00
(001.361382)  vcan0  0000014A   [8]  01 FF FF DE 0F C2 12 7C
(001.361604)  vcan0  0000017C   [8]  4B 00 00 00 00 00 00 00
(001.366944)  vcan0  0000017C   [8]  4B 00 00 00 00 00 00 00
(001.367159)  vcan0  00000309   [8]  09 F3 00 00 00 00 00 00
(001.367448)  vcan0  00000130   [8]  00 00 00 00 00 00 00 00
(001.367660)  vcan0  0000014A   [8]  01 FF FF E1 DB 2E 27 86
(001.372819)  vcan0  00000130   [8]  00 00 00 00 00 00 00 00
(001.373058)  vcan0  0000017C   [8]  4B 00 00 00 00 00 00 00
(001.373271)  vcan0  0000014A   [8]  01 FF FF E5 8B 84 8A 3C
(001.373482)  vcan0  00000309   [8]  09 FA 00 00 00 00 00 00
(001.378795)  vcan0  00000130   [8]  00 00 00 00 00 00 00 00
(001.379027)  vcan0  0000017C   [8]  4B 00 00 00 00 00 00 00
(001.379268)  vcan0  00000309   [8]  0A 0B 00 00 00 00 00 00
(001.379480)  vcan0  0000014A   [8]  01 FF FF EA 07 41 2B B6
(001.384895)  vcan0  0000017C   [8]  4B 00 00 00 00 00 00 00
(001.385112)  vcan0  00000309   [8]  0A 12 00 00 00 00 00 00
(001.385323)  vcan0  0000014A   [8]  01 FF FF EE 34 7B DC 40
(001.385530)  vcan0  00000130   [8]  00 00 00 00 00 00 00 00
(001.390829)  vcan0  0000014A   [8]  01 FF FF F2 EF D0 02 7C
(001.391038)  vcan0  00000130   [8]  00 00 00 00 00 00 00 00
(001.391260)  vcan0  0000017C   [8]  4B 00 00 00 00 00 00 00
(001.391471)  vcan0  00000309   [8]  0A 23 00 00 00 00 00 00
(001.396797)  vcan0  0000014A   [8]  01 FF FF F7 43 56 08 98
(001.397006)  vcan0  00000130   [8]  00 00 00 00 00 00 00 00
(001.397227)  vcan0  0000017C   [8]  4B 00 00 00 00 00 00 00
(001.397437)  vcan0  00000309   [8]  0A 2A 00 00 00 00 00 00
(001.402902)  vcan0  00000309   [8]  0A 3B 00 00 00 00 00 00
(001.403116)  vcan0  0000014A   [8]  01 FF FF FC 0F 83 5E E0
(001.403335)  vcan0  0000017C   [8]  4B 00 00 00 00 00 00 00
(001.403540)  vcan0  00000130   [8]  00 00 00 00 00 00 00 00
(001.409254)  vcan0  0000014A   [8]  00 00 00 00 70 AC 1B 9E
(001.409501)  vcan0  0000017C   [8]  4B 00 00 00 00 00 00 00
(001.409738)  vcan0  00000309   [8]  0A 43 00 00 00 00 00 00
(001.409948)  vcan0  00000130   [8]  00 00 00 00 00 00 00 00
(001.415128)  vcan0  0000017C   [8]  3A 97 00 00 00 00 00 00
(001.415358)  vcan0  0000014A   [8]  00 00 00 05 2F 99 1A 3A
(001.415591)  vcan0  00000309   [8]  0A 54 00 00 00 00 00 00
(001.415801)  vcan0  00000130   [8]  00 00 00 00 00 00 00 00
(001.420888)  vcan0  00000130   [8]  00 00 00 00 00 00 00 00
(001.421115)  vcan0  0000014A   [8]  00 00 00 09 7D 41 F3 62
(001.421328)  vcan0  00000309   [8]  0A 5C 00 00 00 00 00 00
(001.421549)  vcan0  0000017C   [8]  32 84 00 00 00 00 00 00
(001.427101)  vcan0  0000014A   [8]  00 00 00 0E 1E 1F E4 7A
(001.427320)  vcan0  00000130   [8]  00 00 00 00 00 00 00 00
(001.427553)  vcan0  00000309   [8]  0A 6D 00 00 00 00 00 00
(001.427777)  vcan0  0000017C   [8]  21 35 00 00 00 00 00 00
(001.433095)  vcan0  00000309   [8]  0A 74 00 00 00 00 00 00
(001.433343)  vcan0  00000130   [8]  00 00 00 00 00 00 00 00
(001.433564)  vcan0  0000017C   [8]  19 8C 00 00 00 00 00 00
(001.433775)  vcan0  0000014A   [8]  00 00 00 12 4B 2C 99 1A
(001.439118)  vcan0  00000309   [8]  0A 84 00 00 00 00 00 00
(001.439416)  vcan0  0000014A   [8]  00 00 00 16 BF 72 DA 76
(001.439623)  vcan0  00000130   [8]  00 00 00 00 00 00 00 00
(001.439844)  vcan0  0000017C   [8]  09 3B 00 00 00 00 00 00
(001.444900)  vcan0  00000130   [8]  00 00 00 00 00 00 00 00
(001.445125)  vcan0  00000309   [8]  0A 8B 00 00 00 00 00 00
(001.445347)  vcan0  0000017C   [8]  02 A7 00 00 00 00 00 00
(001.445560)  vcan0  0000014A   [8]  00 00 00 1A BA 48 FA A4
(001.450876)  vcan0  00000309   [8]  0A 99 00 00 00 00 00 00
(001.451104)  vcan0  0000014A   [8]  00 00 00 1E F6 9B 7E 42
(001.451359)  vcan0  0000017C   [8]  00 00 00 00 00 00 07 B0
(001.451571)  vcan0  00000130   [8]  00 00 00 00 00 00 00 00
(001.456867)  vcan0  0000017C   [8]  00 00 00 00 00 00 0A E0
(001.457084)  vcan0  00000309   [8]  0A 9E 00 00 00 00 00 00
(001.457303)  vcan0  0000014A   [8]  00 00 00 22 BE 83 AF 58
(001.457510)  vcan0  00000130   [8]  00 00 00 00 00 00 00 00
(001.462931)  vcan0  0000014A   [8]  00 00 00 26 B9 9F A8 EC
(001.463157)  vcan0  0000017C   [8]  00 00 00 00 00 00 12 A8
(001.463369)  vcan0  00000309   [8]  0A AA 00 00 00 00 00 00
(001.463576)  vcan0  00000130   [8]  00 00 00 00 00 00 00 00
(001.468732)  vcan0  0000017C   [8]  00 00 00 00 00 00 13 30
(001.468943)  vcan0  00000130   [8]  00 00 00 00 00 00 00 00
(001.469156)  vcan0  0000014A   [8]  00 00 00 2A 49 4A C4 CC
(001.469366)  vcan0  00000309   [8]  0A AB 00 00 00 00 00 00
(001.474969)  vcan0  0000014A   [8]  01 FF FF B3 13 B6 A7 00
(001.475184)  vcan0  00000309   [8]  0A B4 00 00 00 00 00 00
(001.475405)  vcan0  0000017C   [8]  00 00 00 00 00 00 13 30
(001.475611)  vcan0  00000130   [8]  00 00 00 00 00 00 00 00
(001.481006)  vcan0  00000309   [8]  0A B3 00 00 00 00 00 00
(001.481237)  vcan0  0000017C   [8]  00 00 00 00 00 00 13 30
(001.481444)  vcan0  00000130   [8]  00 00 00 00 00 00 00 00
(001.481727)  vcan0  0000014A   [8]  01 FF FF B5 50 3C 60 DC
(001.487013)  vcan0  0000017C   [8]  00 00 00 00 00 00 13 30
(001.487228)  vcan0  00000309   [8]  0A B8 00 00 00 00 00 00
(001.487441)  vcan0  0000014A   [8]  01 FF FF B9 1E 51 7D 7C
(001.487648)  vcan0  00000130   [8]  00 00 00 00 00 00 00 00
(001.493006)  vcan0  0000014A   [8]  01 FF FF BC DB 17 D5 B8
(001.493216)  vcan0  00000130   [8]  00 00 00 00 00 00 00 00
(001.493513)  vcan0  0000017C   [8]  00 00 00 00 00 00 13 30
(001.493719)  vcan0  00000002   [8]  00 00 00 00 00 00 00 00
(001.493930)  vcan0  00000309   [8]  0A B4 00 00 00 00 00 00
(001.499192)  vcan0  00000130   [8]  00 00 00 00 00 00 00 00
(001.499422)  vcan0  0000017C   [8]  00 00 00 00 00 00 13 30
(001.499635)  vcan0  00000309   [8]  0A B6 00 00 00 00 00 00
(001.499845)  vcan0  0000014A   [8]  01 FF FF C2 02 35 E8 6E
(001.505068)  vcan0  00000130   [8]  00 00 00 00 00 00 00 00
(001.505286)  vcan0  00000309   [8]  0A B1 00 00 00 00 00 00
(001.505498)  vcan0  0000014A   [8]  01 FF FF C6 B6 F7 DB 1C
(001.505720)  vcan0  0000017C   [8]  00 00 00 00 00 00 13 30
(001.511361)  vcan0  0000014A   [8]  01 FF FF CC 7A 58 8F D8
(001.511577)  vcan0  00000309   [8]  0A B2 00 00 00 00 00 00
(001.511792)  vcan0  000001A3   [8]  00 00 00 00 00 00 00 00
(001.512010)  vcan0  0000017C   [8]  00 00 00 00 00 00 13 30
(001.512216)  vcan0  0000018F   [8]  00 00 00 00 00 00 00 00
(001.512424)  vcan0  00000130   [8]  00 00 00 00 00 00 00 00
(001.517214)  vcan0  00000130   [8]  00 00 00 00 00 00 00 00
(001.517441)  vcan0  0000014A   [8]  01 FF FF D1 79 0B A4 24
(001.517663)  vcan0  0000017C   [8]  00 00 00 00 00 00 13 30
(001.517875)  vcan0  00000309   [8]  0A AB 00 00 00 00 00 00
(001.522965)  vcan0  00000130   [8]  00 00 00 00 00 00 00 00
(001.523197)  vcan0  0000017C   [8]  00 00 00 00 00 00 13 30
(001.523414)  vcan0  00000309   [8]  0A AB 00 00 00 00 00 00
(001.523624)  vcan0  0000014A   [8]  01 FF FF D7 6A 0C 4B E0
(001.529080)  vcan0  0000017C   [8]  00 00 00 00 00 00 0F A0
(001.529298)  vcan0  00000309   [8]  0A A4 00 00 00 00 00 00
(001.529509)  vcan0  0000014A   [8]  01 FF FF DC 81 02 22 12
(001.529715)  vcan0  00000130   [8]  00 00 00 00 00 00 00 00
(001.534879)  vcan0  0000014A   [8]  01 FF FF E2 98 23 0C 84
(001.535089)  vcan0  00000130   [8]  00 00 00 00 00 00 00 00
(001.535314)  vcan0  0000017C   [8]  00 00 00 00 00 00 0F 78
(001.535524)  vcan0  00000309   [8]  0A A3 00 00 00 00 00 00
(001.540983)  vcan0  00000130   [8]  00 00 00 00 00 00 00 00
(001.541215)  vcan0  0000017C   [8]  00 00 00 00 00 00 0A 10
(001.541426)  vcan0  0000014A   [8]  01 FF FF E7 D2 22 1A A6
(001.541636)  vcan0  00000309   [8]  0A 9B 00 00 00 00 00 00
(001.547192)  vcan0  00000130   [8]  00 00 00 00 00 00 00 00
(001.547414)  vcan0  00000309   [8]  0A 9B 00 00 00 00 00 00
(001.547626)  vcan0  0000014A   [8]  01 FF FF ED C3 76 94 0E
(001.547845)  vcan0  0000017C   [8]  00 00 00 00 00 00 09 C8
(001.552854)  vcan0  00000130   [8]  00 00 00 00 00 00 00 00
(001.553075)  vcan0  00000309   [8]  0A 92 00 00 00 00 00 00
(001.553287)  vcan0  0000014A   [8]  01 FF FF F2 E0 1D EF 54
(001.553506)  vcan0  0000017C   [8]  00 00 00 00 00 00 04 40
(001.558917)  vcan0  0000017C   [8]  00 00 00 00 00 00 03 F0
(001.559128)  vcan0  00000130   [8]  00 00 00 00 00 00 00 00
(001.559341)  vcan0  0000014A   [8]  01 FF FF F8 A2 04 4A 84
(001.559550)  vcan0  00000309   [8]  0A 92 00 00 00 00 00 00
(001.564874)  vcan0  00000130   [8]  00 00 00 00 00 00 00 00
(001.565097)  vcan0  00000309   [8]  0A 89 00 00 00 00 00 00
(001.565318)  vcan0  0000017C   [8]  02 98 00 00 00 00 00 00
(001.565528)  vcan0  0000014A   [8]  01 FF FF FD 8C 3C 9B 3A
(001.570917)  vcan0  0000017C   [8]  03 03 00 00 00 00 00 00
(001.571131)  vcan0  0000014A   [8]  00 00 00 03 01 D7 F6 C8
(001.571337)  vcan0  00000130   [8]  00 00 00 00 00 00 00 00
(001.571546)  vcan0  00000309   [8]  0A 89 00 00 00 00 00 00
(001.576735)  vcan0  0000017C   [8]  0B D7 00 00 00 00 00 00
(001.576945)  vcan0  00000130   [8]  00 00 00 00 00 00 00 00
(001.577157)  vcan0  00000309   [8]  0A 80 00 00 00 00 00 00
(001.577367)  vcan0  0000014A   [8]  00 00 00 07 B2 3A 94 20
(001.583097)  vcan0  0000014A   [8]  00 00 00 0C D6 5E 21 A2
(001.583311)  vcan0  00000309   [8]  0A 80 00 00 00 00 00 00
(001.583529)  vcan0  0000017C   [8]  0C 4A 00 00 00 00 00 00
(001.583734)  vcan0  00000130   [8]  00 00 00 00 00 00 00 00
(001.589436)  vcan0  0000017C   [8]  15 9A 00 00 00 00 00 00
(001.589652)  vcan0  00000309   [8]  0A 76 00 00 00 00 00 00
(001.589863)  vcan0  0000014A   [8]  00 00 00 11 3F 2C F9 70
(001.590071)  vcan0  00000130   [8]  00 00 00 00 00 00 00 00
(001.595104)  vcan0  0000017C   [8]  16 29 00 00 00 00 00 00
(001.595316)  vcan0  00000130   [8]  00 00 00 00 00 00 00 00
(001.595529)  vcan0  0000014A   [8]  00 00 00 16 0E 7B D4 B4
(001.595739)  vcan0  00000309   [8]  0A 76 00 00 00 00 00 00
(001.600996)  vcan0  00000130   [8]  00 00 00 00 00 00 00 00
(001.601226)  vcan0  0000017C   [8]  1F 8D 00 00 00 00 00 00
(001.601437)  vcan0  0000014A   [8]  00 00 00 1A 27 4E 62 06
(001.601647)  vcan0  00000309   [8]  0A 6D 00 00 00 00 00 00
(001.606908)  vcan0  0000017C   [8]  1F F5 00 00 00 00 00 00
(001.607122)  vcan0  00000309   [8]  0A 6C 00 00 00 00 00 00
(001.607329)  vcan0  00000130   [8]  00 00 00 00 00 00 00 00
(001.607538)  vcan0  0000014A   [8]  00 00 00 1E A2 B1 5F B6
(001.613225)  vcan0  0000014A   [8]  00 00 00 22 78 D9 70 92
(001.613433)  vcan0  00000130   [8]  00 00 00 00 00 00 00 00
(001.613656)  vcan0  0000017C   [8]  29 1D 00 00 00 00 00 00
(001.613865)  vcan0  00000309   [8]  0A 63 00 00 00 00 00 00
(001.618939)  vcan0  00000309   [8]  0A 63 00 00 00 00 00 00
(001.619166)  vcan0  0000017C   [8]  29 20 00 00 00 00 00 00
(001.619373)  vcan0  00000130   [8]  00 00 00 00 00 00 00 00
(001.619583)  vcan0  0000014A   [8]  00 00 00 26 9B C0 EB 60
(001.625087)  vcan0  00000309   [8]  0A 5B 00 00 00 00 00 00
(001.625306)  vcan0  0000014A   [8]  00 00 00 2A 28 00 95 CA
(001.625527)  vcan0  0000017C   [8]  31 C5 00 00 00 00 00 00
(001.625733)  vcan0  00000130   [8]  00 00 00 00 00 00 00 00
(001.630979)  vcan0  0000017C   [8]  31 2B 00 00 00 00 00 00
(001.631195)  vcan0  00000309   [8]  0A 5C 00 00 00 00 00 00
(001.631402)  vcan0  00000130   [8]  00 00 00 00 00 00 00 00
(001.631612)  vcan0  0000014A   [8]  00 00 00 2D F4 C5 41 B4
(001.636964)  vcan0  00000309   [8]  0A 54 00 00 00 00 00 00
(001.637190)  vcan0  0000017C   [8]  39 0F 00 00 00 00 00 00
(001.637397)  vcan0  00000130   [8]  00 00 00 00 00 00 00 00
(001.637608)  vcan0  0000014A   [8]  00 00 00 31 3D BA 12 F4
(001.643187)  vcan0  0000017C   [8]  37 AB 00 00 00 00 00 00
(001.643397)  vcan0  00000130   [8]  00 00 00 00 00 00 00 00
(001.643609)  vcan0  00000309   [8]  0A 55 00 00 00 00 00 00
(001.643819)  vcan0  0000014A   [8]  00 00 00 34 BB 23 1B 96
(001.648896)  vcan0  00000309   [8]  0A 4E 00 00 00 00 00 00
(001.649145)  vcan0  00000130   [8]  00 00 00 00 00 00 00 00
(001.649359)  vcan0  0000014A   [8]  00 00 00 37 BB 8D EF 62
(001.649579)  vcan0  0000017C   [8]  3E A3 00 00 00 00 00 00
(001.655362)  vcan0  00000130   [8]  00 00 00 00 00 00 00 00
(001.655585)  vcan0  00000309   [8]  0A 51 00 00 00 00 00 00
(001.655797)  vcan0  0000014A   [8]  00 00 00 3A F1 61 73 70
(001.656018)  vcan0  0000017C   [8]  3C 52 00 00 00 00 00 00
(001.660845)  vcan0  0000017C   [8]  42 42 00 00 00 00 00 00
(001.661055)  vcan0  00000130   [8]  00 00 00 00 00 00 00 00
(001.661269)  vcan0  00000309   [8]  0A 4B 00 00 00 00 00 00
(001.661480)  vcan0  0000014A   [8]  00 00 00 3D B3 CB 57 14
(001.667096)  vcan0  00000309   [8]  0A 4E 00 00 00 00 00 00
(001.667313)  vcan0  0000014A   [8]  00 00 00 40 A1 FB 13 C4
(001.667519)  vcan0  00000130   [8]  00 00 00 00 00 00 00 00
(001.667738)  vcan0  0000017C   [8]  3E F1 00 00 00 00 00 00
(001.673583)  vcan0  0000017C   [8]  43 CD 00 00 00 00 00 00
(001.673797)  vcan0  00000309   [8]  0A 4A 00 00 00 00 00 00
(001.674007)  vcan0  0000014A   [8]  00 00 00 43 2A 2F 39 22
(001.674213)  vcan0  00000130   [8]  00 00 00 00 00 00 00 00
(001.679190)  vcan0  0000017C   [8]  3F 76 00 00 00 00 00 00
(001.679399)  vcan0  00000130   [8]  00 00 00 00 00 00 00 00
(001.679609)  vcan0  00000309   [8]  0A 4E 00 00 00 00 00 00
(001.679818)  vcan0  0000014A   [8]  00 00 00 45 D3 A9 7A 6E
(001.684994)  vcan0  0000014A   [8]  01 FF FF CE 9E 15 A7 22
(001.685219)  vcan0  0000017C   [8]  43 46 00 00 00 00 00 00
(001.685430)  vcan0  00000309   [8]  0A 4A 00 00 00 00 00 00
(001.685636)  vcan0  00000130   [8]  00 00 00 00 00 00 00 00
(001.691099)  vcan0  00000309   [8]  0A 4F 00 00 00 00 00 00
(001.691329)  vcan0  0000017C   [8]  3E 20 00 00 00 00 00 00
(001.691537)  vcan0  00000130   [8]  00 00 00 00 00 00 00 00
(001.691748)  vcan0  0000014A   [8]  01 FF FF EC BB 5F 8B 5A
(001.697034)  vcan0  00000309   [8]  0A 4C 00 00 00 00 00 00
(001.697244)  vcan0  00000130   [8]  00 00 00 00 00 00 00 00
(001.697466)  vcan0  0000017C   [8]  41 20 00 00 00 00 00 00
(001.697677)  vcan0  0000014A   [8]  01 FF FF EF 1A 0A 50 98
(001.702852)  vcan0  00000309   [8]  0A 51 00 00 00 00 00 00
(001.703062)  vcan0  00000130   [8]  00 00 00 00 00 00 00 00
(001.703275)  vcan0  0000014A   [8]  01 FF FF F2 9A C8 17 3C
(001.703495)  vcan0  0000017C   [8]  3C 15 00 00 00 00 00 00
(001.708998)  vcan0  0000017C   [8]  3E 0A 00 00 00 00 00 00
(001.709207)  vcan0  00000130   [8]  00 00 00 00 00 00 00 00
(001.709420)  vcan0  0000014A   [8]  01 FF FF F5 EE B7 77 0E
(001.709629)  vcan0  00000309   [8]  0A 50 00 00 00 00 00 00
(001.715127)  vcan0  0000017C   [8]  38 50 00 00 00 00 00 00
(001.715336)  vcan0  00000130   [8]  00 00 00 00 00 00 00 00
(001.715549)  vcan0  0000014A   [8]  01 FF FF FA 04 2F 74 40
(001.715758)  vcan0  00000309   [8]  0A 55 00 00 00 00 00 00
(001.721575)  vcan0  00000309   [8]  0A 54 00 00 00 00 00 00
(001.721785)  vcan0  00000130   [8]  00 00 00 00 00 00 00 00
(001.721996)  vcan0  0000014A   [8]  01 FF FF FD 98 D9 F7 A6
(001.722214)  vcan0  0000017C   [8]  39 B7 00 00 00 00 00 00
(001.727094)  vcan0  0000017C   [8]  32 FC 00 00 00 00 00 00
(001.727314)  vcan0  0000014A   [8]  00 00 00 01 DC 62 3F 16
(001.727534)  vcan0  00000130   [8]  00 00 00 00 00 00 00 00
(001.727751)  vcan0  00000309   [8]  0A 5B 00 00 00 00 00 00
(001.732853)  vcan0  0000014A   [8]  00 00 00 05 8E 0A D1 8C
(001.733064)  vcan0  00000130   [8]  00 00 00 00 00 00 00 00
(001.733277)  vcan0  00000309   [8]  0A 59 00 00 00 00 00 00
(001.733497)  vcan0  0000017C   [8]  34 04 00 00 00 00 00 00
(001.738832)  vcan0  00000130   [8]  00 00 00 00 00 00 00 00
(001.739064)  vcan0  0000017C   [8]  2C AF 00 00 00 00 00 00
(001.739277)  vcan0  0000014A   [8]  00 00 00 09 D1 75 69 64
(001.739487)  vcan0  00000309   [8]  0A 61 00 00 00 00 00 00
(001.739693)  vcan0  00000002   [8]  00 00 00 00 00 00 00 00
(001.744818)  vcan0  00000309   [8]  0A 60 00 00 00 00 00 00
(001.745034)  vcan0  0000014A   [8]  00 00 00 0D AC 1B 14 30
(001.745254)  vcan0  0000017C   [8]  2D 83 00 00 00 00 00 00
(001.745460)  vcan0  00000130   [8]  00 00 00 00 00 00 00 00
(001.751149)  vcan0  00000309   [8]  0A 67 00 00 00 00 00 00
(001.751363)  vcan0  0000014A   [8]  00 00 00 12 00 A8 33 8A
(001.751570)  vcan0  00000130   [8]  00 00 00 00 00 00 00 00
(001.751789)  vcan0  0000017C   [8]  25 F7 00 00 00 00 00 00
(001.757156)  vcan0  00000130   [8]  00 00 00 00 00 00 00 00
(001.757379)  vcan0  0000014A   [8]  00 00 00 15 C4 76 53 AE
(001.757601)  vcan0  0000017C   [8]  26 D2 00 00 00 00 00 00
(001.757811)  vcan0  00000309   [8]  0A 66 00 00 00 00 00 00
(001.762813)  vcan0  0000014A   [8]  00 00 00 19 F4 31 4C FE
(001.763030)  vcan0  00000309   [8]  0A 6E 00 00 00 00 00 00
(001.763250)  vcan0  0000017C   [8]  1F 61 00 00 00 00 00 00
(001.763456)  vcan0  00000130   [8]  00 00 00 00 00 00 00 00
(001.768898)  vcan0  00000130   [8]  00 00 00 00 00 00 00 00
(001.769125)  vcan0  0000017C   [8]  20 7B 00 00 00 00 00 00
(001.769337)  vcan0  00000309   [8]  0A 6D 00 00 00 00 00 00
(001.769547)  vcan0  0000014A   [8]  00 00 00 1D 97 FD 88 AA
(001.775037)  vcan0  0000017C   [8]  19 69 00 00 00 00 00 00
(001.775246)  vcan0  00000130   [8]  00 00 00 00 00 00 00 00
(001.775458)  vcan0  00000309   [8]  0A 74 00 00 00 00 00 00
(001.775668)  vcan0  0000014A   [8]  00 00 00 21 96 9F BA 3E
(001.781310)  vcan0  0000017C   [8]  1A F5 00 00 00 00 00 00
(001.781526)  vcan0  00000309   [8]  0A 72 00 00 00 00 00 00
(001.781732)  vcan0  00000130   [8]  00 00 00 00 00 00 00 00
(001.781942)  vcan0  0000014A   [8]  00 00 00 25 17 19 FB 8A
(001.787057)  vcan0  0000017C   [8]  14 72 00 00 00 00 00 00
(001.787271)  vcan0  0000014A   [8]  00 00 00 28 D9 F2 78 C6
(001.787478)  vcan0  00000130   [8]  00 00 00 00 00 00 00 00
(001.787687)  vcan0  00000309   [8]  0A 78 00 00 00 00 00 00
(001.792957)  vcan0  0000017C   [8]  16 96 00 00 00 00 00 00
(001.793175)  vcan0  0000014A   [8]  00 00 00 2C 27 DF FF EA
(001.793387)  vcan0  00000309   [8]  0A 76 00 00 00 00 00 00
(001.793593)  vcan0  00000130   [8]  00 00 00 00 00 00 00 00
(001.798896)  vcan0  00000130   [8]  00 00 00 00 00 00 00 00
(001.799129)  vcan0  0000014A   [8]  00 00 00 2F BB 91 AC DA
(001.799344)  vcan0  00000309   [8]  0A 7C 00 00 00 00 00 00
(001.799565)  vcan0  0000017C   [8]  10 C1 00 00 00 00 00 00
(001.805238)  vcan0  00000309   [8]  0A 79 00 00 00 00 00 00
(001.805458)  vcan0  00000130   [8]  00 00 00 00 00 00 00 00
(001.805701)  vcan0  0000017C   [8]  13 93 00 00 00 00 00 00
(001.805926)  vcan0  0000014A   [8]  00 00 00 32 C9 F5 5D 00
(001.810961)  vcan0  0000017C   [8]  0E 7A 00 00 00 00 00 00
(001.811221)  vcan0  00000309   [8]  0A 7E 00 00 00 00 00 00
(001.811434)  vcan0  0000014A   [8]  00 00 00 36 20 10 09 E6
(001.811641)  vcan0  00000130   [8]  00 00 00 00 00 00 00 00
(001.817092)  vcan0  0000017C   [8]  12 05 00 00 00 00 00 00
(001.817310)  vcan0  00000309   [8]  0A 7B 00 00 00 00 00 00
(001.817517)  vcan0  00000130   [8]  00 00 00 00 00 00 00 00
(001.817728)  vcan0  0000014A   [8]  00 00 00 38 FF B3 F0 CE
(001.823051)  vcan0  0000014A   [8]  00 00 00 3C 0C A0 C5 7A
(001.823276)  vcan0  00000130   [8]  00 00 00 00 00 00 00 00
(001.823499)  vcan0  00000309   [8]  0A 7F 00 00 00 00 00 00
(001.823719)  vcan0  0000017C   [8]  0D A3 00 00 00 00 00 00
(001.829222)  vcan0  00000309   [8]  0A 7B 00 00 00 00 00 00
(001.829455)  vcan0  0000014A   [8]  00 00 00 3E BC 3C 03 92
(001.829677)  vcan0  0000017C   [8]  11 E2 00 00 00 00 00 00
(001.829884)  vcan0  00000130   [8]  00 00 00 00 00 00 00 00
(001.835136)  vcan0  00000309   [8]  0A 7E 00 00 00 00 00 00
(001.835347)  vcan0  00000130   [8]  00 00 00 00 00 00 00 00
(001.835572)  vcan0  0000017C   [8]  0E 29 00 00 00 00 00 00
(001.835783)  vcan0  0000014A   [8]  00 00 00 41 8E BB 38 DA
(001.841212)  vcan0  00000309   [8]  0A 79 00 00 00 00 00 00
(001.841421)  vcan0  00000130   [8]  00 00 00 00 00 00 00 00
(001.841642)  vcan0  0000017C   [8]  13 0D 00 00 00 00 00 00
(001.841852)  vcan0  0000014A   [8]  00 00 00 44 00 50 49 B0
(001.846918)  vcan0  0000017C   [8]  0F E3 00 00 00 00 00 00
(001.847139)  vcan0  0000014A   [8]  00 00 00 46 A3 9B 00 E4
(001.847347)  vcan0  00000130   [8]  00 00 00 00 00 00 00 00
(001.847557)  vcan0  00000309   [8]  0A 7D 00 00 00 00 00 00
(001.853121)  vcan0  0000017C   [8]  15 52 00 00 00 00 00 00
(001.853336)  vcan0  0000014A   [8]  00 00 00 48 DD 91 4F AE
(001.853547)  vcan0  00000309   [8]  0A 77 00 00 00 00 00 00
(001.853753)  vcan0  00000130   [8]  00 00 00 00 00 00 00 00
(001.858945)  vcan0  00000309   [8]  0A 7A 00 00 00 00 00 00
(001.859169)  vcan0  0000017C   [8]  12 99 00 00 00 00 00 00
(001.859380)  vcan0  0000014A   [8]  00 00 00 4B 48 8C 51 4E
(001.859586)  vcan0  00000130   [8]  00 00 00 00 00 00 00 00
(001.864901)  vcan0  0000017C   [8]  18 75 00 00 00 00 00 00
(001.865111)  vcan0  00000130   [8]  00 00 00 00 00 00 00 00
(001.865327)  vcan0  00000309   [8]  0A 74 00 00 00 00 00 00
(001.865538)  vcan0  0000014A   [8]  00 00 00 4D 4E 69 CB 88
(001.870920)  vcan0  0000017C   [8]  16 0C 00 00 00 00 00 00
(001.871135)  vcan0  0000014A   [8]  00 00 00 4F 81 3A ED 56
(001.871347)  vcan0  00000309   [8]  0A 76 00 00 00 00 00 00
(001.871553)  vcan0  00000130   [8]  00 00 00 00 00 00 00 00
(001.877131)  vcan0  00000130   [8]  00 00 00 00 00 00 00 00
(001.877354)  vcan0  0000014A   [8]  00 00 00 51 61 E9 FF 2E
(001.877565)  vcan0  00000309   [8]  0A 70 00 00 00 00 00 00
(001.877784)  vcan0  0000017C   [8]  1C 33 00 00 00 00 00 00
(001.882944)  vcan0  00000309   [8]  0A 73 00 00 00 00 00 00
(001.883166)  vcan0  0000017C   [8]  19 F5 00 00 00 00 00 00
(001.883373)  vcan0  00000130   [8]  00 00 00 00 00 00 00 00
(001.883584)  vcan0  0000014A   [8]  01 FF FF DA 2C 55 96 DE
(001.889234)  vcan0  00000130   [8]  00 00 00 00 00 00 00 00
(001.889463)  vcan0  0000017C   [8]  20 54 00 00 00 00 00 00
(001.889674)  vcan0  00000309   [8]  0A 6C 00 00 00 00 00 00
(001.889883)  vcan0  0000014A   [8]  00 00 00 0F 2A 40 B1 CE
(001.895073)  vcan0  00000309   [8]  0A 6E 00 00 00 00 00 00
(001.895287)  vcan0  0000014A   [8]  00 00 00 11 AC 4B 69 B4
(001.895505)  vcan0  0000017C   [8]  1E B2 00 00 00 00 00 00
(001.895711)  vcan0  00000130   [8]  00 00 00 00 00 00 00 00
(001.900691)  vcan0  00000309   [8]  0A 68 00 00 00 00 00 00
(001.900906)  vcan0  0000014A   [8]  00 00 00 14 21 44 EF DE
(001.901112)  vcan0  00000130   [8]  00 00 00 00 00 00 00 00
(001.901331)  vcan0  0000017C   [8]  24 FD 00 00 00 00 00 00
(001.907176)  vcan0  00000309   [8]  0A 69 00 00 00 00 00 00
(001.907389)  vcan0  0000014A   [8]  00 00 00 17 40 06 1F 18
(001.907595)  vcan0  00000130   [8]  00 00 00 00 00 00 00 00
(001.907812)  vcan0  0000017C   [8]  23 80 00 00 00 00 00 00
(001.913051)  vcan0  00000130   [8]  00 00 00 00 00 00 00 00
(001.913285)  vcan0  0000017C   [8]  29 98 00 00 00 00 00 00
(001.913497)  vcan0  0000014A   [8]  00 00 00 19 F0 C8 C4 96
(001.913707)  vcan0  00000309   [8]  0A 63 00 00 00 00 00 00
(001.919175)  vcan0  00000309   [8]  0A 65 00 00 00 00 00 00
(001.919399)  vcan0  0000017C   [8]  27 89 00 00 00 00 00 00
(001.919610)  vcan0  0000014A   [8]  00 00 00 1D 29 E3 A3 62
(001.919815)  vcan0  00000130   [8]  00 00 00 00 00 00 00 00
(001.924904)  vcan0  00000130   [8]  00 00 00 00 00 00 00 00
(001.925130)  vcan0  0000017C   [8]  2D 65 00 00 00 00 00 00
(001.925342)  vcan0  0000014A   [8]  00 00 00 1F F9 9A AC F4
(001.925551)  vcan0  00000309   [8]  0A 5F 00 00 00 00 00 00
(001.931062)  vcan0  0000017C   [8]  2A C3 00 00 00 00 00 00
(001.931271)  vcan0  00000130   [8]  00 00 00 00 00 00 00 00
(001.931483)  vcan0  00000309   [8]  0A 62 00 00 00 00 00 00
(001.931692)  vcan0  0000014A   [8]  00 00 00 23 36 E0 7E 0A
(001.936953)  vcan0  00000130   [8]  00 00 00 00 00 00 00 00
(001.937173)  vcan0  00000309   [8]  0A 5D 00 00 00 00 00 00
(001.937394)  vcan0  0000017C   [8]  30 3D 00 00 00 00 00 00
(001.937604)  vcan0  0000014A   [8]  00 00 00 26 0A 73 50 50
(001.942913)  vcan0  0000014A   [8]  00 00 00 29 55 49 CC AC
(001.943133)  vcan0  00000130   [8]  00 00 00 00 00 00 00 00
(001.943372)  vcan0  0000017C   [8]  2D 0E 00 00 00 00 00 00
(001.943586)  vcan0  00000309   [8]  0A 60 00 00 00 00 00 00
(001.949218)  vcan0  00000130   [8]  00 00 00 00 00 00 00 00
(001.949456)  vcan0  0000017C   [8]  32 12 00 00 00 00 00 00
(001.949669)  vcan0  0000014A   [8]  00 00 00 2C 31 C6 F1 7C
(001.949878)  vcan0  00000309   [8]  0A 5B 00 00 00 00 00 00
(001.955205)  vcan0  00000130   [8]  00 00 00 00 00 00 00 00
(001.955430)  vcan0  0000014A   [8]  00 00 00 2F 67 34 03 7E
(001.955652)  vcan0  0000017C   [8]  2E 58 00 00 00 00 00 00
(001.955862)  vcan0  00000309   [8]  0A 5F 00 00 00 00 00 00
(001.961209)  vcan0  00000130   [8]  00 00 00 00 00 00 00 00
(001.961448)  vcan0  0000017C   [8]  32 DE 00 00 00 00 00 00
(001.961661)  vcan0  0000014A   [8]  00 00 00 32 2C AE 8A CA
(001.961871)  vcan0  00000309   [8]  0A 5A 00 00 00 00 00 00
(001.966861)  vcan0  00000309   [8]  0A 5E 00 00 00 00 00 00
(001.967087)  vcan0  0000017C   [8]  2E A1 00 00 00 00 00 00
(001.967301)  vcan0  0000014A   [8]  00 00 00 35 3B 07 76 3A
(001.967509)  vcan0  00000130   [8]  00 00 00 00 00 00 00 00
(001.973208)  vcan0  00000130   [8]  00 00 00 00 00 00 00 00
(001.973448)  vcan0  0000017C   [8]  32 AB 00 00 00 00 00 00
(001.973660)  vcan0  00000309   [8]  0A 5A 00 00 00 00 00 00
(001.973870)  vcan0  0000014A   [8]  00 00 00 37 E5 C1 DB E8
(001.979135)  vcan0  0000017C   [8]  2D F8 00 00 00 00 00 00
(001.979352)  vcan0  00000309   [8]  0A 5F 00 00 00 00 00 00
(001.979621)  vcan0  0000014A   [8]  00 00 00 3A CC 28 90 D8
(001.979828)  vcan0  00000130   [8]  00 00 00 00 00 00 00 00
(001.985231)  vcan0  00000130   [8]  00 00 00 00 00 00 00 00
(001.985472)  vcan0  0000017C   [8]  31 95 00 00 00 00 00 00
(001.985684)  vcan0  00000309   [8]  0A 5C 00 00 00 00 00 00
(001.985894)  vcan0  0000014A   [8]  00 00 00 3D 4E 5A 93 06
(001.986099)  vcan0  00000002   [8]  00 00 00 00 00 00 00 00
(001.990884)  vcan0  00000309   [8]  0A 61 00 00 00 00 00 00
(001.991109)  vcan0  0000017C   [8]  2C 7E 00 00 00 00 00 00
(001.991317)  vcan0  00000130   [8]  00 00 00 00 00 00 00 00
(001.991529)  vcan0  0000014A   [8]  00 00 00 40 09 57 FB C0
(001.997111)  vcan0  00000130   [8]  00 00 00 00 00 00 00 00
(001.997338)  vcan0  0000014A   [8]  00 00 00 42 65 D8 08 EE
(001.997550)  vcan0  00000309   [8]  0A 5D 00 00 00 00 00 00
(001.997770)  vcan0  0000017C   [8]  2F C0 00 00 00 00 00 00
(002.003314)  vcan0  0000017C   [8]  2A 5E 00 00 00 00 00 00
(002.003530)  vcan0  00000309   [8]  0A 63 00 00 00 00 00 00
(002.003740)  vcan0  0000014A   [8]  00 00 00 44 F1 DA DE 3C
(002.003946)  vcan0  00000130   [8]  00 00 00 00 00 00 00 00
(002.010173)  vcan0  0000018F   [8]  00 00 00 00 00 00 00 00
(002.010400)  vcan0  0000014A   [8]  00 00 00 47 25 D2 D2 6A
(002.010619)  vcan0  000001A4   [8]  00 67 00 00 00 00 00 00
(002.010825)  vcan0  00000130   [8]  00 00 00 00 00 00 00 00
(002.011035)  vcan0  00000309   [8]  0A 60 00 00 00 00 00 00
(002.011248)  vcan0  0000037B   [8]  00 00 00 00 00 00 00 00
(002.011465)  vcan0  00000326   [8]  00 00 00 00 00 00 00 00
(002.011682)  vcan0  0000017C   [8]  2D 5E 00 00 00 00 00 00
(002.011895)  vcan0  00000374   [8]  00 00 00 00 00 00 00 00
(002.012106)  vcan0  000001A3   [8]  00 00 00 00 00 00 00 00
(002.016133)  vcan0  00000309   [8]  0A 65 00 00 00 00 00 00
(002.016364)  vcan0  0000014A   [8]  00 00 00 49 82 65 7F F6
(002.016578)  vcan0  00000130   [8]  00 00 00 00 00 00 00 00
(002.016817)  vcan0  0000017C   [8]  27 CB 00 00 00 00 00 00
(002.021215)  vcan0  00000309   [8]  0A 62 00 00 00 00 00 00
(002.021433)  vcan0  0000014A   [8]  00 00 00 4B 88 DE F9 4E
(002.021657)  vcan0  0000017C   [8]  2A A4 00 00 00 00 00 00
(002.021863)  vcan0  00000130   [8]  00 00 00 00 00 00 00 00
(002.027142)  vcan0  00000130   [8]  00 00 00 00 00 00 00 00
(002.027370)  vcan0  00000309   [8]  0A 68 00 00 00 00 00 00
(002.027594)  vcan0  0000014A   [8]  00 00 00 4D BA 1D E4 14
(002.027814)  vcan0  0000017C   [8]  24 FD 00 00 00 00 00 00
(002.033035)  vcan0  0000017C   [8]  27 C9 00 00 00 00 00 00
(002.033252)  vcan0  0000014A   [8]  00 00 00 4F 9B 36 51 06
(002.033459)  vcan0  00000130   [8]  00 00 00 00 00 00 00 00
(002.033669)  vcan0  00000309   [8]  0A 65 00 00 00 00 00 00
(002.038989)  vcan0  00000130   [8]  00 00 00 00 00 00 00 00
(002.039228)  vcan0  0000017C   [8]  22 28 00 00 00 00 00 00
(002.039441)  vcan0  00000309   [8]  0A 6B 00 00 00 00 00 00
(002.039653)  vcan0  0000014A   [8]  00 00 00 51 A1 E9 20 02
(002.045172)  vcan0  0000014A   [8]  00 00 00 53 5F 1F CC B4
(002.045415)  vcan0  0000017C   [8]  25 03 00 00 00 00 00 00
(002.045624)  vcan0  00000130   [8]  00 00 00 00 00 00 00 00
(002.045836)  vcan0  00000309   [8]  0A 68 00 00 00 00 00 00
(002.051114)  vcan0  00000309   [8]  0A 6D 00 00 00 00 00 00
(002.051379)  vcan0  0000014A   [8]  00 00 00 55 33 68 A8 FA
(002.051587)  vcan0  00000130   [8]  00 00 00 00 00 00 00 00
(002.051807)  vcan0  0000017C   [8]  1F 81 00 00 00 00 00 00
(002.057174)  vcan0  0000014A   [8]  00 00 00 56 C6 73 FF 12
(002.057402)  vcan0  0000017C   [8]  22 80 00 00 00 00 00 00
(002.057609)  vcan0  00000130   [8]  00 00 00 00 00 00 00 00
(002.057821)  vcan0  00000309   [8]  0A 6A 00 00 00 00 00 00
(002.063115)  vcan0  00000309   [8]  0A 70 00 00 00 00 00 00
(002.063339)  vcan0  0000014A   [8]  00 00 00 58 77 14 4B 7C
(002.063547)  vcan0  00000130   [8]  00 00 00 00 00 00 00 00
(002.063768)  vcan0  0000017C   [8]  1D 31 00 00 00 00 00 00
(002.068910)  vcan0  0000017C   [8]  20 67 00 00 00 00 00 00
(002.069125)  vcan0  00000309   [8]  0A 6C 00 00 00 00 00 00
(002.069332)  vcan0  00000130   [8]  00 00 00 00 00 00 00 00
(002.069543)  vcan0  0000014A   [8]  00 00 00 59 E9 34 C3 38
(002.075150)  vcan0  0000017C   [8]  1B 59 00 00 00 00 00 00
(002.075379)  vcan0  00000130   [8]  00 00 00 00 00 00 00 00
(002.075604)  vcan0  00000309   [8]  0A 71 00 00 00 00 00 00
(002.075817)  vcan0  0000014A   [8]  00 00 00 5B 7D DC A5 4A
(002.081092)  vcan0  0000017C   [8]  1E D3 00 00 00 00 00 00
(002.081312)  vcan0  00000309   [8]  0A 6E 00 00 00 00 00 00
(002.081524)  vcan0  0000014A   [8]  01 FF FF E4 48 48 87 7C
(002.081731)  vcan0  00000130   [8]  00 00 00 00 00 00 00 00
(002.087039)  vcan0  00000309   [8]  0A 73 00 00 00 00 00 00
(002.087254)  vcan0  0000014A   [8]  00 00 00 2A 68 B2 69 2E
(002.087463)  vcan0  00000130   [8]  00 00 00 00 00 00 00 00
(002.087683)  vcan0  0000017C   [8]  1A 36 00 00 00 00 00 00
(002.093172)  vcan0  0000014A   [8]  00 00 00 2C 33 FD E2 CC
(002.093396)  vcan0  00000309   [8]  0A 6F 00 00 00 00 00 00
(002.093618)  vcan0  0000017C   [8]  1E 09 00 00 00 00 00 00
(002.093826)  vcan0  00000130   [8]  00 00 00 00 00 00 00 00
(002.099410)  vcan0  0000014A   [8]  00 00 00 2E 7C 67 94 E2
(002.099622)  vcan0  00000130   [8]  00 00 00 00 00 00 00 00
(002.099844)  vcan0  0000017C   [8]  1A 11 00 00 00 00 00 00
(002.100054)  vcan0  00000309   [8]  0A 73 00 00 00 00 00 00
(002.105150)  vcan0  0000014A   [8]  00 00 00 30 80 9A FA 9C
(002.105374)  vcan0  0000017C   [8]  1E 13 00 00 00 00 00 00
(002.105581)  vcan0  00000130   [8]  00 00 00 00 00 00 00 00
(002.105790)  vcan0  00000309   [8]  0A 6F 00 00 00 00 00 00
(002.111614)  vcan0  00000130   [8]  00 00 00 00 00 00 00 00
(002.111836)  vcan0  00000309   [8]  0A 73 00 00 00 00 00 00
(002.112056)  vcan0  0000017C   [8]  1A 31 00 00 00 00 00 00
(002.112267)  vcan0  0000014A   [8]  00 00 00 32 ED 72 6A 3E
(002.117321)  vcan0  00000309   [8]  0A 6E 00 00 00 00 00 00
(002.117532)  vcan0  00000130   [8]  00 00 00 00 00 00 00 00
(002.117744)  vcan0  0000014A   [8]  00 00 00 35 05 D7 86 9A
(002.117963)  vcan0  0000017C   [8]  1E 83 00 00 00 00 00 00
(002.123369)  vcan0  0000014A   [8]  00 00 00 37 7D D2 D8 A0
(002.123579)  vcan0  00000130   [8]  00 00 00 00 00 00 00 00
(002.123798)  vcan0  0000017C   [8]  1A B7 00 00 00 00 00 00
(002.124007)  vcan0  00000309   [8]  0A 72 00 00 00 00 00 00
(002.129228)  vcan0  00000130   [8]  00 00 00 00 00 00 00 00
(002.129451)  vcan0  0000014A   [8]  00 00 00 39 99 2A 09 86
(002.129662)  vcan0  00000309   [8]  0A 6D 00 00 00 00 00 00
(002.129880)  vcan0  0000017C   [8]  1F 43 00 00 00 00 00 00
(002.134934)  vcan0  00000130   [8]  00 00 00 00 00 00 00 00
(002.135162)  vcan0  0000017C   [8]  1B 92 00 00 00 00 00 00
(002.135374)  vcan0  0000014A   [8]  00 00 00 3C 0E CA 53 84
(002.135584)  vcan0  00000309   [8]  0A 71 00 00 00 00 00 00
(002.141221)  vcan0  00000309   [8]  0A 6C 00 00 00 00 00 00
(002.141435)  vcan0  0000014A   [8]  00 00 00 3E 35 C8 5E 6E
(002.141641)  vcan0  00000130   [8]  00 00 00 00 00 00 00 00
(002.141859)  vcan0  0000017C   [8]  20 49 00 00 00 00 00 00
(002.147340)  vcan0  00000130   [8]  00 00 00 00 00 00 00 00
(002.147561)  vcan0  00000309   [8]  0A 70 00 00 00 00 00 00
(002.147780)  vcan0  0000017C   [8]  1C AF 00 00 00 00 00 00
(002.147990)  vcan0  0000014A   [8]  00 00 00 40 A7 67 54 76
(002.153373)  vcan0  0000014A   [8]  00 00 00 42 C6 36 7A 94
(002.153591)  vcan0  00000309   [8]  0A 6B 00 00 00 00 00 00
(002.153809)  vcan0  0000017C   [8]  21 85 00 00 00 00 00 00
(002.154015)  vcan0  00000130   [8]  00 00 00 00 00 00 00 00
(002.159128)  vcan0  00000309   [8]  0A 6F 00 00 00 00 00 00
(002.159339)  vcan0  00000130   [8]  00 00 00 00 00 00 00 00
(002.159550)  vcan0  0000014A   [8]  00 00 00 45 15 CB C0 CA
(002.159768)  vcan0  0000017C   [8]  1D F9 00 00 00 00 00 00
(002.165202)  vcan0  00000130   [8]  00 00 00 00 00 00 00 00
(002.165423)  vcan0  00000309   [8]  0A 6A 00 00 00 00 00 00
(002.165635)  vcan0  0000014A   [8]  00 00 00 47 1C 1F F9 62
(002.165853)  vcan0  0000017C   [8]  22 E0 00 00 00 00 00 00
(002.171340)  vcan0  00000130   [8]  00 00 00 00 00 00 00 00
(002.171566)  vcan0  0000017C   [8]  1F 58 00 00 00 00 00 00
(002.171776)  vcan0  00000309   [8]  0A 6D 00 00 00 00 00 00
(002.171992)  vcan0  0000014A   [8]  00 00 00 49 53 E4 49 76
(002.177669)  vcan0  00000130   [8]  00 00 00 00 00 00 00 00
(002.177896)  vcan0  00000309   [8]  0A 68 00 00 00 00 00 00
(002.178117)  vcan0  0000017C   [8]  24 44 00 00 00 00 00 00
(002.178328)  vcan0  0000014A   [8]  00 00 00 4B 39 AC A9 D8
(002.183451)  vcan0  00000309   [8]  0A 6C 00 00 00 00 00 00
(002.183670)  vcan0  0000014A   [8]  00 00 00 4D 50 54 7C 52
(002.183877)  vcan0  00000130   [8]  00 00 00 00 00 00 00 00
(002.184097)  vcan0  0000017C   [8]  20 B8 00 00 00 00 00 00
(002.189628)  vcan0  00000130   [8]  00 00 00 00 00 00 00 00
(002.189858)  vcan0  0000014A   [8]  00 00 00 4F 17 DC EA 3A
(002.190070)  vcan0  00000309   [8]  0A 67 00 00 00 00 00 00
(002.190290)  vcan0  0000017C   [8]  25 9D 00 00 00 00 00 00
(002.195172)  vcan0  0000014A   [8]  00 00 00 51 0B 9F E6 00
(002.195400)  vcan0  0000017C   [8]  22 01 00 00 00 00 00 00
(002.195611)  vcan0  00000309   [8]  0A 6B 00 00 00 00 00 00
(002.195817)  vcan0  00000130   [8]  00 00 00 00 00 00 00 00
(002.201057)  vcan0  0000017C   [8]  26 D5 00 00 00 00 00 00
(002.201275)  vcan0  00000309   [8]  0A 66 00 00 00 00 00 00
(002.201487)  vcan0  0000014A   [8]  00 00 00 52 B7 56 09 D0
(002.201693)  vcan0  00000130   [8]  00 00 00 00 00 00 00 00
(002.207091)  vcan0  0000014A   [8]  00 00 00 54 84 C5 64 9C
(002.207308)  vcan0  00000130   [8]  00 00 00 00 00 00 00 00
(002.207531)  vcan0  0000017C   [8]  23 22 00 00 00 00 00 00
(002.207742)  vcan0  00000309   [8]  0A 6A 00 00 00 00 00 00
(002.213185)  vcan0  00000309   [8]  0A 65 00 00 00 00 00 00
(002.213396)  vcan0  00000130   [8]  00 00 00 00 00 00 00 00
(002.213608)  vcan0  0000014A   [8]  00 00 00 56 11 23 2B 98
(002.213827)  vcan0  0000017C   [8]  27 DC 00 00 00 00 00 00
(002.219067)  vcan0  0000017C   [8]  24 0A 00 00 00 00 00 00
(002.219279)  vcan0  00000130   [8]  00 00 00 00 00 00 00 00
(002.219493)  vcan0  00000309   [8]  0A 69 00 00 00 00 00 00
(002.219703)  vcan0  0000014A   [8]  00 00 00 57 C0 CF DE A6
(002.225311)  vcan0  00000309   [8]  0A 64 00 00 00 00 00 00
(002.225541)  vcan0  0000014A   [8]  00 00 00 59 2D 66 1B 96
(002.225777)  vcan0  0000017C   [8]  28 A4 00 00 00 00 00 00
(002.225991)  vcan0  00000130   [8]  00 00 00 00 00 00 00 00
(002.231164)  vcan0  00000130   [8]  00 00 00 00 00 00 00 00
(002.231376)  vcan0  00000002   [8]  00 00 00 00 00 00 00 00
(002.231599)  vcan0  0000014A   [8]  00 00 00 5A B2 B7 4D 52
(002.231821)  vcan0  0000017C   [8]  24 B0 00 00 00 00 00 00
(002.232034)  vcan0  00000309   [8]  0A 68 00 00 00 00 00 00
(002.237241)  vcan0  00000309   [8]  0A 64 00 00 00 00 00 00
(002.237459)  vcan0  00000130   [8]  00 00 00 00 00 00 00 00
(002.237675)  vcan0  0000014A   [8]  00 00 00 5C 02 BF D2 70
(002.237899)  vcan0  0000017C   [8]  29 26 00 00 00 00 00 00
(002.243395)  vcan0  00000309   [8]  0A 68 00 00 00 00 00 00
(002.243623)  vcan0  0000017C   [8]  25 0E 00 00 00 00 00 00
(002.243831)  vcan0  00000130   [8]  00 00 00 00 00 00 00 00
(002.244042)  vcan0  0000014A   [8]  00 00 00 5D 6A 0C BB 62
(002.249266)  vcan0  00000130   [8]  00 00 00 00 00 00 00 00
(002.249505)  vcan0  0000017C   [8]  29 60 00 00 00 00 00 00
(002.249718)  vcan0  0000014A   [8]  00 00 00 5E 9C 63 2F 98
(002.249927)  vcan0  00000309   [8]  0A 64 00 00 00 00 00 00
(002.255015)  vcan0  00000309   [8]  0A 68 00 00 00 00 00 00
(002.255227)  vcan0  00000130   [8]  00 00 00 00 00 00 00 00
(002.255448)  vcan0  0000017C   [8]  25 24 00 00 00 00 00 00
(002.255659)  vcan0  0000014A   [8]  00 00 00 5F E7 A2 4A 04
(002.261101)  vcan0  00000130   [8]  00 00 00 00 00 00 00 00
(002.261334)  vcan0  0000017C   [8]  29 53 00 00 00 00 00 00
(002.261547)  vcan0  0000014A   [8]  00 00 00 60 FF 63 D4 BA
(002.261758)  vcan0  00000309   [8]  0A 64 00 00 00 00 00 00
(002.266955)  vcan0  00000130   [8]  00 00 00 00 00 00 00 00
(002.267189)  vcan0  00000309   [8]  0A 68 00 00 00 00 00 00
(002.267409)  vcan0  0000017C   [8]  24 F6 00 00 00 00 00 00
(002.267619)  vcan0  0000014A   [8]  00 00 00 62 2E A0 2F D8
(002.273002)  vcan0  0000014A   [8]  00 00 00 63 29 F4 06 5E
(002.273215)  vcan0  00000309   [8]  0A 64 00 00 00 00 00 00
(002.273434)  vcan0  0000017C   [8]  29 05 00 00 00 00 00 00
(002.273642)  vcan0  00000130   [8]  00 00 00 00 00 00 00 00
(002.278910)  vcan0  0000014A   [8]  00 00 00 64 3F C4 53 EA
(002.279119)  vcan0  00000130   [8]  00 00 00 00 00 00 00 00
(002.279347)  vcan0  0000017C   [8]  24 8D 00 00 00 00 00 00
(002.279558)  vcan0  00000309   [8]  0A 68 00 00 00 00 00 00
(002.285051)  vcan0  00000309   [8]  0A 64 00 00 00 00 00 00
(002.285266)  vcan0  0000014A   [8]  01 FF FF EF CD 5E 1D 6A
(002.285488)  vcan0  0000017C   [8]  28 83 00 00 00 00 00 00
(002.285695)  vcan0  00000130   [8]  00 00 00 00 00 00 00 00
(002.291115)  vcan0  00000309   [8]  0A 69 00 00 00 00 00 00
(002.291326)  vcan0  00000130   [8]  00 00 00 00 00 00 00 00
(002.291546)  vcan0  0000017C   [8]  24 1B 00 00 00 00 00 00
(002.291756)  vcan0  0000014A   [8]  00 00 00 3F 63 A7 7A 94
(002.297155)  vcan0  0000014A   [8]  00 00 00 40 B1 29 9A 4E
(002.297382)  vcan0  0000017C   [8]  27 FD 00 00 00 00 00 00
(002.297593)  vcan0  00000309   [8]  0A 65 00 00 00 00 00 00
(002.297800)  vcan0  00000130   [8]  00 00 00 00 00 00 00 00
(002.303098)  vcan0  0000017C   [8]  23 A8 00 00 00 00 00 00
(002.303319)  vcan0  0000014A   [8]  00 00 00 42 60 EF 9F 5C
(002.303526)  vcan0  00000130   [8]  00 00 00 00 00 00 00 00
(002.303737)  vcan0  00000309   [8]  0A 69 00 00 00 00 00 00
(002.309169)  vcan0  0000014A   [8]  00 00 00 43 D2 19 94 AE
(002.309386)  vcan0  00000309   [8]  0A 65 00 00 00 00 00 00
(002.309608)  vcan0  0000017C   [8]  27 76 00 00 00 00 00 00
(002.309815)  vcan0  00000130   [8]  00 00 00 00 00 00 00 00
(002.315137)  vcan0  0000014A   [8]  00 00 00 45 92 24 A6 54
(002.315349)  vcan0  00000130   [8]  00 00 00 00 00 00 00 00
(002.315562)  vcan0  00000309   [8]  0A 6A 00 00 00 00 00 00
(002.315782)  vcan0  0000017C   [8]  22 FC 00 00 00 00 00 00
(002.321124)  vcan0  0000014A   [8]  00 00 00 47 1F 69 F2 AE
(002.321341)  vcan0  00000309   [8]  0A 66 00 00 00 00 00 00
(002.321548)  vcan0  00000130   [8]  00 00 00 00 00 00 00 00
(002.321767)  vcan0  0000017C   [8]  26 CA 00 00 00 00 00 00
(002.327783)  vcan0  0000017C   [8]  22 39 00 00 00 00 00 00
(002.328001)  vcan0  0000014A   [8]  00 00 00 48 E3 E9 4E 14
(002.328208)  vcan0  00000130   [8]  00 00 00 00 00 00 00 00
(002.328420)  vcan0  00000309   [8]  0A 6B 00 00 00 00 00 00
(002.333651)  vcan0  00000130   [8]  00 00 00 00 00 00 00 00
(002.333893)  vcan0  00000309   [8]  0A 67 00 00 00 00 00 00
(002.334118)  vcan0  0000014A   [8]  00 00 00 4A 74 DF 9A CA
(002.334357)  vcan0  0000017C   [8]  26 06 00 00 00 00 00 00
(002.339550)  vcan0  0000017C   [8]  21 6D 00 00 00 00 00 00
(002.339780)  vcan0  0000014A   [8]  00 00 00 4C 39 8D D1 9E
(002.339996)  vcan0  00000130   [8]  00 00 00 00 00 00 00 00
(002.340223)  vcan0  00000309   [8]  0A 6B 00 00 00 00 00 00
(002.345382)  vcan0  00000130   [8]  00 00 00 00 00 00 00 00
(002.345617)  vcan0  00000309   [8]  0A 68 00 00 00 00 00 00
(002.345839)  vcan0  0000014A   [8]  00 00 00 4D D0 EA F4 84
(002.346073)  vcan0  0000017C   [8]  25 40 00 00 00 00 00 00
(002.351085)  vcan0  0000017C   [8]  20 AA 00 00 00 00 00 00
(002.351304)  vcan0  00000130   [8]  00 00 00 00 00 00 00 00
(002.351519)  vcan0  0000014A   [8]  00 00 00 4F 97 E6 D0 1E
(002.351729)  vcan0  00000309   [8]  0A 6C 00 00 00 00 00 00
(002.357198)  vcan0  0000017C   [8]  24 87 00 00 00 00 00 00
(002.357418)  vcan0  0000014A   [8]  00 00 00 51 1E E7 08 F4
(002.357626)  vcan0  00000130   [8]  00 00 00 00 00 00 00 00
(002.357837)  vcan0  00000309   [8]  0A 68 00 00 00 00 00 00
(002.363082)  vcan0  00000130   [8]  00 00 00 00 00 00 00 00
(002.363321)  vcan0  0000014A   [8]  00 00 00 52 DB 4F 82 4A
(002.363536)  vcan0  00000309   [8]  0A 6D 00 00 00 00 00 00
(002.363760)  vcan0  0000017C   [8]  1F FD 00 00 00 00 00 00
(002.369099)  vcan0  00000130   [8]  00 00 00 00 00 00 00 00
(002.369344)  vcan0  0000017C   [8]  23 E9 00 00 00 00 00 00
(002.369557)  vcan0  00000309   [8]  0A 69 00 00 00 00 00 00
(002.369769)  vcan0  0000014A   [8]  00 00 00 54 4B 54 3F 00
(002.375090)  vcan0  0000017C   [8]  1F 70 00 00 00 00 00 00
(002.375308)  vcan0  00000309   [8]  0A 6D 00 00 00 00 00 00
(002.375514)  vcan0  00000130   [8]  00 00 00 00 00 00 00 00
(002.375724)  vcan0  0000014A   [8]  00 00 00 55 ED B5 B0 6A
(002.381113)  vcan0  0000017C   [8]  23 71 00 00 00 00 00 00
(002.381330)  vcan0  0000014A   [8]  00 00 00 57 52 6C C7 28
(002.381536)  vcan0  00000130   [8]  00 00 00 00 00 00 00 00
(002.381777)  vcan0  00000309   [8]  0A 69 00 00 00 00 00 00
(002.387212)  vcan0  0000017C   [8]  1F 0C 00 00 00 00 00 00
(002.387426)  vcan0  00000130   [8]  00 00 00 00 00 00 00 00
(002.387639)  vcan0  0000014A   [8]  00 00 00 58 D4 69 60 22
(002.387851)  vcan0  00000309   [8]  0A 6E 00 00 00 00 00 00
(002.393194)  vcan0  0000014A   [8]  00 00 00 5A 22 B0 AD 8A
(002.393421)  vcan0  00000130   [8]  00 00 00 00 00 00 00 00
(002.393642)  vcan0  00000309   [8]  0A 6A 00 00 00 00 00 00
(002.393865)  vcan0  0000017C   [8]  23 22 00 00 00 00 00 00
(002.399128)  vcan0  00000309   [8]  0A 6E 00 00 00 00 00 00
(002.399341)  vcan0  00000130   [8]  00 00 00 00 00 00 00 00
(002.399564)  vcan0  0000017C   [8]  1E D4 00 00 00 00 00 00
(002.399775)  vcan0  0000014A   [8]  00 00 00 5B 8E 9B C9 10
(002.405385)  vcan0  0000014A   [8]  00 00 00 5C C2 B0 B1 2E
(002.405615)  vcan0  0000017C   [8]  23 01 00 00 00 00 00 00
(002.405828)  vcan0  00000309   [8]  0A 6A 00 00 00 00 00 00
(002.406035)  vcan0  00000130   [8]  00 00 00 00 00 00 00 00
(002.411189)  vcan0  00000309   [8]  0A 6E 00 00 00 00 00 00
(002.411417)  vcan0  0000017C   [8]  1E C9 00 00 00 00 00 00
(002.411630)  vcan0  0000014A   [8]  00 00 00 5E 15 CF 61 90
(002.411836)  vcan0  00000130   [8]  00 00 00 00 00 00 00 00
(002.417340)  vcan0  00000309   [8]  0A 6A 00 00 00 00 00 00
(002.417569)  vcan0  0000017C   [8]  23 0C 00 00 00 00 00 00
(002.417776)  vcan0  00000130   [8]  00 00 00 00 00 00 00 00
(002.417988)  vcan0  0000014A   [8]  00 00 00 5F 37 1B 9B 80
(002.423071)  vcan0  0000014A   [8]  00 00 00 60 6C FC EF CE
(002.423297)  vcan0  0000017C   [8]  1E E8 00 00 00 00 00 00
