(000.000000)  vcan0  1FFFFFFF   [8]  00 00 00 00 00 00 00 00
(000.004395)  vcan0  0000014A   [8]  00 00 00 EE 6B 28 1D CE
(000.004618)  vcan0  000001A3   [8]  00 00 00 00 00 00 00 00
(000.004836)  vcan0  00000326   [8]  00 00 00 00 00 00 00 00
(000.005043)  vcan0  0000018F   [8]  00 00 00 00 00 00 00 00
(000.005254)  vcan0  00000309   [8]  00 61 00 00 00 00 00 00
(000.005474)  vcan0  0000017C   [8]  4B 00 00 00 00 00 00 00
(000.005679)  vcan0  00000130   [8]  00 00 00 00 00 00 00 00
(000.005885)  vcan0  00000002   [8]  00 00 00 00 00 00 00 00
(000.006099)  vcan0  00000374   [8]  00 00 00 00 00 00 00 00
(000.006310)  vcan0  0000037B   [8]  00 00 00 00 00 00 00 00
(000.006523)  vcan0  000001A4   [8]  00 67 00 00 00 00 00 00
(000.009502)  vcan0  00000130   [8]  00 00 00 00 00 00 00 00
(000.009731)  vcan0  00000309   [8]  00 7D 00 00 00 00 00 00
(000.009961)  vcan0  0000017C   [8]  4B 00 00 00 00 00 00 00
(000.010192)  vcan0  0000014A   [8]  00 00 01 65 A0 BC 3B 9A
(000.014583)  vcan0  0000017C   [8]  4B 00 00 00 00 00 00 00
(000.014799)  vcan0  00000309   [8]  00 99 00 00 00 00 00 00
(000.015009)  vcan0  0000014A   [8]  00 00 01 DC D6 50 EE 6C
(000.015215)  vcan0  00000130   [8]  00 00 00 00 00 00 00 00
(000.020660)  vcan0  00000130   [8]  00 00 00 00 00 00 00 00
(000.020878)  vcan0  00000309   [8]  00 B5 00 00 00 00 00 00
(000.021089)  vcan0  0000014A   [8]  00 00 02 54 0B E4 77 36
(000.021306)  vcan0  0000017C   [8]  4B 00 00 00 00 00 00 00
(000.026933)  vcan0  00000309   [8]  00 D2 00 00 00 00 00 00
(000.027177)  vcan0  0000017C   [8]  4B 00 00 00 00 00 00 00
(000.027404)  vcan0  0000014A   [8]  00 00 02 CB 41 78 00 00
(000.027618)  vcan0  00000130   [8]  00 00 00 00 00 00 00 00
(000.032129)  vcan0  00000309   [8]  00 EE 00 00 00 00 00 00
(000.032343)  vcan0  0000014A   [8]  00 00 03 42 77 0D DC D6
(000.032549)  vcan0  00000130   [8]  00 00 00 00 00 00 00 00
(000.032769)  vcan0  0000017C   [8]  4B 00 00 00 00 00 00 00
(000.038225)  vcan0  00000309   [8]  01 0A 00 00 00 00 00 00
(000.038448)  vcan0  0000017C   [8]  4B 00 00 00 00 00 00 00
(000.038655)  vcan0  00000130   [8]  00 00 00 00 00 00 00 00
(000.038865)  vcan0  0000014A   [8]  00 00 03 48 BA 62 59 04
(000.044296)  vcan0  00000130   [8]  00 00 00 00 00 00 00 00
(000.044517)  vcan0  0000014A   [8]  00 00 03 49 A5 16 9F A6
(000.044739)  vcan0  0000017C   [8]  4B 00 00 00 00 00 00 00
(000.044950)  vcan0  00000309   [8]  01 26 00 00 00 00 00 00
(000.050849)  vcan0  00000309   [8]  01 43 00 00 00 00 00 00
(000.051098)  vcan0  0000017C   [8]  4B 00 00 00 00 00 00 00
(000.051322)  vcan0  0000014A   [8]  00 00 03 4A 8F CA E6 48
(000.051535)  vcan0  00000130   [8]  00 00 00 00 00 00 00 00
(000.056567)  vcan0  0000014A   [8]  00 00 03 4B 7A 7F 2C EA
(000.056801)  vcan0  00000309   [8]  01 5F 00 00 00 00 00 00
(000.057017)  vcan0  00000130   [8]  00 00 00 00 00 00 00 00
(000.057255)  vcan0  0000017C   [8]  4B 00 00 00 00 00 00 00
(000.062057)  vcan0  00000309   [8]  01 7B 00 00 00 00 00 00
(000.062285)  vcan0  0000017C   [8]  4B 00 00 00 00 00 00 00
(000.062492)  vcan0  00000130   [8]  00 00 00 00 00 00 00 00
(000.062703)  vcan0  0000014A   [8]  00 00 03 4B 7A 7F 2C EA
(000.068041)  vcan0  00000309   [8]  01 97 00 00 00 00 00 00
(000.068257)  vcan0  0000014A   [8]  00 00 03 4B 7A 7F 2C EA
(000.068465)  vcan0  00000130   [8]  00 00 00 00 00 00 00 00
(000.068689)  vcan0  0000017C   [8]  4B 00 00 00 00 00 00 00
(000.074101)  vcan0  0000014A   [8]  00 00 03 4B 7A 7F 2C EA
(000.074311)  vcan0  00000130   [8]  00 00 00 00 00 00 00 00
(000.074524)  vcan0  00000309   [8]  01 B3 00 00 00 00 00 00
(000.074744)  vcan0  0000017C   [8]  4B 00 00 00 00 00 00 00
(000.079947)  vcan0  0000017C   [8]  4B 00 00 00 00 00 00 00
(000.080157)  vcan0  00000130   [8]  00 00 00 00 00 00 00 00
(000.080369)  vcan0  0000014A   [8]  00 00 03 4B 7A 7F 2C EA
(000.080579)  vcan0  00000309   [8]  01 D0 00 00 00 00 00 00
(000.086047)  vcan0  0000014A   [8]  00 00 03 4B 7A 7F 2C EA
(000.086271)  vcan0  0000017C   [8]  4B 00 00 00 00 00 00 00
(000.086481)  vcan0  00000309   [8]  01 EC 00 00 00 00 00 00
(000.086690)  vcan0  00000130   [8]  00 00 00 00 00 00 00 00
(000.091937)  vcan0  0000017C   [8]  4B 00 00 00 00 00 00 00
(000.092151)  vcan0  0000014A   [8]  00 00 03 4B 7A 7F 2C EA
(000.092358)  vcan0  00000130   [8]  00 00 00 00 00 00 00 00
(000.092568)  vcan0  00000309   [8]  02 08 00 00 00 00 00 00
(000.097822)  vcan0  00000309   [8]  02 24 00 00 00 00 00 00
(000.098043)  vcan0  0000017C   [8]  4B 00 00 00 00 00 00 00
(000.098254)  vcan0  0000014A   [8]  00 00 03 4B 7A 7F 2C EA
(000.098460)  vcan0  00000130   [8]  00 00 00 00 00 00 00 00
(000.104262)  vcan0  0000017C   [8]  4B 00 00 00 00 00 00 00
(000.104483)  vcan0  00000130   [8]  00 00 00 00 00 00 00 00
(000.104713)  vcan0  00000309   [8]  02 41 00 00 00 00 00 00
(000.104937)  vcan0  0000014A   [8]  00 00 03 4B 7A 7F 2C EA
(000.110378)  vcan0  00000309   [8]  02 5D 00 00 00 00 00 00
(000.110618)  vcan0  0000017C   [8]  4B 00 00 00 00 00 00 00
(000.110850)  vcan0  00000130   [8]  00 00 00 00 00 00 00 00
(000.111077)  vcan0  0000014A   [8]  00 00 03 4B 7A 7F 2C EA
(000.116109)  vcan0  00000309   [8]  02 79 00 00 00 00 00 00
(000.116320)  vcan0  00000130   [8]  00 00 00 00 00 00 00 00
(000.116542)  vcan0  0000017C   [8]  4B 00 00 00 00 00 00 00
(000.116753)  vcan0  0000014A   [8]  00 00 03 4B 7A 7F 2C EA
(000.122326)  vcan0  0000017C   [8]  4B 00 00 00 00 00 00 00
(000.122566)  vcan0  00000309   [8]  02 95 00 00 00 00 00 00
(000.122775)  vcan0  00000130   [8]  00 00 00 00 00 00 00 00
(000.122986)  vcan0  0000014A   [8]  00 00 03 4B 7A 7F 2C EA
(000.128231)  vcan0  0000017C   [8]  4B 00 00 00 00 00 00 00
(000.128454)  vcan0  00000130   [8]  00 00 00 00 00 00 00 00
(000.128683)  vcan0  0000014A   [8]  00 00 03 4B 7A 7F 2C EA
(000.128911)  vcan0  00000309   [8]  02 B1 00 00 00 00 00 00
(000.134241)  vcan0  0000017C   [8]  4B 00 00 00 00 00 00 00
(000.134462)  vcan0  00000130   [8]  00 00 00 00 00 00 00 00
(000.134708)  vcan0  00000309   [8]  02 CE 00 00 00 00 00 00
(000.134940)  vcan0  0000014A   [8]  00 00 03 4B 7A 7F 2C EA
(000.140369)  vcan0  00000309   [8]  02 EA 00 00 00 00 00 00
(000.140593)  vcan0  0000014A   [8]  00 00 03 4B 7A 7F 2C EA
(000.140801)  vcan0  00000130   [8]  00 00 00 00 00 00 00 00
(000.141024)  vcan0  0000017C   [8]  4B 00 00 00 00 00 00 00
(000.146157)  vcan0  0000017C   [8]  4B 00 00 00 00 00 00 00
(000.146435)  vcan0  0000014A   [8]  00 00 03 4B 7A 7F 2C EA
(000.146693)  vcan0  00000309   [8]  03 06 00 00 00 00 00 00
(000.146914)  vcan0  00000130   [8]  00 00 00 00 00 00 00 00
(000.152282)  vcan0  00000130   [8]  00 00 00 00 00 00 00 00
(000.152520)  vcan0  0000014A   [8]  00 00 03 4B 7A 7F 2C EA
(000.152748)  vcan0  00000309   [8]  03 22 00 00 00 00 00 00
(000.152987)  vcan0  0000017C   [8]  4B 00 00 00 00 00 00 00
(000.157950)  vcan0  00000309   [8]  03 3F 00 00 00 00 00 00
(000.158168)  vcan0  0000014A   [8]  00 00 03 4B 7A 7F 2C EA
(000.158388)  vcan0  0000017C   [8]  4B 00 00 00 00 00 00 00
(000.158595)  vcan0  00000130   [8]  00 00 00 00 00 00 00 00
(000.164010)  vcan0  0000017C   [8]  4B 00 00 00 00 00 00 00
(000.164225)  vcan0  0000014A   [8]  00 00 03 4B 7A 7F 2C EA
(000.164433)  vcan0  00000130   [8]  00 00 00 00 00 00 00 00
(000.164644)  vcan0  00000309   [8]  03 5B 00 00 00 00 00 00
(000.170005)  vcan0  00000130   [8]  00 00 00 00 00 00 00 00
(000.170232)  vcan0  0000014A   [8]  00 00 03 4B 7A 7F 2C EA
(000.170445)  vcan0  00000309   [8]  03 77 00 00 00 00 00 00
(000.170664)  vcan0  0000017C   [8]  4B 00 00 00 00 00 00 00
(000.175946)  vcan0  0000017C   [8]  4B 00 00 00 00 00 00 00
(000.176159)  vcan0  00000130   [8]  00 00 00 00 00 00 00 00
(000.176375)  vcan0  0000014A   [8]  00 00 03 4B 7A 7F 2C EA
(000.176587)  vcan0  00000309   [8]  03 93 00 00 00 00 00 00
(000.182008)  vcan0  0000014A   [8]  00 00 03 4B 7A 7F 2C EA
(000.182219)  vcan0  00000130   [8]  00 00 00 00 00 00 00 00
(000.182441)  vcan0  0000017C   [8]  4B 00 00 00 00 00 00 00
(000.182652)  vcan0  00000309   [8]  03 AF 00 00 00 00 00 00
(000.187918)  vcan0  00000130   [8]  00 00 00 00 00 00 00 00
(000.188141)  vcan0  0000014A   [8]  00 00 03 4B 7A 7F 2C EA
(000.188362)  vcan0  0000017C   [8]  4B 00 00 00 00 00 00 00
(000.188572)  vcan0  00000309   [8]  03 CC 00 00 00 00 00 00
(000.194062)  vcan0  00000309   [8]  03 E8 00 00 00 00 00 00
(000.194288)  vcan0  0000017C   [8]  4B 00 00 00 00 00 00 00
(000.194495)  vcan0  00000130   [8]  00 00 00 00 00 00 00 00
(000.194705)  vcan0  0000014A   [8]  00 00 03 4B 7A 7F 2C EA
(000.200059)  vcan0  0000017C   [8]  4B 00 00 00 00 00 00 00
(000.200275)  vcan0  00000309   [8]  04 04 00 00 00 00 00 00
(000.200482)  vcan0  00000130   [8]  00 00 00 00 00 00 00 00
(000.200695)  vcan0  0000014A   [8]  00 00 03 4B 7A 7F 2C EA
(000.205915)  vcan0  0000017C   [8]  4B 00 00 00 00 00 00 00
(000.206132)  vcan0  00000309   [8]  04 20 00 00 00 00 00 00
(000.206344)  vcan0  0000014A   [8]  00 00 03 4B 7A 7F 2C EA
(000.206551)  vcan0  00000130   [8]  00 00 00 00 00 00 00 00
(000.212169)  vcan0  00000130   [8]  00 00 00 00 00 00 00 00
(000.212391)  vcan0  00000309   [8]  04 3D 00 00 00 00 00 00
(000.212612)  vcan0  0000017C   [8]  4B 00 00 00 00 00 00 00
(000.212823)  vcan0  0000014A   [8]  00 00 03 4B 7A 7F 2C EA
(000.217966)  vcan0  00000130   [8]  00 00 00 00 00 00 00 00
(000.218188)  vcan0  0000014A   [8]  00 00 03 4B 7A 7F 2C EA
(000.218408)  vcan0  0000017C   [8]  4B 00 00 00 00 00 00 00
(000.218618)  vcan0  00000309   [8]  03 B4 00 00 00 00 00 00
(000.224176)  vcan0  00000130   [8]  00 00 00 00 00 00 00 00
(000.224395)  vcan0  0000014A   [8]  00 00 03 4B 7A 7F 2C EA
(000.224606)  vcan0  00000309   [8]  03 3C 00 00 00 00 00 00
(000.224824)  vcan0  0000017C   [8]  4B 00 00 00 00 00 00 00
(000.230077)  vcan0  00000130   [8]  00 00 00 00 00 00 00 00
(000.230305)  vcan0  0000017C   [8]  4B 00 00 00 00 00 00 00
(000.230516)  vcan0  00000309   [8]  02 CF 00 00 00 00 00 00
(000.230725)  vcan0  0000014A   [8]  00 00 03 4B 7A 7F 2C EA
(000.235865)  vcan0  00000309   [8]  02 6E 00 00 00 00 00 00
(000.236080)  vcan0  0000014A   [8]  00 00 03 4B 7A 7F 2C EA
(000.236298)  vcan0  0000017C   [8]  4B 00 00 00 00 00 00 00
(000.236504)  vcan0  00000130   [8]  00 00 00 00 00 00 00 00
(000.241942)  vcan0  00000130   [8]  00 00 00 00 00 00 00 00
(000.242176)  vcan0  0000017C   [8]  4B 00 00 00 00 00 00 00
(000.242387)  vcan0  0000014A   [8]  00 00 03 4B 7A 7F 2C EA
(000.242597)  vcan0  00000309   [8]  02 18 00 00 00 00 00 00
(000.247981)  vcan0  00000002   [8]  00 00 00 00 00 00 00 00
(000.248201)  vcan0  0000014A   [8]  00 00 03 4B 7A 7F 2C EA
(000.248420)  vcan0  0000017C   [8]  4B 00 00 00 00 00 00 00
(000.248629)  vcan0  00000309   [8]  01 CA 00 00 00 00 00 00
(000.248835)  vcan0  00000130   [8]  00 00 00 00 00 00 00 00
(000.254032)  vcan0  00000130   [8]  00 00 00 00 00 00 00 00
(000.254260)  vcan0  0000017C   [8]  4B 00 00 00 00 00 00 00
(000.254471)  vcan0  0000014A   [8]  00 00 03 4B 7A 7F 2C EA
(000.254680)  vcan0  00000309   [8]  01 85 00 00 00 00 00 00
(000.260130)  vcan0  0000014A   [8]  00 00 03 4B 7A 7F 2C EA
(000.260346)  vcan0  00000309   [8]  01 47 00 00 00 00 00 00
(000.260564)  vcan0  0000017C   [8]  4B 00 00 00 00 00 00 00
(000.260771)  vcan0  00000130   [8]  00 00 00 00 00 00 00 00
(000.266191)  vcan0  0000014A   [8]  00 00 03 4B 7A 7F 2C EA
(000.266399)  vcan0  00000130   [8]  00 00 00 00 00 00 00 00
(000.266610)  vcan0  00000309   [8]  01 11 00 00 00 00 00 00
(000.266827)  vcan0  0000017C   [8]  4B 00 00 00 00 00 00 00
(000.272219)  vcan0  00000130   [8]  00 00 00 00 00 00 00 00
(000.272448)  vcan0  0000017C   [8]  4B 00 00 00 00 00 00 00
(000.272659)  vcan0  0000014A   [8]  00 00 03 4B 7A 7F 2C EA
(000.272869)  vcan0  00000309   [8]  00 E0 00 00 00 00 00 00
(000.278550)  vcan0  0000017C   [8]  4B 00 00 00 00 00 00 00
(000.278759)  vcan0  00000130   [8]  00 00 00 00 00 00 00 00
(000.278972)  vcan0  0000014A   [8]  00 00 03 4B 7A 7F 2C EA
(000.279182)  vcan0  00000309   [8]  00 B5 00 00 00 00 00 00
(000.284267)  vcan0  0000017C   [8]  4B 00 00 00 00 00 00 00
(000.284476)  vcan0  00000130   [8]  00 00 00 00 00 00 00 00
(000.284690)  vcan0  00000309   [8]  00 8F 00 00 00 00 00 00
(000.284900)  vcan0  0000014A   [8]  00 00 03 4B 7A 7F 2C EA
(000.290350)  vcan0  0000017C   [8]  4B 00 00 00 00 00 00 00
(000.290566)  vcan0  00000309   [8]  00 6E 00 00 00 00 00 00
(000.290773)  vcan0  00000130   [8]  00 00 00 00 00 00 00 00
(000.290984)  vcan0  0000014A   [8]  00 00 03 4B 7A 7F 2C EA
(000.296186)  vcan0  0000017C   [8]  4B 00 00 00 00 00 00 00
(000.296395)  vcan0  00000130   [8]  00 00 00 00 00 00 00 00
(000.296607)  vcan0  0000014A   [8]  00 00 03 4B 7A 7F 2C EA
(000.296817)  vcan0  00000309   [8]  00 50 00 00 00 00 00 00
(000.302119)  vcan0  0000014A   [8]  00 00 03 4B 7A 7F 2C EA
(000.302329)  vcan0  00000130   [8]  00 00 00 00 00 00 00 00
(000.302541)  vcan0  00000309   [8]  00 37 00 00 00 00 00 00
(000.302760)  vcan0  0000017C   [8]  4B 00 00 00 00 00 00 00
(000.307916)  vcan0  00000130   [8]  00 00 00 00 00 00 00 00
(000.308136)  vcan0  0000014A   [8]  00 00 03 4B 7A 7F 2C EA
(000.308357)  vcan0  0000017C   [8]  4B 00 00 00 00 00 00 00
(000.308567)  vcan0  00000309   [8]  00 20 00 00 00 00 00 00
(000.314021)  vcan0  00000309   [8]  00 0D 00 00 00 00 00 00
(000.314234)  vcan0  0000014A   [8]  00 00 03 4B 7A 7F 2C EA
(000.314440)  vcan0  00000130   [8]  00 00 00 00 00 00 00 00
(000.314658)  vcan0  0000017C   [8]  4B 00 00 00 00 00 00 00
(000.319965)  vcan0  00000309   [8]  00 04 00 00 00 00 00 00
(000.320173)  vcan0  00000130   [8]  00 00 00 00 00 00 00 00
(000.320392)  vcan0  0000017C   [8]  4B 00 00 00 00 00 00 00
(000.320601)  vcan0  0000014A   [8]  00 00 03 4B 7A 7F 2C EA
(000.326188)  vcan0  00000309   [8]  00 12 00 00 00 00 00 00
(000.326433)  vcan0  0000017C   [8]  4B 00 00 00 00 00 00 00
(000.326658)  vcan0  0000014A   [8]  00 00 03 4B 7A 7F 2C EA
(000.326873)  vcan0  00000130   [8]  00 00 00 00 00 00 00 00
(000.332588)  vcan0  0000017C   [8]  4B 00 00 00 00 00 00 00
(000.332823)  vcan0  00000309   [8]  00 1F 00 00 00 00 00 00
(000.333039)  vcan0  00000130   [8]  00 00 00 00 00 00 00 00
(000.333265)  vcan0  0000014A   [8]  00 00 03 4B 7A 7F 2C EA
(000.338515)  vcan0  0000017C   [8]  4B 00 00 00 00 00 00 00
(000.338731)  vcan0  00000309   [8]  00 29 00 00 00 00 00 00
(000.338938)  vcan0  00000130   [8]  00 00 00 00 00 00 00 00
(000.339148)  vcan0  0000014A   [8]  00 00 03 4B 7A 7F 2C EA
(000.344192)  vcan0  0000014A   [8]  00 00 03 4B 7A 7F 2C EA
(000.344406)  vcan0  00000130   [8]  00 00 00 00 00 00 00 00
(000.344620)  vcan0  00000309   [8]  00 32 00 00 00 00 00 00
(000.344842)  vcan0  0000017C   [8]  4B 00 00 00 00 00 00 00
(000.350366)  vcan0  0000017C   [8]  4B 00 00 00 00 00 00 00
(000.350585)  vcan0  00000309   [8]  00 39 00 00 00 00 00 00
(000.350796)  vcan0  0000014A   [8]  00 00 03 4B 7A 7F 2C EA
(000.351002)  vcan0  00000130   [8]  00 00 00 00 00 00 00 00
(000.356548)  vcan0  0000017C   [8]  4B 00 00 00 00 00 00 00
(000.356782)  vcan0  0000014A   [8]  00 00 03 4B 7A 7F 2C EA
(000.357007)  vcan0  00000309   [8]  00 3F 00 00 00 00 00 00
(000.357221)  vcan0  00000130   [8]  00 00 00 00 00 00 00 00
(000.362444)  vcan0  00000130   [8]  00 00 00 00 00 00 00 00
(000.362674)  vcan0  00000309   [8]  00 44 00 00 00 00 00 00
(000.363499)  vcan0  0000017C   [8]  4B 00 00 00 00 00 00 00
(000.363725)  vcan0  0000014A   [8]  00 00 03 4B 7A 7F 2C EA
(000.368250)  vcan0  0000014A   [8]  00 00 03 4B 7A 7F 2C EA
(000.368490)  vcan0  00000309   [8]  00 48 00 00 00 00 00 00
(000.368701)  vcan0  00000130   [8]  00 00 00 00 00 00 00 00
(000.368924)  vcan0  0000017C   [8]  4B 00 00 00 00 00 00 00
(000.374451)  vcan0  0000017C   [8]  4B 00 00 00 00 00 00 00
(000.374667)  vcan0  00000309   [8]  00 4B 00 00 00 00 00 00
(000.374878)  vcan0  0000014A   [8]  00 00 03 4B 7A 7F 2C EA
(000.375084)  vcan0  00000130   [8]  00 00 00 00 00 00 00 00
(000.380553)  vcan0  0000017C   [8]  4B 00 00 00 00 00 00 00
(000.380769)  vcan0  0000014A   [8]  00 00 03 4B 7A 7F 2C EA
(000.380975)  vcan0  00000130   [8]  00 00 00 00 00 00 00 00
(000.381184)  vcan0  00000309   [8]  00 4D 00 00 00 00 00 00
(000.386334)  vcan0  0000014A   [8]  00 00 03 4B 7A 7F 2C EA
(000.386545)  vcan0  00000130   [8]  00 00 00 00 00 00 00 00
(000.386768)  vcan0  0000017C   [8]  4B 00 00 00 00 00 00 00
(000.386979)  vcan0  00000309   [8]  00 4F 00 00 00 00 00 00
(000.392613)  vcan0  00000130   [8]  00 00 00 00 00 00 00 00
(000.392834)  vcan0  00000309   [8]  00 4F 00 00 00 00 00 00
(000.393045)  vcan0  0000014A   [8]  00 00 03 4B 74 4B 45 3C
(000.393263)  vcan0  0000017C   [8]  4B 00 00 00 00 00 00 00
(000.398083)  vcan0  0000014A   [8]  00 00 03 48 47 50 9D 5C
(000.398298)  vcan0  00000309   [8]  00 6D 00 00 00 00 00 00
(000.398504)  vcan0  00000130   [8]  00 00 00 00 00 00 00 00
(000.398722)  vcan0  0000017C   [8]  4B 00 00 00 00 00 00 00
(000.404597)  vcan0  00000130   [8]  00 00 00 00 00 00 00 00
(000.404832)  vcan0  0000014A   [8]  00 00 03 46 DC 7F D0 78
(000.405070)  vcan0  0000017C   [8]  4B 00 00 00 00 00 00 00
(000.405291)  vcan0  00000309   [8]  00 8D 00 00 00 00 00 00
(000.410488)  vcan0  0000014A   [8]  00 00 03 42 AA DB E5 68
(000.410699)  vcan0  00000130   [8]  00 00 00 00 00 00 00 00
(000.410922)  vcan0  0000017C   [8]  4B 00 00 00 00 00 00 00
(000.411132)  vcan0  00000309   [8]  00 C8 00 00 00 00 00 00
(000.416364)  vcan0  0000017C   [8]  4B 00 00 00 00 00 00 00
(000.416594)  vcan0  00000309   [8]  00 FE 00 00 00 00 00 00
(000.416818)  vcan0  0000014A   [8]  00 00 03 3E 64 64 27 FA
(000.417032)  vcan0  00000130   [8]  00 00 00 00 00 00 00 00
(000.422329)  vcan0  0000017C   [8]  4B 00 00 00 00 00 00 00
(000.422545)  vcan0  00000130   [8]  00 00 00 00 00 00 00 00
(000.422769)  vcan0  0000014A   [8]  00 00 03 3A 51 6B 49 88
(000.422990)  vcan0  00000309   [8]  01 16 00 00 00 00 00 00
(000.429623)  vcan0  0000014A   [8]  00 00 03 36 18 72 C1 08
(000.429852)  vcan0  0000017C   [8]  4B 00 00 00 00 00 00 00
(000.430060)  vcan0  00000130   [8]  00 00 00 00 00 00 00 00
(000.430272)  vcan0  00000309   [8]  01 48 00 00 00 00 00 00
(000.434162)  vcan0  0000017C   [8]  4B 00 00 00 00 00 00 00
(000.434377)  vcan0  00000309   [8]  01 74 00 00 00 00 00 00
(000.434583)  vcan0  00000130   [8]  00 00 00 00 00 00 00 00
(000.434795)  vcan0  0000014A   [8]  00 00 03 31 79 40 0E 74
(000.440070)  vcan0  0000017C   [8]  4B 00 00 00 00 00 00 00
(000.440284)  vcan0  00000309   [8]  01 9A 00 00 00 00 00 00
(000.440490)  vcan0  00000130   [8]  00 00 00 00 00 00 00 00
(000.440700)  vcan0  0000014A   [8]  00 00 03 2C 43 91 33 5C
(000.462982)  vcan0  0000017C   [8]  4B 00 00 00 00 00 00 00
(000.463198)  vcan0  00000309   [8]  01 C4 00 00 00 00 00 00
(000.463408)  vcan0  0000014A   [8]  00 00 03 26 78 5C FC A8
(000.463615)  vcan0  00000130   [8]  00 00 00 00 00 00 00 00
(000.465388)  vcan0  0000014A   [8]  00 00 03 21 05 9D E1 B6
(000.465599)  vcan0  00000130   [8]  00 00 00 00 00 00 00 00
(000.465821)  vcan0  0000017C   [8]  4B 00 00 00 00 00 00 00
(000.466030)  vcan0  00000309   [8]  01 E5 00 00 00 00 00 00
(000.471079)  vcan0  00000309   [8]  02 08 00 00 00 00 00 00
(000.471292)  vcan0  0000014A   [8]  00 00 03 1A A3 90 60 A0
(000.471498)  vcan0  00000130   [8]  00 00 00 00 00 00 00 00
(000.471716)  vcan0  0000017C   [8]  4B 00 00 00 00 00 00 00
(000.477214)  vcan0  00000130   [8]  00 00 00 00 00 00 00 00
(000.477434)  vcan0  0000014A   [8]  00 00 03 14 A9 56 D1 CA
(000.477645)  vcan0  00000309   [8]  02 27 00 00 00 00 00 00
(000.477863)  vcan0  0000017C   [8]  4B 00 00 00 00 00 00 00
(000.483236)  vcan0  0000017C   [8]  4B 00 00 00 00 00 00 00
(000.483445)  vcan0  00000130   [8]  00 00 00 00 00 00 00 00
(000.483658)  vcan0  0000014A   [8]  00 00 03 0D E2 F3 70 4C
(000.483868)  vcan0  00000309   [8]  02 47 00 00 00 00 00 00
(000.488984)  vcan0  0000014A   [8]  00 00 03 07 63 36 57 9C
(000.489199)  vcan0  00000309   [8]  02 62 00 00 00 00 00 00
(000.489418)  vcan0  0000017C   [8]  4B 00 00 00 00 00 00 00
(000.489625)  vcan0  00000130   [8]  00 00 00 00 00 00 00 00
(000.494980)  vcan0  00000130   [8]  00 00 00 00 00 00 00 00
(000.495204)  vcan0  00000309   [8]  02 80 00 00 00 00 00 00
(000.495425)  vcan0  0000017C   [8]  4B 00 00 00 00 00 00 00
(000.495636)  vcan0  0000014A   [8]  00 00 03 00 5A EC 0D 8E
(000.501189)  vcan0  00000309   [8]  02 99 00 00 00 00 00 00
(000.501399)  vcan0  00000130   [8]  00 00 00 00 00 00 00 00
(000.501613)  vcan0  0000014A   [8]  00 00 02 F9 70 89 3C 38
(000.501833)  vcan0  0000017C   [8]  4B 00 00 00 00 00 00 00
(000.507469)  vcan0  00000130   [8]  00 00 00 00 00 00 00 00
(000.507739)  vcan0  0000017C   [8]  4B 00 00 00 00 00 00 00
(000.507950)  vcan0  00000002   [8]  00 00 00 00 00 00 00 00
(000.508166)  vcan0  00000309   [8]  02 B2 00 00 00 00 00 00
(000.508376)  vcan0  0000014A   [8]  00 00 02 F2 24 61 1F 94
(000.513123)  vcan0  00000309   [8]  02 CB 00 00 00 00 00 00
(000.513339)  vcan0  0000014A   [8]  00 00 02 EA DB 2B 61 FA
(000.513545)  vcan0  00000130   [8]  00 00 00 00 00 00 00 00
(000.513751)  vcan0  0000018F   [8]  00 00 00 00 00 00 00 00
(000.513971)  vcan0  0000017C   [8]  4B 00 00 00 00 00 00 00
(000.514184)  vcan0  000001A3   [8]  00 00 00 00 00 00 00 00
(000.519110)  vcan0  00000130   [8]  00 00 00 00 00 00 00 00
(000.519342)  vcan0  0000017C   [8]  4B 00 00 00 00 00 00 00
(000.519554)  vcan0  00000309   [8]  02 E2 00 00 00 00 00 00
(000.519765)  vcan0  0000014A   [8]  00 00 02 E3 57 63 59 42
(000.525450)  vcan0  00000130   [8]  00 00 00 00 00 00 00 00
(000.525675)  vcan0  0000014A   [8]  00 00 02 DB C8 58 DF 08
(000.525898)  vcan0  0000017C   [8]  4B 00 00 00 00 00 00 00
(000.526110)  vcan0  00000309   [8]  02 F9 00 00 00 00 00 00
(000.531114)  vcan0  00000130   [8]  00 00 00 00 00 00 00 00
(000.531338)  vcan0  00000309   [8]  03 0F 00 00 00 00 00 00
(000.531550)  vcan0  0000014A   [8]  00 00 02 D4 11 65 C8 FE
(000.531769)  vcan0  0000017C   [8]  4B 00 00 00 00 00 00 00
(000.537493)  vcan0  0000014A   [8]  00 00 02 CC 4A 46 F8 60
(000.537709)  vcan0  00000309   [8]  03 25 00 00 00 00 00 00
(000.537915)  vcan0  00000130   [8]  00 00 00 00 00 00 00 00
(000.538134)  vcan0  0000017C   [8]  4B 00 00 00 00 00 00 00
(000.542983)  vcan0  00000130   [8]  00 00 00 00 00 00 00 00
(000.543203)  vcan0  00000309   [8]  03 39 00 00 00 00 00 00
(000.543424)  vcan0  0000017C   [8]  4B 00 00 00 00 00 00 00
(000.543634)  vcan0  0000014A   [8]  00 00 02 C4 6E 58 FD 7A
(000.549065)  vcan0  0000017C   [8]  4B 00 00 00 00 00 00 00
(000.549275)  vcan0  00000130   [8]  00 00 00 00 00 00 00 00
(000.549486)  vcan0  00000309   [8]  03 4E 00 00 00 00 00 00
(000.549698)  vcan0  0000014A   [8]  00 00 02 BC 79 8B 17 8E
(000.555211)  vcan0  00000309   [8]  03 61 00 00 00 00 00 00
(000.555421)  vcan0  00000130   [8]  00 00 00 00 00 00 00 00
(000.555643)  vcan0  0000017C   [8]  4B 00 00 00 00 00 00 00
(000.555854)  vcan0  0000014A   [8]  00 00 02 B4 7C 29 99 D2
(000.561518)  vcan0  0000014A   [8]  00 00 02 AC 63 0D 1A 7A
(000.561749)  vcan0  0000017C   [8]  4B 00 00 00 00 00 00 00
(000.561962)  vcan0  00000309   [8]  03 75 00 00 00 00 00 00
(000.562169)  vcan0  00000130   [8]  00 00 00 00 00 00 00 00
(000.567452)  vcan0  00000130   [8]  00 00 00 00 00 00 00 00
(000.567753)  vcan0  0000017C   [8]  4B 00 00 00 00 00 00 00
(000.567973)  vcan0  00000309   [8]  03 88 00 00 00 00 00 00
(000.568186)  vcan0  0000014A   [8]  00 00 02 A4 4F 26 B9 BE
(000.573651)  vcan0  0000017C   [8]  4B 00 00 00 00 00 00 00
(000.573870)  vcan0  00000309   [8]  03 9B 00 00 00 00 00 00
(000.574083)  vcan0  0000014A   [8]  00 00 02 9C 1C E2 21 EC
(000.574290)  vcan0  00000130   [8]  00 00 00 00 00 00 00 00
(000.579481)  vcan0  0000014A   [8]  00 00 02 93 F4 A7 FD 60
(000.579710)  vcan0  0000017C   [8]  4B 00 00 00 00 00 00 00
(000.579921)  vcan0  00000309   [8]  03 AD 00 00 00 00 00 00
(000.580129)  vcan0  00000130   [8]  00 00 00 00 00 00 00 00
(000.585639)  vcan0  0000014A   [8]  00 00 02 8B B0 16 D8 1A
(000.585854)  vcan0  00000309   [8]  03 BF 00 00 00 00 00 00
(000.586061)  vcan0  00000130   [8]  00 00 00 00 00 00 00 00
(000.586281)  vcan0  0000017C   [8]  4B 00 00 00 00 00 00 00
(000.591177)  vcan0  00000130   [8]  00 00 00 00 00 00 00 00
(000.591402)  vcan0  00000309   [8]  03 D0 00 00 00 00 00 00
(000.591616)  vcan0  0000014A   [8]  00 00 02 83 82 2D 82 88
(000.591836)  vcan0  0000017C   [8]  4B 00 00 00 00 00 00 00
(000.597146)  vcan0  00000309   [8]  03 E2 00 00 00 00 00 00
(000.597371)  vcan0  0000017C   [8]  4B 00 00 00 00 00 00 00
(000.597584)  vcan0  0000014A   [8]  00 00 02 7B 34 A2 53 68
(000.597791)  vcan0  00000130   [8]  00 00 00 00 00 00 00 00
(000.603094)  vcan0  0000014A   [8]  00 00 02 73 00 51 DD 24
(000.603310)  vcan0  00000309   [8]  03 F3 00 00 00 00 00 00
(000.603518)  vcan0  00000130   [8]  00 00 00 00 00 00 00 00
(000.603740)  vcan0  0000017C   [8]  4B 00 00 00 00 00 00 00
(000.609128)  vcan0  0000014A   [8]  00 00 02 6A AA CF 15 54
(000.609353)  vcan0  0000017C   [8]  4B 00 00 00 00 00 00 00
(000.609560)  vcan0  00000130   [8]  00 00 00 00 00 00 00 00
(000.609771)  vcan0  00000309   [8]  04 04 00 00 00 00 00 00
(000.615082)  vcan0  0000014A   [8]  00 00 02 62 73 9E E0 62
(000.615295)  vcan0  00000130   [8]  00 00 00 00 00 00 00 00
(000.615515)  vcan0  0000017C   [8]  4B 00 00 00 00 00 00 00
(000.615726)  vcan0  00000309   [8]  04 14 00 00 00 00 00 00
(000.621035)  vcan0  0000017C   [8]  4B 00 00 00 00 00 00 00
(000.621245)  vcan0  00000130   [8]  00 00 00 00 00 00 00 00
(000.621457)  vcan0  0000014A   [8]  00 00 02 5A 27 88 38 B2
(000.621667)  vcan0  00000309   [8]  04 25 00 00 00 00 00 00
(000.627016)  vcan0  0000017C   [8]  4B 00 00 00 00 00 00 00
(000.627231)  vcan0  0000014A   [8]  00 00 02 51 F8 B1 66 62
(000.627441)  vcan0  00000309   [8]  04 35 00 00 00 00 00 00
(000.627648)  vcan0  00000130   [8]  00 00 00 00 00 00 00 00
(000.633084)  vcan0  0000017C   [8]  4B 00 00 00 00 00 00 00
(000.633298)  vcan0  0000014A   [8]  00 00 02 49 B3 40 BC A6
(000.633509)  vcan0  00000309   [8]  04 45 00 00 00 00 00 00
(000.633715)  vcan0  00000130   [8]  00 00 00 00 00 00 00 00
(000.639085)  vcan0  00000130   [8]  00 00 00 00 00 00 00 00
(000.639309)  vcan0  0000014A   [8]  00 00 02 41 88 B4 E0 42
(000.639532)  vcan0  0000017C   [8]  4B 00 00 00 00 00 00 00
(000.639743)  vcan0  00000309   [8]  04 55 00 00 00 00 00 00
(000.645067)  vcan0  00000130   [8]  00 00 00 00 00 00 00 00
(000.645288)  vcan0  0000014A   [8]  00 00 02 39 53 68 F4 F8
(000.645510)  vcan0  0000017C   [8]  4B 00 00 00 00 00 00 00
(000.645720)  vcan0  00000309   [8]  04 65 00 00 00 00 00 00
(000.651163)  vcan0  0000014A   [8]  00 00 02 31 34 83 A8 16
(000.651380)  vcan0  00000309   [8]  04 74 00 00 00 00 00 00
(000.651601)  vcan0  0000017C   [8]  4B 00 00 00 00 00 00 00
(000.651809)  vcan0  00000130   [8]  00 00 00 00 00 00 00 00
(000.657263)  vcan0  00000309   [8]  04 84 00 00 00 00 00 00
(000.657478)  vcan0  0000014A   [8]  00 00 02 29 12 DA 8D 14
(000.657685)  vcan0  00000130   [8]  00 00 00 00 00 00 00 00
(000.657907)  vcan0  0000017C   [8]  4B 00 00 00 00 00 00 00
(000.663426)  vcan0  0000017C   [8]  4B 00 00 00 00 00 00 00
(000.663641)  vcan0  00000309   [8]  04 93 00 00 00 00 00 00
(000.663848)  vcan0  00000130   [8]  00 00 00 00 00 00 00 00
(000.664060)  vcan0  0000014A   [8]  00 00 02 21 04 E4 8E AC
(000.669522)  vcan0  00000130   [8]  00 00 00 00 00 00 00 00
(000.669748)  vcan0  00000309   [8]  04 A2 00 00 00 00 00 00
(000.669969)  vcan0  0000017C   [8]  4B 00 00 00 00 00 00 00
(000.670180)  vcan0  0000014A   [8]  00 00 02 18 FE 7D 62 DE
(000.675033)  vcan0  0000017C   [8]  4B 00 00 00 00 00 00 00
(000.675248)  vcan0  0000014A   [8]  00 00 02 11 03 80 3D 5A
(000.675458)  vcan0  00000309   [8]  04 B1 00 00 00 00 00 00
(000.675664)  vcan0  00000130   [8]  00 00 00 00 00 00 00 00
(000.681048)  vcan0  00000130   [8]  00 00 00 00 00 00 00 00
(000.681267)  vcan0  00000309   [8]  04 C0 00 00 00 00 00 00
(000.681478)  vcan0  0000014A   [8]  00 00 02 09 1B F7 57 32
(000.681699)  vcan0  0000017C   [8]  4B 00 00 00 00 00 00 00
(000.687102)  vcan0  00000309   [8]  04 CF 00 00 00 00 00 00
(000.687311)  vcan0  00000130   [8]  00 00 00 00 00 00 00 00
(000.687523)  vcan0  0000014A   [8]  00 00 02 01 3C DF 1C 24
(000.687742)  vcan0  0000017C   [8]  4B 00 00 00 00 00 00 00
(000.693187)  vcan0  00000130   [8]  00 00 00 00 00 00 00 00
(000.693408)  vcan0  0000014A   [8]  00 00 01 F9 76 60 F2 B8
(000.693620)  vcan0  00000309   [8]  04 DE 00 00 00 00 00 00
(000.693838)  vcan0  0000017C   [8]  4B 00 00 00 00 00 00 00
(000.699043)  vcan0  00000130   [8]  00 00 00 00 00 00 00 00
(000.699267)  vcan0  0000017C   [8]  4B 00 00 00 00 00 00 00
(000.699478)  vcan0  00000309   [8]  04 EC 00 00 00 00 00 00
(000.699691)  vcan0  0000014A   [8]  00 00 01 F1 B4 A2 29 8C
(000.705282)  vcan0  00000130   [8]  00 00 00 00 00 00 00 00
(000.705504)  vcan0  0000014A   [8]  00 00 01 EA 0D 53 C3 68
(000.705717)  vcan0  00000309   [8]  04 FB 00 00 00 00 00 00
(000.705936)  vcan0  0000017C   [8]  4B 00 00 00 00 00 00 00
(000.711814)  vcan0  00000309   [8]  05 09 00 00 00 00 00 00
(000.712026)  vcan0  00000130   [8]  00 00 00 00 00 00 00 00
(000.712249)  vcan0  0000017C   [8]  4B 00 00 00 00 00 00 00
(000.712460)  vcan0  0000014A   [8]  00 00 01 E2 70 81 E6 D0
(000.717116)  vcan0  0000014A   [8]  00 00 01 DA ED 27 4C 46
(000.717332)  vcan0  00000309   [8]  05 18 00 00 00 00 00 00
(000.717554)  vcan0  0000017C   [8]  4B 00 00 00 00 00 00 00
(000.717761)  vcan0  00000130   [8]  00 00 00 00 00 00 00 00
(000.723469)  vcan0  00000309   [8]  05 26 00 00 00 00 00 00
(000.723719)  vcan0  0000017C   [8]  4B 00 00 00 00 00 00 00
(000.723935)  vcan0  00000130   [8]  00 00 00 00 00 00 00 00
(000.724159)  vcan0  0000014A   [8]  00 00 01 D3 74 26 4E 98
(000.729243)  vcan0  00000130   [8]  00 00 00 00 00 00 00 00
(000.729475)  vcan0  0000017C   [8]  4B 00 00 00 00 00 00 00
(000.729716)  vcan0  0000014A   [8]  00 00 01 CC 15 83 13 90
(000.729927)  vcan0  00000309   [8]  05 34 00 00 00 00 00 00
(000.735211)  vcan0  0000017C   [8]  4B 00 00 00 00 00 00 00
(000.735441)  vcan0  0000014A   [8]  00 00 01 C4 C5 B7 A4 56
(000.735654)  vcan0  00000309   [8]  05 42 00 00 00 00 00 00
(000.735861)  vcan0  00000130   [8]  00 00 00 00 00 00 00 00
(000.741241)  vcan0  00000309   [8]  05 50 00 00 00 00 00 00
(000.741452)  vcan0  00000130   [8]  00 00 00 00 00 00 00 00
(000.741665)  vcan0  0000014A   [8]  00 00 01 BD 8C 0A A6 12
(000.741885)  vcan0  0000017C   [8]  4B 00 00 00 00 00 00 00
(000.747885)  vcan0  00000130   [8]  00 00 00 00 00 00 00 00
(000.748116)  vcan0  0000017C   [8]  4B 00 00 00 00 00 00 00
(000.748329)  vcan0  0000014A   [8]  00 00 01 B6 66 A1 1F 4A
(000.748539)  vcan0  00000309   [8]  05 5E 00 00 00 00 00 00
(000.753786)  vcan0  0000014A   [8]  00 00 01 AF 54 AE 2B E8
(000.754006)  vcan0  00000002   [8]  00 00 00 00 00 00 00 00
(000.754245)  vcan0  0000017C   [8]  4B 00 00 00 00 00 00 00
(000.754458)  vcan0  00000130   [8]  00 00 00 00 00 00 00 00
(000.754680)  vcan0  00000309   [8]  05 6C 00 00 00 00 00 00
(000.759370)  vcan0  0000017C   [8]  4B 00 00 00 00 00 00 00
(000.759589)  vcan0  0000014A   [8]  00 00 01 A8 56 AF 86 6E
(000.759797)  vcan0  00000130   [8]  00 00 00 00 00 00 00 00
(000.760009)  vcan0  00000309   [8]  05 7A 00 00 00 00 00 00
(000.765710)  vcan0  0000017C   [8]  4B 00 00 00 00 00 00 00
(000.765921)  vcan0  00000130   [8]  00 00 00 00 00 00 00 00
(000.766133)  vcan0  00000309   [8]  05 88 00 00 00 00 00 00
(000.766343)  vcan0  0000014A   [8]  00 00 01 A1 73 23 98 08
(000.771701)  vcan0  0000017C   [8]  4B 00 00 00 00 00 00 00
(000.771918)  vcan0  0000014A   [8]  00 00 01 9A A2 DD 58 0C
(000.772125)  vcan0  00000130   [8]  00 00 00 00 00 00 00 00
(000.772334)  vcan0  00000309   [8]  05 95 00 00 00 00 00 00
(000.777419)  vcan0  0000017C   [8]  4B 00 00 00 00 00 00 00
(000.777637)  vcan0  00000309   [8]  05 A3 00 00 00 00 00 00
(000.777844)  vcan0  00000130   [8]  00 00 00 00 00 00 00 00
(000.778055)  vcan0  0000014A   [8]  00 00 01 93 E3 8D 62 B0
(000.783342)  vcan0  0000014A   [8]  00 00 01 8D 44 5E 2B 68
(000.783567)  vcan0  0000017C   [8]  4B 00 00 00 00 00 00 00
(000.783775)  vcan0  00000130   [8]  00 00 00 00 00 00 00 00
(000.783987)  vcan0  00000309   [8]  05 B1 00 00 00 00 00 00
(000.789188)  vcan0  0000017C   [8]  4B 00 00 00 00 00 00 00
(000.789404)  vcan0  00000309   [8]  05 BF 00 00 00 00 00 00
(000.789611)  vcan0  00000130   [8]  00 00 00 00 00 00 00 00
(000.789821)  vcan0  0000014A   [8]  00 00 01 86 B3 CC 8A C4
(000.795057)  vcan0  00000130   [8]  00 00 00 00 00 00 00 00
(000.795277)  vcan0  00000309   [8]  05 CC 00 00 00 00 00 00
(000.795488)  vcan0  0000014A   [8]  00 00 01 80 40 5E CE F2
(000.795706)  vcan0  0000017C   [8]  4B 00 00 00 00 00 00 00
(000.801335)  vcan0  0000017C   [8]  4B 00 00 00 00 00 00 00
(000.801555)  vcan0  00000130   [8]  00 00 00 00 00 00 00 00
(000.801794)  vcan0  0000014A   [8]  00 00 01 79 DF 86 F8 0C
(000.802012)  vcan0  00000309   [8]  05 DA 00 00 00 00 00 00
(000.807518)  vcan0  0000017C   [8]  4B 00 00 00 00 00 00 00
(000.807729)  vcan0  00000130   [8]  00 00 00 00 00 00 00 00
(000.807941)  vcan0  0000014A   [8]  00 00 01 73 99 60 B5 76
(000.808151)  vcan0  00000309   [8]  05 E7 00 00 00 00 00 00
(000.813376)  vcan0  00000309   [8]  05 F5 00 00 00 00 00 00
(000.813609)  vcan0  0000017C   [8]  4B 00 00 00 00 00 00 00
(000.813823)  vcan0  0000014A   [8]  00 00 01 6D 6D 54 B0 30
(000.814031)  vcan0  00000130   [8]  00 00 00 00 00 00 00 00
(000.819223)  vcan0  00000309   [8]  06 02 00 00 00 00 00 00
(000.819447)  vcan0  0000017C   [8]  4B 00 00 00 00 00 00 00
(000.819659)  vcan0  0000014A   [8]  00 00 01 67 52 10 64 9C
(000.819866)  vcan0  00000130   [8]  00 00 00 00 00 00 00 00
(000.825163)  vcan0  0000014A   [8]  00 00 01 61 51 59 96 A2
(000.825387)  vcan0  0000017C   [8]  4B 00 00 00 00 00 00 00
(000.825594)  vcan0  00000130   [8]  00 00 00 00 00 00 00 00
(000.825804)  vcan0  00000309   [8]  06 10 00 00 00 00 00 00
(000.831248)  vcan0  00000130   [8]  00 00 00 00 00 00 00 00
(000.831473)  vcan0  0000014A   [8]  00 00 01 5B 6E 07 DE C6
(000.831685)  vcan0  00000309   [8]  06 1D 00 00 00 00 00 00
(000.831909)  vcan0  0000017C   [8]  4B 00 00 00 00 00 00 00
(000.837271)  vcan0  0000014A   [8]  00 00 01 55 9A 29 F1 D6
(000.837508)  vcan0  0000017C   [8]  4B 00 00 00 00 00 00 00
(000.837720)  vcan0  00000309   [8]  06 2A 00 00 00 00 00 00
(000.837927)  vcan0  00000130   [8]  00 00 00 00 00 00 00 00
(000.843283)  vcan0  0000017C   [8]  4B 00 00 00 00 00 00 00
(000.843542)  vcan0  0000014A   [8]  00 00 01 4F E3 02 7B 88
(000.843755)  vcan0  00000309   [8]  06 38 00 00 00 00 00 00
(000.843962)  vcan0  00000130   [8]  00 00 00 00 00 00 00 00
(000.849221)  vcan0  0000014A   [8]  00 00 01 4A 42 DB 4E B0
(000.849467)  vcan0  00000309   [8]  06 45 00 00 00 00 00 00
(000.849676)  vcan0  00000130   [8]  00 00 00 00 00 00 00 00
(000.849895)  vcan0  0000017C   [8]  4B 00 00 00 00 00 00 00
(000.855259)  vcan0  00000309   [8]  06 52 00 00 00 00 00 00
(000.855484)  vcan0  0000017C   [8]  4B 00 00 00 00 00 00 00
(000.855698)  vcan0  0000014A   [8]  00 00 01 44 C2 8F 06 88
(000.855905)  vcan0  00000130   [8]  00 00 00 00 00 00 00 00
(000.861169)  vcan0  0000017C   [8]  4B 00 00 00 00 00 00 00
(000.861385)  vcan0  00000309   [8]  06 5F 00 00 00 00 00 00
(000.861592)  vcan0  00000130   [8]  00 00 00 00 00 00 00 00
(000.861803)  vcan0  0000014A   [8]  00 00 01 3F 51 9A 98 BC
(000.867291)  vcan0  0000017C   [8]  4B 00 00 00 00 00 00 00
(000.867509)  vcan0  00000309   [8]  06 6D 00 00 00 00 00 00
(000.867717)  vcan0  00000130   [8]  00 00 00 00 00 00 00 00
(000.867928)  vcan0  0000014A   [8]  00 00 01 39 FD F9 CA B6
(000.873316)  vcan0  0000014A   [8]  00 00 01 34 BA 48 2E 0E
(000.873542)  vcan0  0000017C   [8]  4B 00 00 00 00 00 00 00
(000.873754)  vcan0  00000309   [8]  06 7A 00 00 00 00 00 00
(000.873961)  vcan0  00000130   [8]  00 00 00 00 00 00 00 00
(000.879310)  vcan0  0000014A   [8]  00 00 01 2F 9A 46 D7 AA
(000.879535)  vcan0  0000017C   [8]  4B 00 00 00 00 00 00 00
(000.879747)  vcan0  00000309   [8]  06 87 00 00 00 00 00 00
(000.879953)  vcan0  00000130   [8]  00 00 00 00 00 00 00 00
(000.885293)  vcan0  0000014A   [8]  00 00 01 2A 8A 1C 40 2A
(000.885520)  vcan0  0000017C   [8]  4B 00 00 00 00 00 00 00
(000.885728)  vcan0  00000130   [8]  00 00 00 00 00 00 00 00
(000.885939)  vcan0  00000309   [8]  06 94 00 00 00 00 00 00
(000.891371)  vcan0  00000130   [8]  00 00 00 00 00 00 00 00
(000.891605)  vcan0  0000017C   [8]  4B 00 00 00 00 00 00 00
(000.891818)  vcan0  0000014A   [8]  00 00 01 25 96 66 EE 00
(000.892028)  vcan0  00000309   [8]  06 A1 00 00 00 00 00 00
(000.897545)  vcan0  0000017C   [8]  4B 00 00 00 00 00 00 00
(000.897755)  vcan0  00000130   [8]  00 00 00 00 00 00 00 00
(000.897967)  vcan0  0000014A   [8]  00 00 01 20 BA 0A 5F 10
(000.898176)  vcan0  00000309   [8]  06 AE 00 00 00 00 00 00
(000.903329)  vcan0  0000017C   [8]  4B 00 00 00 00 00 00 00
(000.903548)  vcan0  0000014A   [8]  00 00 01 1B F6 C0 F4 30
(000.903765)  vcan0  00000130   [8]  00 00 00 00 00 00 00 00
(000.903977)  vcan0  00000309   [8]  06 BB 00 00 00 00 00 00
(000.909783)  vcan0  0000017C   [8]  4B 00 00 00 00 00 00 00
(000.909994)  vcan0  00000130   [8]  00 00 00 00 00 00 00 00
(000.910208)  vcan0  00000309   [8]  06 C8 00 00 00 00 00 00
(000.910419)  vcan0  0000014A   [8]  00 00 01 17 4B 16 25 EE
(000.915541)  vcan0  0000017C   [8]  4B 00 00 00 00 00 00 00
(000.915768)  vcan0  0000014A   [8]  00 00 01 12 B7 5D C5 FA
(000.915976)  vcan0  00000130   [8]  00 00 00 00 00 00 00 00
(000.916186)  vcan0  00000309   [8]  06 D5 00 00 00 00 00 00
(000.921662)  vcan0  00000309   [8]  06 E2 00 00 00 00 00 00
(000.921887)  vcan0  0000017C   [8]  4B 00 00 00 00 00 00 00
(000.922095)  vcan0  00000130   [8]  00 00 00 00 00 00 00 00
(000.922308)  vcan0  0000014A   [8]  00 00 01 0E 3B 34 E0 56
(000.927405)  vcan0  0000017C   [8]  4B 00 00 00 00 00 00 00
(000.927619)  vcan0  00000309   [8]  06 EF 00 00 00 00 00 00
(000.927830)  vcan0  0000014A   [8]  00 00 01 09 D8 79 57 90
(000.928037)  vcan0  00000130   [8]  00 00 00 00 00 00 00 00
(000.933259)  vcan0  0000014A   [8]  00 00 01 05 87 3E 0D 2A
(000.933475)  vcan0  00000309   [8]  06 FC 00 00 00 00 00 00
(000.933682)  vcan0  00000130   [8]  00 00 00 00 00 00 00 00
(000.933901)  vcan0  0000017C   [8]  4B 00 00 00 00 00 00 00
(000.939230)  vcan0  0000017C   [8]  4B 00 00 00 00 00 00 00
(000.939447)  vcan0  0000014A   [8]  00 00 01 01 59 34 B9 80
(000.939655)  vcan0  00000130   [8]  00 00 00 00 00 00 00 00
(000.939867)  vcan0  00000309   [8]  07 09 00 00 00 00 00 00
(000.945340)  vcan0  00000130   [8]  00 00 00 00 00 00 00 00
(000.945573)  vcan0  0000017C   [8]  4B 00 00 00 00 00 00 00
(000.945785)  vcan0  00000309   [8]  07 16 00 00 00 00 00 00
(000.945995)  vcan0  0000014A   [8]  00 00 00 FD 38 CF 46 80
(000.951218)  vcan0  00000309   [8]  07 23 00 00 00 00 00 00
(000.951444)  vcan0  0000017C   [8]  4B 00 00 00 00 00 00 00
(000.951656)  vcan0  0000014A   [8]  00 00 00 F9 3A BE 04 D2
(000.951863)  vcan0  00000130   [8]  00 00 00 00 00 00 00 00
(000.957205)  vcan0  0000014A   [8]  00 00 00 F5 58 55 24 62
(000.957414)  vcan0  00000130   [8]  00 00 00 00 00 00 00 00
(000.957637)  vcan0  0000017C   [8]  4B 00 00 00 00 00 00 00
(000.957849)  vcan0  00000309   [8]  07 30 00 00 00 00 00 00
(000.963107)  vcan0  00000130   [8]  00 00 00 00 00 00 00 00
(000.963332)  vcan0  0000014A   [8]  00 00 00 F1 87 4B 54 AA
(000.963553)  vcan0  0000017C   [8]  4B 00 00 00 00 00 00 00
(000.963765)  vcan0  00000309   [8]  07 3D 00 00 00 00 00 00
(000.969154)  vcan0  0000014A   [8]  00 00 00 ED CA 66 B7 D4
(000.969366)  vcan0  00000130   [8]  00 00 00 00 00 00 00 00
(000.969578)  vcan0  00000309   [8]  07 49 00 00 00 00 00 00
(000.969796)  vcan0  0000017C   [8]  4B 00 00 00 00 00 00 00
(000.975219)  vcan0  00000309   [8]  07 56 00 00 00 00 00 00
(000.975429)  vcan0  00000130   [8]  00 00 00 00 00 00 00 00
(000.975650)  vcan0  0000017C   [8]  4B 00 00 00 00 00 00 00
(000.975861)  vcan0  0000014A   [8]  00 00 00 EA 33 BA 3B 2C
(000.981122)  vcan0  0000017C   [8]  4B 00 00 00 00 00 00 00
(000.981332)  vcan0  00000130   [8]  00 00 00 00 00 00 00 00
(000.981545)  vcan0  00000309   [8]  07 63 00 00 00 00 00 00
(000.981756)  vcan0  0000014A   [8]  00 00 00 E6 87 04 D6 FE
(000.987313)  vcan0  0000014A   [8]  00 00 00 E3 52 93 CF 02
(000.987530)  vcan0  00000309   [8]  07 6F 00 00 00 00 00 00
(000.987750)  vcan0  0000017C   [8]  4B 00 00 00 00 00 00 00
(000.987957)  vcan0  00000130   [8]  00 00 00 00 00 00 00 00
(000.993343)  vcan0  0000014A   [8]  00 00 00 DF 53 D3 58 D4
(000.993562)  vcan0  00000309   [8]  07 7C 00 00 00 00 00 00
(000.993783)  vcan0  0000017C   [8]  4B 00 00 00 00 00 00 00
(000.993990)  vcan0  00000130   [8]  00 00 00 00 00 00 00 00
(000.999170)  vcan0  0000017C   [8]  4B 00 00 00 00 00 00 00
(000.999380)  vcan0  00000002   [8]  00 00 00 00 00 00 00 00
(000.999593)  vcan0  00000309   [8]  07 7E 00 00 00 00 00 00
(000.999804)  vcan0  0000014A   [8]  00 00 00 DC E7 E1 3F C6
(001.000010)  vcan0  00000130   [8]  00 00 00 00 00 00 00 00
(001.005131)  vcan0  00000130   [8]  00 00 00 00 00 00 00 00
(001.005359)  vcan0  0000017C   [8]  4B 00 00 00 00 00 00 00
(001.005571)  vcan0  0000014A   [8]  00 00 00 D8 C6 1B 0F BE
(001.005781)  vcan0  00000309   [8]  07 88 00 00 00 00 00 00
(001.011355)  vcan0  0000014A   [8]  00 00 00 D6 02 91 0B 5A
(001.011576)  vcan0  0000017C   [8]  4B 00 00 00 00 00 00 00
(001.011783)  vcan0  00000130   [8]  00 00 00 00 00 00 00 00
(001.011993)  vcan0  00000309   [8]  07 81 00 00 00 00 00 00
(001.012207)  vcan0  000001A4   [8]  00 67 00 00 00 00 00 00
(001.012422)  vcan0  00000326   [8]  00 00 00 00 00 00 00 00
(001.012636)  vcan0  00000374   [8]  00 00 00 00 00 00 00 00
(001.012847)  vcan0  000001A3   [8]  00 00 00 00 00 00 00 00
(001.013052)  vcan0  0000018F   [8]  00 00 00 00 00 00 00 00
(001.013264)  vcan0  0000037B   [8]  00 00 00 00 00 00 00 00
(001.017201)  vcan0  00000309   [8]  07 8B 00 00 00 00 00 00
(001.017411)  vcan0  00000130   [8]  00 00 00 00 00 00 00 00
(001.017631)  vcan0  0000017C   [8]  4B 00 00 00 00 00 00 00
(001.017841)  vcan0  0000014A   [8]  00 00 00 D2 F8 31 03 34
(001.023471)  vcan0  00000130   [8]  00 00 00 00 00 00 00 00
(001.023699)  vcan0  00000309   [8]  07 8C 00 00 00 00 00 00
(001.023910)  vcan0  0000014A   [8]  00 00 00 D0 42 4C 9E 80
(001.024130)  vcan0  0000017C   [8]  4B 00 00 00 00 00 00 00
(001.029465)  vcan0  00000309   [8]  07 97 00 00 00 00 00 00
(001.029767)  vcan0  0000017C   [8]  4B 00 00 00 00 00 00 00
(001.029980)  vcan0  0000014A   [8]  00 00 00 CC CE 1D A6 FE
(001.030186)  vcan0  00000130   [8]  00 00 00 00 00 00 00 00
(001.035540)  vcan0  00000309   [8]  07 96 00 00 00 00 00 00
(001.035770)  vcan0  00000130   [8]  00 00 00 00 00 00 00 00
(001.036002)  vcan0  0000017C   [8]  4B 00 00 00 00 00 00 00
(001.036214)  vcan0  0000014A   [8]  00 00 00 CA 38 4C 08 18
(001.041204)  vcan0  0000017C   [8]  4B 00 00 00 00 00 00 00
(001.041421)  vcan0  0000014A   [8]  00 00 00 C7 5F B5 26 32
(001.041629)  vcan0  00000130   [8]  00 00 00 00 00 00 00 00
(001.041842)  vcan0  00000309   [8]  07 A2 00 00 00 00 00 00
(001.047214)  vcan0  0000014A   [8]  00 00 00 C4 F3 3E 56 80
(001.047441)  vcan0  0000017C   [8]  4B 00 00 00 00 00 00 00
(001.047653)  vcan0  00000309   [8]  07 A3 00 00 00 00 00 00
(001.047860)  vcan0  00000130   [8]  00 00 00 00 00 00 00 00
(001.053197)  vcan0  0000014A   [8]  00 00 00 C1 E8 B4 FA 86
(001.053408)  vcan0  00000130   [8]  00 00 00 00 00 00 00 00
(001.053621)  vcan0  00000309   [8]  07 AF 00 00 00 00 00 00
(001.053841)  vcan0  0000017C   [8]  4B 00 00 00 00 00 00 00
(001.059206)  vcan0  00000309   [8]  07 B0 00 00 00 00 00 00
(001.059416)  vcan0  00000130   [8]  00 00 00 00 00 00 00 00
(001.059636)  vcan0  0000017C   [8]  4B 00 00 00 00 00 00 00
(001.059847)  vcan0  0000014A   [8]  00 00 00 BF 9A E7 78 68
(001.065192)  vcan0  0000017C   [8]  4B 00 00 00 00 00 00 00
(001.065402)  vcan0  00000130   [8]  00 00 00 00 00 00 00 00
(001.065614)  vcan0  00000309   [8]  07 BE 00 00 00 00 00 00
(001.065824)  vcan0  0000014A   [8]  00 00 00 BD 06 A3 FD 74
(001.071300)  vcan0  00000130   [8]  00 00 00 00 00 00 00 00
(001.071527)  vcan0  0000014A   [8]  00 00 00 BA D5 E0 C3 A6
(001.071749)  vcan0  0000017C   [8]  4B 00 00 00 00 00 00 00
(001.071961)  vcan0  00000309   [8]  07 C0 00 00 00 00 00 00
(001.077219)  vcan0  00000309   [8]  07 CE 00 00 00 00 00 00
(001.077437)  vcan0  0000014A   [8]  00 00 00 B8 2D 0D 46 2E
(001.077702)  vcan0  0000017C   [8]  4B 00 00 00 00 00 00 00
(001.077909)  vcan0  00000130   [8]  00 00 00 00 00 00 00 00
(001.083552)  vcan0  00000130   [8]  00 00 00 00 00 00 00 00
(001.083792)  vcan0  0000014A   [8]  00 00 00 B6 1A 7D 7B 1C
(001.084032)  vcan0  0000017C   [8]  4B 00 00 00 00 00 00 00
(001.084256)  vcan0  00000309   [8]  07 D0 00 00 00 00 00 00
(001.089725)  vcan0  00000130   [8]  00 00 00 00 00 00 00 00
(001.089965)  vcan0  00000309   [8]  07 DF 00 00 00 00 00 00
(001.090189)  vcan0  0000017C   [8]  4B 00 00 00 00 00 00 00
(001.090401)  vcan0  0000014A   [8]  00 00 00 B3 CE A2 CF F2
(001.095146)  vcan0  00000130   [8]  00 00 00 00 00 00 00 00
(001.095371)  vcan0  00000309   [8]  07 E2 00 00 00 00 00 00
(001.095641)  vcan0  0000014A   [8]  00 00 00 B1 D9 86 13 46
(001.095862)  vcan0  0000017C   [8]  4B 00 00 00 00 00 00 00
(001.101456)  vcan0  0000017C   [8]  4B 00 00 00 00 00 00 00
(001.101675)  vcan0  00000130   [8]  00 00 00 00 00 00 00 00
(001.101900)  vcan0  00000309   [8]  07 F1 00 00 00 00 00 00
(001.102123)  vcan0  0000014A   [8]  00 00 00 AF 83 27 E2 6C
(001.107182)  vcan0  00000309   [8]  07 F5 00 00 00 00 00 00
(001.107398)  vcan0  00000130   [8]  00 00 00 00 00 00 00 00
(001.107634)  vcan0  0000017C   [8]  4B 00 00 00 00 00 00 00
(001.107857)  vcan0  0000014A   [8]  00 00 00 AD A7 BA 48 EA
(001.113366)  vcan0  00000309   [8]  08 04 00 00 00 00 00 00
(001.113582)  vcan0  0000014A   [8]  00 00 00 AB A0 41 91 FC
(001.113803)  vcan0  0000017C   [8]  4B 00 00 00 00 00 00 00
(001.114010)  vcan0  00000130   [8]  00 00 00 00 00 00 00 00
(001.119074)  vcan0  0000014A   [8]  00 00 00 A9 E2 AE A2 F2
(001.119300)  vcan0  0000017C   [8]  4B 00 00 00 00 00 00 00
(001.119508)  vcan0  00000130   [8]  00 00 00 00 00 00 00 00
(001.119718)  vcan0  00000309   [8]  08 08 00 00 00 00 00 00
(001.125241)  vcan0  00000309   [8]  08 18 00 00 00 00 00 00
(001.125467)  vcan0  0000017C   [8]  4B 00 00 00 00 00 00 00
(001.125674)  vcan0  00000130   [8]  00 00 00 00 00 00 00 00
(001.125885)  vcan0  0000014A   [8]  00 00 00 A7 CE 76 37 E6
(001.131260)  vcan0  0000017C   [8]  4B 00 00 00 00 00 00 00
(001.131471)  vcan0  00000130   [8]  00 00 00 00 00 00 00 00
(001.131683)  vcan0  0000014A   [8]  00 00 00 A6 2D DA 11 48
(001.131892)  vcan0  00000309   [8]  08 1D 00 00 00 00 00 00
(001.137184)  vcan0  00000130   [8]  00 00 00 00 00 00 00 00
(001.137410)  vcan0  00000309   [8]  08 2D 00 00 00 00 00 00
(001.137631)  vcan0  0000017C   [8]  4B 00 00 00 00 00 00 00
(001.137842)  vcan0  0000014A   [8]  00 00 00 A4 61 D3 29 EE
(001.143083)  vcan0  0000014A   [8]  00 00 00 A2 D8 E6 81 46
(001.143293)  vcan0  00000130   [8]  00 00 00 00 00 00 00 00
(001.143514)  vcan0  0000017C   [8]  4B 00 00 00 00 00 00 00
(001.143725)  vcan0  00000309   [8]  08 32 00 00 00 00 00 00
(001.149166)  vcan0  0000014A   [8]  00 00 00 A0 FC FC A1 CA
(001.149383)  vcan0  00000309   [8]  08 42 00 00 00 00 00 00
(001.149603)  vcan0  0000017C   [8]  4B 00 00 00 00 00 00 00
(001.149809)  vcan0  00000130   [8]  00 00 00 00 00 00 00 00
(001.155156)  vcan0  0000014A   [8]  00 00 00 9F 90 F2 F7 26
(001.155372)  vcan0  00000309   [8]  08 47 00 00 00 00 00 00
(001.155592)  vcan0  0000017C   [8]  4B 00 00 00 00 00 00 00
(001.155799)  vcan0  00000130   [8]  00 00 00 00 00 00 00 00
(001.161175)  vcan0  0000017C   [8]  4B 00 00 00 00 00 00 00
(001.161390)  vcan0  0000014A   [8]  00 00 00 9E 00 51 A6 24
(001.161601)  vcan0  00000309   [8]  08 58 00 00 00 00 00 00
(001.161808)  vcan0  00000130   [8]  00 00 00 00 00 00 00 00
(001.167139)  vcan0  00000130   [8]  00 00 00 00 00 00 00 00
(001.167370)  vcan0  0000017C   [8]  4B 00 00 00 00 00 00 00
(001.167581)  vcan0  00000309   [8]  08 5E 00 00 00 00 00 00
(001.167793)  vcan0  0000014A   [8]  00 00 00 9C 9F 42 3F 92
(001.173394)  vcan0  0000014A   [8]  00 00 00 9B 03 D1 98 1A
(001.173605)  vcan0  00000130   [8]  00 00 00 00 00 00 00 00
(001.173818)  vcan0  00000309   [8]  08 6F 00 00 00 00 00 00
(001.174037)  vcan0  0000017C   [8]  4B 00 00 00 00 00 00 00
(001.179153)  vcan0  0000014A   [8]  00 00 00 99 C3 9A 4A 42
(001.179365)  vcan0  00000130   [8]  00 00 00 00 00 00 00 00
(001.179587)  vcan0  0000017C   [8]  4B 00 00 00 00 00 00 00
(001.179799)  vcan0  00000309   [8]  08 74 00 00 00 00 00 00
(001.185499)  vcan0  00000309   [8]  08 86 00 00 00 00 00 00
(001.185719)  vcan0  00000130   [8]  00 00 00 00 00 00 00 00
(001.185967)  vcan0  0000017C   [8]  4B 00 00 00 00 00 00 00
(001.186183)  vcan0  0000014A   [8]  00 00 00 98 5C DB 68 28
(001.191331)  vcan0  00000309   [8]  08 8C 00 00 00 00 00 00
(001.191557)  vcan0  0000017C   [8]  4B 00 00 00 00 00 00 00
(001.191764)  vcan0  00000130   [8]  00 00 00 00 00 00 00 00
(001.191976)  vcan0  0000014A   [8]  00 00 00 97 2C 7B B8 B8
(001.197231)  vcan0  0000017C   [8]  4B 00 00 00 00 00 00 00
(001.197449)  vcan0  00000309   [8]  08 9D 00 00 00 00 00 00
(001.197656)  vcan0  00000130   [8]  00 00 00 00 00 00 00 00
(001.197867)  vcan0  0000014A   [8]  00 00 00 95 C3 EB 2D 52
(001.203403)  vcan0  0000017C   [8]  4B 00 00 00 00 00 00 00
(001.203618)  vcan0  00000309   [8]  08 A3 00 00 00 00 00 00
(001.203833)  vcan0  00000130   [8]  00 00 00 00 00 00 00 00
(001.204045)  vcan0  0000014A   [8]  00 00 00 94 AC A2 20 04
(001.209812)  vcan0  0000014A   [8]  00 00 00 93 75 7A D5 36
(001.210037)  vcan0  0000017C   [8]  4B 00 00 00 00 00 00 00
(001.210244)  vcan0  00000130   [8]  00 00 00 00 00 00 00 00
(001.210455)  vcan0  00000309   [8]  08 B5 00 00 00 00 00 00
(001.215929)  vcan0  0000017C   [8]  4B 00 00 00 00 00 00 00
(001.216139)  vcan0  00000130   [8]  00 00 00 00 00 00 00 00
(001.216350)  vcan0  0000014A   [8]  00 00 00 92 63 FD C9 02
(001.216559)  vcan0  00000309   [8]  08 BB 00 00 00 00 00 00
(001.221116)  vcan0  0000014A   [8]  00 00 00 91 2E 61 24 14
(001.221342)  vcan0  0000017C   [8]  4B 00 00 00 00 00 00 00
(001.221556)  vcan0  00000309   [8]  08 CC 00 00 00 00 00 00
(001.221763)  vcan0  00000130   [8]  00 00 00 00 00 00 00 00
(001.227505)  vcan0  0000014A   [8]  00 00 00 90 38 36 2E 26
(001.227714)  vcan0  00000130   [8]  00 00 00 00 00 00 00 00
(001.227934)  vcan0  0000017C   [8]  4B 00 00 00 00 00 00 00
(001.228144)  vcan0  00000309   [8]  08 D3 00 00 00 00 00 00
(001.233723)  vcan0  00000130   [8]  00 00 00 00 00 00 00 00
(001.233956)  vcan0  0000017C   [8]  4B 00 00 00 00 00 00 00
(001.234167)  vcan0  00000309   [8]  08 E5 00 00 00 00 00 00
(001.234378)  vcan0  0000014A   [8]  00 00 00 8F 28 32 E6 7C
(001.239472)  vcan0  0000014A   [8]  00 00 00 8E 3A F2 D8 1A
(001.239734)  vcan0  00000309   [8]  08 EB 00 00 00 00 00 00
(001.239954)  vcan0  00000130   [8]  00 00 00 00 00 00 00 00
(001.240193)  vcan0  0000017C   [8]  4B 00 00 00 00 00 00 00
(001.245429)  vcan0  00000130   [8]  00 00 00 00 00 00 00 00
(001.245639)  vcan0  00000002   [8]  00 00 00 00 00 00 00 00
(001.245861)  vcan0  00000309   [8]  08 FD 00 00 00 00 00 00
(001.246073)  vcan0  0000014A   [8]  00 00 00 8D 2C 06 F6 02
(001.246294)  vcan0  0000017C   [8]  4B 00 00 00 00 00 00 00
(001.251291)  vcan0  00000130   [8]  00 00 00 00 00 00 00 00
(001.251517)  vcan0  0000014A   [8]  00 00 00 8C 54 64 20 02
(001.251739)  vcan0  0000017C   [8]  4B 00 00 00 00 00 00 00
(001.251950)  vcan0  00000309   [8]  09 04 00 00 00 00 00 00
(001.257250)  vcan0  0000014A   [8]  00 00 00 8B 6F 28 C3 14
(001.257465)  vcan0  00000309   [8]  09 16 00 00 00 00 00 00
(001.257672)  vcan0  00000130   [8]  00 00 00 00 00 00 00 00
(001.257892)  vcan0  0000017C   [8]  4B 00 00 00 00 00 00 00
(001.263386)  vcan0  00000309   [8]  09 1D 00 00 00 00 00 00
(001.263598)  vcan0  00000130   [8]  00 00 00 00 00 00 00 00
(001.263812)  vcan0  0000014A   [8]  00 00 00 8A 9E CE E6 48
(001.264034)  vcan0  0000017C   [8]  4B 00 00 00 00 00 00 00
(001.269291)  vcan0  0000014A   [8]  00 00 00 89 B3 7D 76 84
(001.269501)  vcan0  00000130   [8]  00 00 00 00 00 00 00 00
(001.269748)  vcan0  0000017C   [8]  4B 00 00 00 00 00 00 00
(001.269959)  vcan0  00000309   [8]  09 2E 00 00 00 00 00 00
(001.275650)  vcan0  00000130   [8]  00 00 00 00 00 00 00 00
(001.275892)  vcan0  0000014A   [8]  00 00 00 88 FC 96 A3 70
(001.276116)  vcan0  0000017C   [8]  4B 00 00 00 00 00 00 00
(001.276327)  vcan0  00000309   [8]  09 35 00 00 00 00 00 00
(001.281350)  vcan0  0000014A   [8]  00 00 00 88 31 3C E8 6E
(001.281576)  vcan0  0000017C   [8]  4B 00 00 00 00 00 00 00
(001.281783)  vcan0  00000130   [8]  00 00 00 00 00 00 00 00
(001.282068)  vcan0  00000309   [8]  09 47 00 00 00 00 00 00
(001.287493)  vcan0  00000130   [8]  00 00 00 00 00 00 00 00
(001.287745)  vcan0  0000017C   [8]  4B 00 00 00 00 00 00 00
(001.287971)  vcan0  00000309   [8]  09 4E 00 00 00 00 00 00
(001.288194)  vcan0  0000014A   [8]  00 00 00 87 7D A9 71 76
(001.293670)  vcan0  00000309   [8]  09 60 00 00 00 00 00 00
(001.293903)  vcan0  0000014A   [8]  00 00 00 86 BD 19 02 EA
(001.294120)  vcan0  00000130   [8]  00 00 00 00 00 00 00 00
(001.294362)  vcan0  0000017C   [8]  4B 00 00 00 00 00 00 00
(001.299372)  vcan0  00000309   [8]  09 67 00 00 00 00 00 00
(001.299598)  vcan0  0000017C   [8]  4B 00 00 00 00 00 00 00
(001.299805)  vcan0  00000130   [8]  00 00 00 00 00 00 00 00
(001.300017)  vcan0  0000014A   [8]  00 00 00 86 14 A4 0B FC
(001.305295)  vcan0  0000017C   [8]  4B 00 00 00 00 00 00 00
(001.305512)  vcan0  00000309   [8]  09 79 00 00 00 00 00 00
(001.305724)  vcan0  0000014A   [8]  00 00 00 85 6B 27 FB CE
(001.305931)  vcan0  00000130   [8]  00 00 00 00 00 00 00 00
(001.311234)  vcan0  0000014A   [8]  00 00 00 84 CB 6C 27 EC
(001.311463)  vcan0  00000309   [8]  09 80 00 00 00 00 00 00
(001.311692)  vcan0  00000130   [8]  00 00 00 00 00 00 00 00
(001.311926)  vcan0  0000017C   [8]  4B 00 00 00 00 00 00 00
(001.317237)  vcan0  0000014A   [8]  00 00 00 0D 95 D7 F7 7E
(001.317463)  vcan0  0000017C   [8]  4B 00 00 00 00 00 00 00
(001.317671)  vcan0  00000130   [8]  00 00 00 00 00 00 00 00
(001.317882)  vcan0  00000309   [8]  09 92 00 00 00 00 00 00
(001.323168)  vcan0  00000130   [8]  00 00 00 00 00 00 00 00
(001.323397)  vcan0  0000014A   [8]  01 FF FF D5 1F 74 AE 28
(001.323610)  vcan0  00000309   [8]  09 99 00 00 00 00 00 00
(001.323830)  vcan0  0000017C   [8]  4B 00 00 00 00 00 00 00
(001.329233)  vcan0  0000017C   [8]  4B 00 00 00 00 00 00 00
(001.329449)  vcan0  00000309   [8]  09 AA 00 00 00 00 00 00
(001.329660)  vcan0  0000014A   [8]  01 FF FF D4 DC FF BE C4
(001.329866)  vcan0  00000130   [8]  00 00 00 00 00 00 00 00
(001.335171)  vcan0  00000309   [8]  09 B2 00 00 00 00 00 00
(001.335413)  vcan0  00000130   [8]  00 00 00 00 00 00 00 00
(001.335627)  vcan0  0000014A   [8]  01 FF FF D5 2A E6 DA 9C
(001.335847)  vcan0  0000017C   [8]  4B 00 00 00 00 00 00 00
(001.341425)  vcan0  00000309   [8]  09 C2 00 00 00 00 00 00
(001.341637)  vcan0  00000130   [8]  00 00 00 00 00 00 00 00
(001.341860)  vcan0  0000017C   [8]  4B 00 00 00 00 00 00 00
(001.342072)  vcan0  0000014A   [8]  01 FF FF D6 72 98 E6 26
(001.347286)  vcan0  00000130   [8]  00 00 00 00 00 00 00 00
(001.347571)  vcan0  00000309   [8]  09 CA 00 00 00 00 00 00
(001.347785)  vcan0  0000014A   [8]  01 FF FF D8 3E B9 6A 02
(001.348005)  vcan0  0000017C   [8]  4B 00 00 00 00 00 00 00
(001.353432)  vcan0  0000017C   [8]  4B 00 00 00 00 00 00 00
(001.353663)  vcan0  00000309   [8]  09 D9 00 00 00 00 00 00
(001.353878)  vcan0  00000130   [8]  00 00 00 00 00 00 00 00
(001.354101)  vcan0  0000014A   [8]  01 FF FF DB 3B AD 72 9E
(001.359539)  vcan0  00000309   [8]  09 E1 00 00 00 00 00 00
(001.359783)  vcan0  0000017C   [8]  4B 00 00 00 00 00 00 00
(001.360010)  vcan0  0000014A   [8]  01 FF FF DE 4D 5C DB 18
(001.360224)  vcan0  00000130   [8]  00 00 00 00 00 00 00 00
(001.365322)  vcan0  0000017C   [8]  4B 00 00 00 00 00 00 00
(001.365538)  vcan0  00000309   [8]  09 F1 00 00 00 00 00 00
(001.365749)  vcan0  0000014A   [8]  01 FF FF E2 1A F5 67 3C
(001.365956)  vcan0  00000130   [8]  00 00 00 00 00 00 00 00
(001.371358)  vcan0  00000309   [8]  09 F9 00 00 00 00 00 00
(001.371574)  vcan0  0000014A   [8]  01 FF FF E5 C1 FB 05 60
(001.371782)  vcan0  00000130   [8]  00 00 00 00 00 00 00 00
(001.372003)  vcan0  0000017C   [8]  4B 00 00 00 00 00 00 00
(001.377649)  vcan0  0000017C   [8]  4B 00 00 00 00 00 00 00
(001.377859)  vcan0  00000130   [8]  00 00 00 00 00 00 00 00
(001.378099)  vcan0  0000014A   [8]  01 FF FF EA 3D 10 03 82
(001.378309)  vcan0  00000309   [8]  0A 09 00 00 00 00 00 00
(001.383276)  vcan0  00000130   [8]  00 00 00 00 00 00 00 00
(001.383511)  vcan0  0000017C   [8]  4B 00 00 00 00 00 00 00
(001.383725)  vcan0  00000309   [8]  0A 10 00 00 00 00 00 00
(001.383935)  vcan0  0000014A   [8]  01 FF FF EE 6A C4 5B 7A
(001.389193)  vcan0  00000130   [8]  00 00 00 00 00 00 00 00
(001.389426)  vcan0  0000017C   [8]  4B 00 00 00 00 00 00 00
(001.389638)  vcan0  00000309   [8]  0A 21 00 00 00 00 00 00
(001.389849)  vcan0  0000014A   [8]  01 FF FF F3 23 F9 6D E0
(001.395235)  vcan0  00000309   [8]  0A 29 00 00 00 00 00 00
(001.395446)  vcan0  00000130   [8]  00 00 00 00 00 00 00 00
(001.395658)  vcan0  0000014A   [8]  01 FF FF F7 76 D4 52 92
(001.395878)  vcan0  0000017C   [8]  4B 00 00 00 00 00 00 00
(001.401275)  vcan0  0000017C   [8]  4B 00 00 00 00 00 00 00
(001.401498)  vcan0  00000309   [8]  0A 3A 00 00 00 00 00 00
(001.401706)  vcan0  00000130   [8]  00 00 00 00 00 00 00 00
(001.401918)  vcan0  0000014A   [8]  01 FF FF FC 44 11 7D 46
(001.407338)  vcan0  0000014A   [8]  00 00 00 00 A1 03 0E 7C
(001.407555)  vcan0  00000309   [8]  0A 41 00 00 00 00 00 00
(001.407781)  vcan0  0000017C   [8]  4B 00 00 00 00 00 00 00
(001.407988)  vcan0  00000130   [8]  00 00 00 00 00 00 00 00
(001.413493)  vcan0  0000014A   [8]  00 00 00 05 57 1D 98 0A
(001.413711)  vcan0  00000309   [8]  0A 52 00 00 00 00 00 00
(001.413932)  vcan0  0000017C   [8]  3C 77 00 00 00 00 00 00
(001.414139)  vcan0  00000130   [8]  00 00 00 00 00 00 00 00
(001.419279)  vcan0  00000130   [8]  00 00 00 00 00 00 00 00
(001.419511)  vcan0  0000017C   [8]  34 65 00 00 00 00 00 00
(001.419725)  vcan0  0000014A   [8]  00 00 00 09 AC 27 DC E4
(001.419934)  vcan0  00000309   [8]  0A 5A 00 00 00 00 00 00
(001.425154)  vcan0  0000017C   [8]  23 14 00 00 00 00 00 00
(001.425372)  vcan0  00000309   [8]  0A 6B 00 00 00 00 00 00
(001.425644)  vcan0  00000130   [8]  00 00 00 00 00 00 00 00
(001.425855)  vcan0  0000014A   [8]  00 00 00 0E 48 A9 61 B6
(001.431415)  vcan0  0000014A   [8]  00 00 00 12 71 3D 24 7E
(001.431641)  vcan0  0000017C   [8]  1B 6B 00 00 00 00 00 00
(001.431852)  vcan0  00000309   [8]  0A 73 00 00 00 00 00 00
(001.432059)  vcan0  00000130   [8]  00 00 00 00 00 00 00 00
(001.437708)  vcan0  00000309   [8]  0A 83 00 00 00 00 00 00
(001.437937)  vcan0  0000014A   [8]  00 00 00 16 E1 24 A5 8A
(001.438152)  vcan0  00000130   [8]  00 00 00 00 00 00 00 00
(001.438389)  vcan0  0000017C   [8]  0B 19 00 00 00 00 00 00
(001.443754)  vcan0  0000014A   [8]  00 00 00 1A D9 FE 09 92
(001.444000)  vcan0  0000017C   [8]  04 85 00 00 00 00 00 00
(001.444216)  vcan0  00000130   [8]  00 00 00 00 00 00 00 00
(001.444438)  vcan0  00000309   [8]  0A 89 00 00 00 00 00 00
(001.449284)  vcan0  0000017C   [8]  00 00 00 00 00 00 06 80
(001.449496)  vcan0  00000130   [8]  00 00 00 00 00 00 00 00
(001.449709)  vcan0  0000014A   [8]  00 00 00 1F 15 8C 64 46
(001.449919)  vcan0  00000309   [8]  0A 97 00 00 00 00 00 00
(001.455186)  vcan0  0000017C   [8]  00 00 00 00 00 00 09 B0
(001.455397)  vcan0  00000130   [8]  00 00 00 00 00 00 00 00
(001.455609)  vcan0  00000309   [8]  0A 9C 00 00 00 00 00 00
(001.455820)  vcan0  0000014A   [8]  00 00 00 22 D9 46 25 02
(001.461288)  vcan0  0000017C   [8]  00 00 00 00 00 00 11 78
(001.461503)  vcan0  0000014A   [8]  00 00 00 26 DE 0F 70 02
(001.461714)  vcan0  00000309   [8]  0A A8 00 00 00 00 00 00
(001.461920)  vcan0  00000130   [8]  00 00 00 00 00 00 00 00
(001.467575)  vcan0  0000017C   [8]  00 00 00 00 00 00 12 C8
(001.467789)  vcan0  00000309   [8]  0A AA 00 00 00 00 00 00
(001.467996)  vcan0  00000130   [8]  00 00 00 00 00 00 00 00
(001.468206)  vcan0  0000014A   [8]  00 00 00 2A 5F B3 B7 40
(001.473198)  vcan0  00000130   [8]  00 00 00 00 00 00 00 00
(001.473417)  vcan0  0000014A   [8]  01 FF FF B3 2A 1F 99 72
(001.473637)  vcan0  0000017C   [8]  00 00 00 00 00 00 13 30
(001.473846)  vcan0  00000309   [8]  0A B2 00 00 00 00 00 00
(001.479196)  vcan0  0000017C   [8]  00 00 00 00 00 00 13 30
(001.479412)  vcan0  0000014A   [8]  01 FF FF B5 77 BE 8A A2
(001.479619)  vcan0  00000130   [8]  00 00 00 00 00 00 00 00
(001.479830)  vcan0  00000309   [8]  0A B1 00 00 00 00 00 00
(001.485182)  vcan0  0000017C   [8]  00 00 00 00 00 00 13 30
(001.485393)  vcan0  00000130   [8]  00 00 00 00 00 00 00 00
(001.485605)  vcan0  00000309   [8]  0A B6 00 00 00 00 00 00
(001.485816)  vcan0  0000014A   [8]  01 FF FF B9 4A 6E F0 C8
(001.491498)  vcan0  0000017C   [8]  00 00 00 00 00 00 13 30
(001.491711)  vcan0  00000002   [8]  00 00 00 00 00 00 00 00
(001.491924)  vcan0  00000309   [8]  0A B3 00 00 00 00 00 00
(001.492131)  vcan0  00000130   [8]  00 00 00 00 00 00 00 00
(001.492342)  vcan0  0000014A   [8]  01 FF FF BD 05 09 FB F0
(001.497514)  vcan0  0000017C   [8]  00 00 00 00 00 00 13 30
(001.497723)  vcan0  00000130   [8]  00 00 00 00 00 00 00 00
(001.497934)  vcan0  00000309   [8]  0A B4 00 00 00 00 00 00
(001.498145)  vcan0  0000014A   [8]  01 FF FF C2 29 08 48 B2
(001.503567)  vcan0  0000014A   [8]  01 FF FF C6 DC 23 A4 F0
(001.503777)  vcan0  00000130   [8]  00 00 00 00 00 00 00 00
(001.503999)  vcan0  0000017C   [8]  00 00 00 00 00 00 13 30
(001.504209)  vcan0  00000309   [8]  0A AF 00 00 00 00 00 00
(001.509638)  vcan0  000001A3   [8]  00 00 00 00 00 00 00 00
(001.509870)  vcan0  00000309   [8]  0A B0 00 00 00 00 00 00
(001.510085)  vcan0  00000130   [8]  00 00 00 00 00 00 00 00
(001.510308)  vcan0  0000014A   [8]  01 FF FF CC A2 B4 6B F4
(001.510543)  vcan0  0000017C   [8]  00 00 00 00 00 00 13 30
(001.510759)  vcan0  0000018F   [8]  00 00 00 00 00 00 00 00
(001.515696)  vcan0  00000130   [8]  00 00 00 00 00 00 00 00
(001.515943)  vcan0  0000017C   [8]  00 00 00 00 00 00 13 30
(001.516167)  vcan0  00000309   [8]  0A A9 00 00 00 00 00 00
(001.516390)  vcan0  0000014A   [8]  01 FF FF D1 9C 65 C4 AE
(001.521287)  vcan0  0000017C   [8]  00 00 00 00 00 00 13 30
(001.521502)  vcan0  00000309   [8]  0A AA 00 00 00 00 00 00
(001.521713)  vcan0  0000014A   [8]  01 FF FF D7 8B EE 66 EA
(001.521919)  vcan0  00000130   [8]  00 00 00 00 00 00 00 00
(001.527212)  vcan0  00000130   [8]  00 00 00 00 00 00 00 00
(001.527437)  vcan0  00000309   [8]  0A A2 00 00 00 00 00 00
(001.527649)  vcan0  0000014A   [8]  01 FF FF DC 9B D0 D0 FA
(001.527870)  vcan0  0000017C   [8]  00 00 00 00 00 00 0E 78
(001.533367)  vcan0  0000014A   [8]  01 FF FF E2 B6 6D 79 36
(001.533593)  vcan0  0000017C   [8]  00 00 00 00 00 00 0E 50
(001.533800)  vcan0  00000130   [8]  00 00 00 00 00 00 00 00
(001.534012)  vcan0  00000309   [8]  0A A2 00 00 00 00 00 00
(001.539207)  vcan0  00000130   [8]  00 00 00 00 00 00 00 00
(001.539428)  vcan0  00000309   [8]  0A 99 00 00 00 00 00 00
(001.539639)  vcan0  0000014A   [8]  01 FF FF E7 EE F3 57 D0
(001.539857)  vcan0  0000017C   [8]  00 00 00 00 00 00 09 08
(001.545258)  vcan0  0000014A   [8]  01 FF FF ED E0 E1 7C 4A
(001.545482)  vcan0  0000017C   [8]  00 00 00 00 00 00 08 D0
(001.545691)  vcan0  00000130   [8]  00 00 00 00 00 00 00 00
(001.545902)  vcan0  00000309   [8]  0A 99 00 00 00 00 00 00
(001.551277)  vcan0  0000017C   [8]  00 00 00 00 00 00 03 60
(001.551492)  vcan0  00000309   [8]  0A 91 00 00 00 00 00 00
(001.551702)  vcan0  0000014A   [8]  01 FF FF F2 FE C2 94 D2
(001.551908)  vcan0  00000130   [8]  00 00 00 00 00 00 00 00
(001.557141)  vcan0  0000017C   [8]  00 00 00 00 00 00 03 28
(001.557350)  vcan0  00000130   [8]  00 00 00 00 00 00 00 00
(001.557560)  vcan0  00000309   [8]  0A 90 00 00 00 00 00 00
(001.557769)  vcan0  0000014A   [8]  01 FF FF F8 B8 21 91 74
(001.563065)  vcan0  00000309   [8]  0A 88 00 00 00 00 00 00
(001.563281)  vcan0  0000014A   [8]  01 FF FF FD A1 1E FA E0
(001.563500)  vcan0  0000017C   [8]  03 B7 00 00 00 00 00 00
(001.563706)  vcan0  00000130   [8]  00 00 00 00 00 00 00 00
(001.569093)  vcan0  0000017C   [8]  04 0C 00 00 00 00 00 00
(001.569307)  vcan0  0000014A   [8]  00 00 00 03 14 C9 3E 84
(001.569517)  vcan0  00000309   [8]  0A 88 00 00 00 00 00 00
(001.569723)  vcan0  00000130   [8]  00 00 00 00 00 00 00 00
(001.575146)  vcan0  0000017C   [8]  0C DB 00 00 00 00 00 00
(001.575360)  vcan0  0000014A   [8]  00 00 00 07 C5 C9 9A 04
(001.575567)  vcan0  00000130   [8]  00 00 00 00 00 00 00 00
(001.575776)  vcan0  00000309   [8]  0A 7F 00 00 00 00 00 00
(001.581124)  vcan0  00000130   [8]  00 00 00 00 00 00 00 00
(001.581344)  vcan0  0000014A   [8]  00 00 00 0C E6 1D 98 0E
(001.581564)  vcan0  0000017C   [8]  0D 41 00 00 00 00 00 00
(001.581775)  vcan0  00000309   [8]  0A 7F 00 00 00 00 00 00
(001.587329)  vcan0  0000017C   [8]  16 81 00 00 00 00 00 00
(001.587541)  vcan0  00000130   [8]  00 00 00 00 00 00 00 00
(001.587753)  vcan0  0000014A   [8]  00 00 00 11 4C 81 1B 80
(001.587964)  vcan0  00000309   [8]  0A 75 00 00 00 00 00 00
(001.593140)  vcan0  00000130   [8]  00 00 00 00 00 00 00 00
(001.593363)  vcan0  0000014A   [8]  00 00 00 16 1E BA C4 AC
(001.593586)  vcan0  0000017C   [8]  16 FE 00 00 00 00 00 00
(001.593797)  vcan0  00000309   [8]  0A 75 00 00 00 00 00 00
(001.599279)  vcan0  00000130   [8]  00 00 00 00 00 00 00 00
(001.599504)  vcan0  0000014A   [8]  00 00 00 1A 3C 80 80 46
(001.599717)  vcan0  00000309   [8]  0A 6C 00 00 00 00 00 00
(001.599937)  vcan0  0000017C   [8]  20 4C 00 00 00 00 00 00
(001.605528)  vcan0  0000017C   [8]  20 9D 00 00 00 00 00 00
(001.605745)  vcan0  0000014A   [8]  00 00 00 1E B3 D5 A6 40
(001.605955)  vcan0  00000309   [8]  0A 6C 00 00 00 00 00 00
(001.606161)  vcan0  00000130   [8]  00 00 00 00 00 00 00 00
(001.611354)  vcan0  00000309   [8]  0A 63 00 00 00 00 00 00
(001.611592)  vcan0  0000017C   [8]  29 A9 00 00 00 00 00 00
(001.611803)  vcan0  00000130   [8]  00 00 00 00 00 00 00 00
(001.612015)  vcan0  0000014A   [8]  00 00 00 22 87 1B 0F 60
(001.617231)  vcan0  0000014A   [8]  00 00 00 26 A9 68 DF 1E
(001.617457)  vcan0  0000017C   [8]  29 91 00 00 00 00 00 00
(001.617667)  vcan0  00000309   [8]  0A 63 00 00 00 00 00 00
(001.617873)  vcan0  00000130   [8]  00 00 00 00 00 00 00 00
(001.623221)  vcan0  00000130   [8]  00 00 00 00 00 00 00 00
(001.623444)  vcan0  00000309   [8]  0A 5B 00 00 00 00 00 00
(001.623657)  vcan0  0000014A   [8]  00 00 00 2A 2F CB F1 98
(001.623876)  vcan0  0000017C   [8]  32 16 00 00 00 00 00 00
(001.629485)  vcan0  00000309   [8]  0A 5B 00 00 00 00 00 00
(001.629695)  vcan0  00000130   [8]  00 00 00 00 00 00 00 00
(001.629907)  vcan0  0000014A   [8]  00 00 00 2E 04 8B 1F 40
(001.630130)  vcan0  0000017C   [8]  31 60 00 00 00 00 00 00
(001.635150)  vcan0  0000014A   [8]  00 00 00 31 4B 24 53 76
(001.635359)  vcan0  00000130   [8]  00 00 00 00 00 00 00 00
(001.635580)  vcan0  0000017C   [8]  39 24 00 00 00 00 00 00
(001.635791)  vcan0  00000309   [8]  0A 54 00 00 00 00 00 00
(001.641129)  vcan0  00000130   [8]  00 00 00 00 00 00 00 00
(001.641350)  vcan0  00000309   [8]  0A 55 00 00 00 00 00 00
(001.641570)  vcan0  0000017C   [8]  37 A3 00 00 00 00 00 00
(001.641781)  vcan0  0000014A   [8]  00 00 00 34 C9 3A 87 0C
(001.647012)  vcan0  0000017C   [8]  3E 7C 00 00 00 00 00 00
(001.647225)  vcan0  00000309   [8]  0A 4F 00 00 00 00 00 00
(001.647435)  vcan0  0000014A   [8]  00 00 00 37 C9 73 01 58
(001.647640)  vcan0  00000130   [8]  00 00 00 00 00 00 00 00
(001.653261)  vcan0  0000014A   [8]  00 00 00 3A FB 90 47 F0
(001.653485)  vcan0  0000017C   [8]  3C 12 00 00 00 00 00 00
(001.653698)  vcan0  00000309   [8]  0A 51 00 00 00 00 00 00
(001.653904)  vcan0  00000130   [8]  00 00 00 00 00 00 00 00
(001.659343)  vcan0  00000130   [8]  00 00 00 00 00 00 00 00
(001.659563)  vcan0  00000309   [8]  0A 4B 00 00 00 00 00 00
(001.659784)  vcan0  0000017C   [8]  41 E6 00 00 00 00 00 00
(001.659995)  vcan0  0000014A   [8]  00 00 00 3D C2 A5 C1 6E
(001.665468)  vcan0  00000309   [8]  0A 4F 00 00 00 00 00 00
(001.665698)  vcan0  0000017C   [8]  3E 7F 00 00 00 00 00 00
(001.665905)  vcan0  00000130   [8]  00 00 00 00 00 00 00 00
(001.666117)  vcan0  0000014A   [8]  00 00 00 40 B0 8E C5 36
(001.671217)  vcan0  00000309   [8]  0A 4A 00 00 00 00 00 00
(001.671434)  vcan0  0000014A   [8]  00 00 00 43 38 78 1E 96
(001.671654)  vcan0  0000017C   [8]  43 45 00 00 00 00 00 00
(001.671861)  vcan0  00000130   [8]  00 00 00 00 00 00 00 00
(001.677261)  vcan0  0000014A   [8]  00 00 00 45 DE 48 11 2A
(001.677471)  vcan0  00000130   [8]  00 00 00 00 00 00 00 00
(001.677686)  vcan0  00000309   [8]  0A 4F 00 00 00 00 00 00
(001.677907)  vcan0  0000017C   [8]  3E DD 00 00 00 00 00 00
(001.683261)  vcan0  00000130   [8]  00 00 00 00 00 00 00 00
(001.683485)  vcan0  00000309   [8]  0A 4B 00 00 00 00 00 00
(001.683709)  vcan0  0000014A   [8]  01 FF FF CE A8 B3 F3 5C
(001.683928)  vcan0  0000017C   [8]  42 9C 00 00 00 00 00 00
(001.689204)  vcan0  00000309   [8]  0A 50 00 00 00 00 00 00
(001.689417)  vcan0  00000130   [8]  00 00 00 00 00 00 00 00
(001.689639)  vcan0  0000017C   [8]  3D 6B 00 00 00 00 00 00
(001.689850)  vcan0  0000014A   [8]  01 FF FF EC CD 3F D4 A4
(001.695523)  vcan0  00000130   [8]  00 00 00 00 00 00 00 00
(001.695750)  vcan0  00000309   [8]  0A 4D 00 00 00 00 00 00
(001.695970)  vcan0  0000017C   [8]  40 62 00 00 00 00 00 00
(001.696181)  vcan0  0000014A   [8]  01 FF FF EF 29 7B C7 76
(001.701477)  vcan0  0000014A   [8]  01 FF FF F2 AA 7D A8 76
(001.701703)  vcan0  0000017C   [8]  3B 52 00 00 00 00 00 00
(001.701910)  vcan0  00000130   [8]  00 00 00 00 00 00 00 00
(001.702120)  vcan0  00000309   [8]  0A 52 00 00 00 00 00 00
(001.707462)  vcan0  00000130   [8]  00 00 00 00 00 00 00 00
(001.707699)  vcan0  0000017C   [8]  3D 45 00 00 00 00 00 00
(001.707911)  vcan0  0000014A   [8]  01 FF FF F5 FF 8D BE 0A
(001.708120)  vcan0  00000309   [8]  0A 50 00 00 00 00 00 00
(001.713507)  vcan0  00000309   [8]  0A 56 00 00 00 00 00 00
(001.713721)  vcan0  0000014A   [8]  01 FF FF FA 0F D1 F0 AA
(001.713927)  vcan0  00000130   [8]  00 00 00 00 00 00 00 00
(001.714145)  vcan0  0000017C   [8]  37 8E 00 00 00 00 00 00
(001.719446)  vcan0  0000014A   [8]  01 FF FF FD AA 5B 60 0C
(001.719654)  vcan0  00000130   [8]  00 00 00 00 00 00 00 00
(001.719874)  vcan0  0000017C   [8]  38 FA 00 00 00 00 00 00
(001.720082)  vcan0  00000309   [8]  0A 55 00 00 00 00 00 00
(001.725260)  vcan0  0000017C   [8]  32 49 00 00 00 00 00 00
(001.725475)  vcan0  00000309   [8]  0A 5B 00 00 00 00 00 00
(001.725682)  vcan0  00000130   [8]  00 00 00 00 00 00 00 00
(001.725893)  vcan0  0000014A   [8]  00 00 00 01 E4 F7 00 E8
(001.731260)  vcan0  00000130   [8]  00 00 00 00 00 00 00 00
(001.731484)  vcan0  00000309   [8]  0A 5A 00 00 00 00 00 00
(001.731708)  vcan0  0000017C   [8]  33 5B 00 00 00 00 00 00
(001.731918)  vcan0  0000014A   [8]  00 00 00 05 99 E2 46 06
(001.737195)  vcan0  00000309   [8]  0A 61 00 00 00 00 00 00
(001.737407)  vcan0  00000130   [8]  00 00 00 00 00 00 00 00
(001.737613)  vcan0  00000002   [8]  00 00 00 00 00 00 00 00
(001.737825)  vcan0  0000014A   [8]  00 00 00 09 E4 06 A6 38
(001.738045)  vcan0  0000017C   [8]  2C 16 00 00 00 00 00 00
(001.743274)  vcan0  00000130   [8]  00 00 00 00 00 00 00 00
(001.743498)  vcan0  00000309   [8]  0A 60 00 00 00 00 00 00
(001.743709)  vcan0  0000014A   [8]  00 00 00 0D B5 3C 1D CE
(001.743928)  vcan0  0000017C   [8]  2C FA 00 00 00 00 00 00
(001.749479)  vcan0  00000130   [8]  00 00 00 00 00 00 00 00
(001.749705)  vcan0  0000014A   [8]  00 00 00 12 09 E9 40 CE
(001.749922)  vcan0  00000309   [8]  0A 68 00 00 00 00 00 00
(001.750140)  vcan0  0000017C   [8]  25 82 00 00 00 00 00 00
(001.755637)  vcan0  0000017C   [8]  26 6F 00 00 00 00 00 00
(001.755851)  vcan0  00000309   [8]  0A 67 00 00 00 00 00 00
(001.756058)  vcan0  00000130   [8]  00 00 00 00 00 00 00 00
(001.756268)  vcan0  0000014A   [8]  00 00 00 15 CC 26 E8 F4
(001.761323)  vcan0  0000017C   [8]  1F 14 00 00 00 00 00 00
(001.761531)  vcan0  00000130   [8]  00 00 00 00 00 00 00 00
(001.761742)  vcan0  00000309   [8]  0A 6E 00 00 00 00 00 00
(001.761952)  vcan0  0000014A   [8]  00 00 00 1A 00 0D FE 92
(001.767249)  vcan0  00000309   [8]  0A 6D 00 00 00 00 00 00
(001.767463)  vcan0  0000014A   [8]  00 00 00 1D A2 FB DF D0
(001.767682)  vcan0  0000017C   [8]  20 43 00 00 00 00 00 00
(001.767888)  vcan0  00000130   [8]  00 00 00 00 00 00 00 00
(001.773306)  vcan0  00000130   [8]  00 00 00 00 00 00 00 00
(001.773538)  vcan0  0000017C   [8]  19 47 00 00 00 00 00 00
(001.773750)  vcan0  0000014A   [8]  00 00 00 21 A0 98 22 28
(001.773959)  vcan0  00000309   [8]  0A 74 00 00 00 00 00 00
(001.779178)  vcan0  0000014A   [8]  00 00 00 25 22 97 CC 3A
(001.779403)  vcan0  0000017C   [8]  1A E7 00 00 00 00 00 00
(001.779613)  vcan0  00000309   [8]  0A 72 00 00 00 00 00 00
(001.779819)  vcan0  00000130   [8]  00 00 00 00 00 00 00 00
(001.785268)  vcan0  0000014A   [8]  00 00 00 28 E8 E0 F8 08
(001.785482)  vcan0  00000309   [8]  0A 78 00 00 00 00 00 00
(001.785692)  vcan0  00000130   [8]  00 00 00 00 00 00 00 00
(001.785912)  vcan0  0000017C   [8]  14 79 00 00 00 00 00 00
(001.791209)  vcan0  0000017C   [8]  16 AF 00 00 00 00 00 00
(001.791428)  vcan0  0000014A   [8]  00 00 00 2C 37 EE 9F EC
(001.791639)  vcan0  00000309   [8]  0A 76 00 00 00 00 00 00
(001.791846)  vcan0  00000130   [8]  00 00 00 00 00 00 00 00
(001.797181)  vcan0  0000014A   [8]  00 00 00 2F BF EB 30 10
(001.797391)  vcan0  00000130   [8]  00 00 00 00 00 00 00 00
(001.797606)  vcan0  00000309   [8]  0A 7C 00 00 00 00 00 00
(001.797829)  vcan0  0000017C   [8]  10 EC 00 00 00 00 00 00
(001.803228)  vcan0  00000309   [8]  0A 79 00 00 00 00 00 00
(001.803438)  vcan0  00000130   [8]  00 00 00 00 00 00 00 00
(001.803651)  vcan0  0000014A   [8]  00 00 00 32 D4 33 53 CE
(001.803870)  vcan0  0000017C   [8]  13 CF 00 00 00 00 00 00
(001.809295)  vcan0  00000130   [8]  00 00 00 00 00 00 00 00
(001.809524)  vcan0  0000017C   [8]  0E C3 00 00 00 00 00 00
(001.809734)  vcan0  00000309   [8]  0A 7E 00 00 00 00 00 00
(001.809944)  vcan0  0000014A   [8]  00 00 00 36 27 CD 6D 6C
(001.815346)  vcan0  0000017C   [8]  12 5A 00 00 00 00 00 00
(001.815563)  vcan0  00000309   [8]  0A 7A 00 00 00 00 00 00
(001.815774)  vcan0  0000014A   [8]  00 00 00 39 05 59 3C A2
(001.815981)  vcan0  00000130   [8]  00 00 00 00 00 00 00 00
(001.821369)  vcan0  0000014A   [8]  00 00 00 3C 1E 0F D8 02
(001.821589)  vcan0  00000309   [8]  0A 7E 00 00 00 00 00 00
(001.821809)  vcan0  0000017C   [8]  0E 03 00 00 00 00 00 00
(001.822022)  vcan0  00000130   [8]  00 00 00 00 00 00 00 00
(001.827266)  vcan0  00000130   [8]  00 00 00 00 00 00 00 00
(001.827492)  vcan0  0000014A   [8]  00 00 00 3E BD 74 01 CC
(001.827713)  vcan0  0000017C   [8]  12 4A 00 00 00 00 00 00
(001.827923)  vcan0  00000309   [8]  0A 7A 00 00 00 00 00 00
(001.833214)  vcan0  0000014A   [8]  00 00 00 41 99 3D DF 06
(001.833442)  vcan0  0000017C   [8]  0E 97 00 00 00 00 00 00
(001.833649)  vcan0  00000130   [8]  00 00 00 00 00 00 00 00
(001.833859)  vcan0  00000309   [8]  0A 7E 00 00 00 00 00 00
(001.839136)  vcan0  00000309   [8]  0A 79 00 00 00 00 00 00
(001.839395)  vcan0  0000014A   [8]  00 00 00 44 0B 0A 86 7A
(001.839614)  vcan0  00000130   [8]  00 00 00 00 00 00 00 00
(001.839854)  vcan0  0000017C   [8]  13 7E 00 00 00 00 00 00
(001.845621)  vcan0  0000014A   [8]  00 00 00 46 A8 DD 58 C0
(001.845850)  vcan0  00000130   [8]  00 00 00 00 00 00 00 00
(001.846075)  vcan0  00000309   [8]  0A 7C 00 00 00 00 00 00
(001.846297)  vcan0  0000017C   [8]  10 56 00 00 00 00 00 00
(001.851613)  vcan0  0000014A   [8]  00 00 00 48 E3 9A B9 82
(001.851860)  vcan0  0000017C   [8]  15 C5 00 00 00 00 00 00
(001.852085)  vcan0  00000309   [8]  0A 77 00 00 00 00 00 00
(001.852299)  vcan0  00000130   [8]  00 00 00 00 00 00 00 00
(001.857452)  vcan0  00000130   [8]  00 00 00 00 00 00 00 00
(001.857718)  vcan0  0000017C   [8]  13 09 00 00 00 00 00 00
(001.857931)  vcan0  0000014A   [8]  00 00 00 4B 44 09 2F C2
(001.858141)  vcan0  00000309   [8]  0A 79 00 00 00 00 00 00
(001.863400)  vcan0  0000014A   [8]  00 00 00 4D 5B E6 F6 EC
(001.863625)  vcan0  0000017C   [8]  18 E2 00 00 00 00 00 00
(001.863832)  vcan0  00000130   [8]  00 00 00 00 00 00 00 00
(001.864042)  vcan0  00000309   [8]  0A 74 00 00 00 00 00 00
(001.869362)  vcan0  00000309   [8]  0A 76 00 00 00 00 00 00
(001.869579)  vcan0  0000014A   [8]  00 00 00 4F 84 55 C0 B0
(001.869799)  vcan0  0000017C   [8]  16 72 00 00 00 00 00 00
(001.870006)  vcan0  00000130   [8]  00 00 00 00 00 00 00 00
(001.875597)  vcan0  00000309   [8]  0A 70 00 00 00 00 00 00
(001.875808)  vcan0  00000130   [8]  00 00 00 00 00 00 00 00
(001.876022)  vcan0  0000014A   [8]  00 00 00 51 68 FD 20 CE
(001.876241)  vcan0  0000017C   [8]  1C 93 00 00 00 00 00 00
(001.881352)  vcan0  0000014A   [8]  01 FF FF DA 33 69 03 02
(001.881568)  vcan0  00000309   [8]  0A 72 00 00 00 00 00 00
(001.881787)  vcan0  0000017C   [8]  1A 4D 00 00 00 00 00 00
(001.881993)  vcan0  00000130   [8]  00 00 00 00 00 00 00 00
(001.887316)  vcan0  00000130   [8]  00 00 00 00 00 00 00 00
(001.887546)  vcan0  0000017C   [8]  20 A2 00 00 00 00 00 00
(001.887758)  vcan0  00000309   [8]  0A 6C 00 00 00 00 00 00
(001.887968)  vcan0  0000014A   [8]  00 00 00 0F 2E 1F 63 92
(001.893440)  vcan0  0000017C   [8]  1E F6 00 00 00 00 00 00
(001.893649)  vcan0  00000130   [8]  00 00 00 00 00 00 00 00
(001.893861)  vcan0  0000014A   [8]  00 00 00 11 AE FA 43 68
(001.894070)  vcan0  00000309   [8]  0A 6E 00 00 00 00 00 00
(001.899731)  vcan0  0000017C   [8]  25 35 00 00 00 00 00 00
(001.899945)  vcan0  0000014A   [8]  00 00 00 14 26 84 5E AA
(001.900156)  vcan0  00000309   [8]  0A 67 00 00 00 00 00 00
(001.900362)  vcan0  00000130   [8]  00 00 00 00 00 00 00 00
(001.905683)  vcan0  00000309   [8]  0A 69 00 00 00 00 00 00
(001.905905)  vcan0  0000014A   [8]  00 00 00 17 44 09 7C 96
(001.906113)  vcan0  00000130   [8]  00 00 00 00 00 00 00 00
(001.906335)  vcan0  0000017C   [8]  23 AD 00 00 00 00 00 00
(001.911435)  vcan0  0000017C   [8]  29 B9 00 00 00 00 00 00
(001.911676)  vcan0  00000309   [8]  0A 63 00 00 00 00 00 00
(001.911887)  vcan0  00000130   [8]  00 00 00 00 00 00 00 00
(001.912100)  vcan0  0000014A   [8]  00 00 00 19 F0 31 6D 90
(001.917442)  vcan0  0000017C   [8]  27 9F 00 00 00 00 00 00
(001.917657)  vcan0  00000309   [8]  0A 65 00 00 00 00 00 00
(001.917869)  vcan0  0000014A   [8]  00 00 00 1D 30 6F 6F D0
(001.918076)  vcan0  00000130   [8]  00 00 00 00 00 00 00 00
(001.923577)  vcan0  0000017C   [8]  2D 6E 00 00 00 00 00 00
(001.923794)  vcan0  0000014A   [8]  00 00 00 1F FB 80 B5 A6
(001.924005)  vcan0  00000309   [8]  0A 5F 00 00 00 00 00 00
(001.924213)  vcan0  00000130   [8]  00 00 00 00 00 00 00 00
(001.929304)  vcan0  00000309   [8]  0A 62 00 00 00 00 00 00
(001.929520)  vcan0  0000014A   [8]  00 00 00 23 3F 9F 28 B2
(001.929741)  vcan0  0000017C   [8]  2A C1 00 00 00 00 00 00
(001.929949)  vcan0  00000130   [8]  00 00 00 00 00 00 00 00
(001.935580)  vcan0  00000309   [8]  0A 5D 00 00 00 00 00 00
(001.935844)  vcan0  0000017C   [8]  30 2F 00 00 00 00 00 00
(001.936070)  vcan0  0000014A   [8]  00 00 00 26 07 4B 64 32
(001.936285)  vcan0  00000130   [8]  00 00 00 00 00 00 00 00
(001.941412)  vcan0  0000014A   [8]  00 00 00 29 59 FB C9 A8
(001.941641)  vcan0  0000017C   [8]  2C F6 00 00 00 00 00 00
(001.941853)  vcan0  00000309   [8]  0A 60 00 00 00 00 00 00
(001.942060)  vcan0  00000130   [8]  00 00 00 00 00 00 00 00
(001.947452)  vcan0  00000309   [8]  0A 5B 00 00 00 00 00 00
(001.947664)  vcan0  00000130   [8]  00 00 00 00 00 00 00 00
(001.947877)  vcan0  0000014A   [8]  00 00 00 2C 36 F8 FD 04
(001.948096)  vcan0  0000017C   [8]  31 EF 00 00 00 00 00 00
(001.953346)  vcan0  0000017C   [8]  2E 2D 00 00 00 00 00 00
(001.953558)  vcan0  00000130   [8]  00 00 00 00 00 00 00 00
(001.953772)  vcan0  00000309   [8]  0A 5F 00 00 00 00 00 00
(001.953983)  vcan0  0000014A   [8]  00 00 00 2F 6C 1C 6D 10
(001.959380)  vcan0  00000309   [8]  0A 5A 00 00 00 00 00 00
(001.959596)  vcan0  0000014A   [8]  00 00 00 32 2F 22 05 50
(001.959817)  vcan0  0000017C   [8]  32 A9 00 00 00 00 00 00
(001.960023)  vcan0  00000130   [8]  00 00 00 00 00 00 00 00
(001.965274)  vcan0  00000130   [8]  00 00 00 00 00 00 00 00
(001.965495)  vcan0  00000309   [8]  0A 5F 00 00 00 00 00 00
(001.965714)  vcan0  0000017C   [8]  2E 66 00 00 00 00 00 00
(001.965924)  vcan0  0000014A   [8]  00 00 00 35 41 3E DB FA
(001.971397)  vcan0  0000017C   [8]  32 6A 00 00 00 00 00 00
(001.971628)  vcan0  00000309   [8]  0A 5B 00 00 00 00 00 00
(001.971839)  vcan0  0000014A   [8]  00 00 00 37 E5 81 D4 A2
(001.972046)  vcan0  00000130   [8]  00 00 00 00 00 00 00 00
(001.977563)  vcan0  00000309   [8]  0A 5F 00 00 00 00 00 00
(001.977774)  vcan0  00000130   [8]  00 00 00 00 00 00 00 00
(001.977996)  vcan0  0000017C   [8]  2D B3 00 00 00 00 00 00
(001.978206)  vcan0  0000014A   [8]  00 00 00 3A D0 01 25 FC
(001.983319)  vcan0  0000017C   [8]  31 4C 00 00 00 00 00 00
(001.983530)  vcan0  00000002   [8]  00 00 00 00 00 00 00 00
(001.983743)  vcan0  0000014A   [8]  00 00 00 3D 51 32 2B 8A
(001.983953)  vcan0  00000309   [8]  0A 5C 00 00 00 00 00 00
(001.984159)  vcan0  00000130   [8]  00 00 00 00 00 00 00 00
(001.989288)  vcan0  0000017C   [8]  2C 34 00 00 00 00 00 00
(001.989504)  vcan0  0000014A   [8]  00 00 00 40 09 89 2B 3C
(001.989714)  vcan0  00000309   [8]  0A 61 00 00 00 00 00 00
(001.989921)  vcan0  00000130   [8]  00 00 00 00 00 00 00 00
(001.995382)  vcan0  00000130   [8]  00 00 00 00 00 00 00 00
(001.995676)  vcan0  00000309   [8]  0A 5E 00 00 00 00 00 00
(001.995899)  vcan0  0000017C   [8]  2F 75 00 00 00 00 00 00
(001.996111)  vcan0  0000014A   [8]  00 00 00 42 66 F3 37 14
(002.001376)  vcan0  00000309   [8]  0A 63 00 00 00 00 00 00
(002.001596)  vcan0  0000014A   [8]  00 00 00 44 F0 2B 42 20
(002.001817)  vcan0  0000017C   [8]  2A 15 00 00 00 00 00 00
(002.002024)  vcan0  00000130   [8]  00 00 00 00 00 00 00 00
(002.007535)  vcan0  0000018F   [8]  00 00 00 00 00 00 00 00
(002.007771)  vcan0  0000017C   [8]  2D 17 00 00 00 00 00 00
(002.007983)  vcan0  00000309   [8]  0A 60 00 00 00 00 00 00
(002.008201)  vcan0  000001A4   [8]  00 67 00 00 00 00 00 00
(002.008407)  vcan0  00000130   [8]  00 00 00 00 00 00 00 00
(002.008622)  vcan0  0000037B   [8]  00 00 00 00 00 00 00 00
(002.008837)  vcan0  00000374   [8]  00 00 00 00 00 00 00 00
(002.009048)  vcan0  000001A3   [8]  00 00 00 00 00 00 00 00
(002.009260)  vcan0  0000014A   [8]  00 00 00 47 25 19 23 B6
(002.009475)  vcan0  00000326   [8]  00 00 00 00 00 00 00 00
(002.013630)  vcan0  0000017C   [8]  27 87 00 00 00 00 00 00
(002.013843)  vcan0  00000130   [8]  00 00 00 00 00 00 00 00
(002.014057)  vcan0  00000309   [8]  0A 66 00 00 00 00 00 00
(002.014277)  vcan0  0000014A   [8]  00 00 00 49 80 49 55 30
(002.019950)  vcan0  0000017C   [8]  2A 64 00 00 00 00 00 00
(002.020181)  vcan0  0000014A   [8]  00 00 00 4B 8F AC D6 8C
(002.020405)  vcan0  00000309   [8]  0A 63 00 00 00 00 00 00
(002.020620)  vcan0  00000130   [8]  00 00 00 00 00 00 00 00
(002.025918)  vcan0  00000130   [8]  00 00 00 00 00 00 00 00
(002.026160)  vcan0  00000309   [8]  0A 68 00 00 00 00 00 00
(002.026409)  vcan0  0000017C   [8]  24 C2 00 00 00 00 00 00
(002.026633)  vcan0  0000014A   [8]  00 00 00 4D BE 35 EB 7C
(002.031787)  vcan0  00000309   [8]  0A 65 00 00 00 00 00 00
(002.032022)  vcan0  0000014A   [8]  00 00 00 4F 9A D8 E4 A8
(002.032266)  vcan0  0000017C   [8]  27 95 00 00 00 00 00 00
(002.032481)  vcan0  00000130   [8]  00 00 00 00 00 00 00 00
(002.037560)  vcan0  0000014A   [8]  00 00 00 51 A2 76 47 52
(002.037772)  vcan0  00000130   [8]  00 00 00 00 00 00 00 00
(002.038044)  vcan0  00000309   [8]  0A 6B 00 00 00 00 00 00
(002.038265)  vcan0  0000017C   [8]  21 FB 00 00 00 00 00 00
(002.043573)  vcan0  00000130   [8]  00 00 00 00 00 00 00 00
(002.043805)  vcan0  0000017C   [8]  24 DD 00 00 00 00 00 00
(002.044041)  vcan0  0000014A   [8]  00 00 00 53 57 2E 06 22
(002.044252)  vcan0  00000309   [8]  0A 68 00 00 00 00 00 00
(002.049625)  vcan0  00000130   [8]  00 00 00 00 00 00 00 00
(002.049847)  vcan0  00000309   [8]  0A 6E 00 00 00 00 00 00
(002.050068)  vcan0  0000017C   [8]  1F 62 00 00 00 00 00 00
(002.050278)  vcan0  0000014A   [8]  00 00 00 55 38 40 31 34
(002.056096)  vcan0  0000014A   [8]  00 00 00 56 C9 2E 0D 3E
(002.056318)  vcan0  0000017C   [8]  22 69 00 00 00 00 00 00
(002.056528)  vcan0  00000309   [8]  0A 6B 00 00 00 00 00 00
(002.056734)  vcan0  00000130   [8]  00 00 00 00 00 00 00 00
(002.061701)  vcan0  00000130   [8]  00 00 00 00 00 00 00 00
(002.061921)  vcan0  00000309   [8]  0A 70 00 00 00 00 00 00
(002.062142)  vcan0  0000017C   [8]  1D 22 00 00 00 00 00 00
(002.062352)  vcan0  0000014A   [8]  00 00 00 58 78 89 67 EE
(002.067835)  vcan0  0000017C   [8]  20 60 00 00 00 00 00 00
(002.068063)  vcan0  0000014A   [8]  00 00 00 59 EF 98 FA DC
(002.068276)  vcan0  00000130   [8]  00 00 00 00 00 00 00 00
(002.068497)  vcan0  00000309   [8]  0A 6C 00 00 00 00 00 00
(002.073866)  vcan0  00000309   [8]  0A 71 00 00 00 00 00 00
(002.074079)  vcan0  00000130   [8]  00 00 00 00 00 00 00 00
(002.074303)  vcan0  0000017C   [8]  1B 59 00 00 00 00 00 00
(002.074516)  vcan0  0000014A   [8]  00 00 00 5B 77 A6 1F 0E
(002.079592)  vcan0  0000014A   [8]  00 00 00 5C CA F3 85 9E
(002.079806)  vcan0  00000130   [8]  00 00 00 00 00 00 00 00
(002.080031)  vcan0  0000017C   [8]  1E DA 00 00 00 00 00 00
(002.080244)  vcan0  00000309   [8]  0A 6E 00 00 00 00 00 00
(002.085369)  vcan0  0000017C   [8]  1A 1C 00 00 00 00 00 00
(002.085585)  vcan0  00000309   [8]  0A 73 00 00 00 00 00 00
(002.085798)  vcan0  0000014A   [8]  01 FF FF E5 95 5F 42 90
(002.086005)  vcan0  00000130   [8]  00 00 00 00 00 00 00 00
(002.091338)  vcan0  0000014A   [8]  00 00 00 2B 1A 13 5F 0E
(002.091549)  vcan0  00000130   [8]  00 00 00 00 00 00 00 00
(002.091771)  vcan0  0000017C   [8]  1D F4 00 00 00 00 00 00
(002.091981)  vcan0  00000309   [8]  0A 6F 00 00 00 00 00 00
(002.097422)  vcan0  00000130   [8]  00 00 00 00 00 00 00 00
(002.097650)  vcan0  0000014A   [8]  00 00 00 2D 35 F7 B7 46
(002.097873)  vcan0  0000017C   [8]  1A 0C 00 00 00 00 00 00
(002.098084)  vcan0  00000309   [8]  0A 73 00 00 00 00 00 00
(002.103509)  vcan0  00000309   [8]  0A 6F 00 00 00 00 00 00
(002.103735)  vcan0  0000017C   [8]  1E 03 00 00 00 00 00 00
(002.103948)  vcan0  0000014A   [8]  00 00 00 2F 12 6A 15 FA
(002.104158)  vcan0  00000130   [8]  00 00 00 00 00 00 00 00
(002.109372)  vcan0  0000014A   [8]  00 00 00 31 5F E8 6E 84
(002.109583)  vcan0  00000130   [8]  00 00 00 00 00 00 00 00
(002.109797)  vcan0  00000309   [8]  0A 72 00 00 00 00 00 00
(002.110018)  vcan0  0000017C   [8]  1A 43 00 00 00 00 00 00
(002.115252)  vcan0  0000014A   [8]  00 00 00 33 6B A9 32 50
(002.115462)  vcan0  00000130   [8]  00 00 00 00 00 00 00 00
(002.115674)  vcan0  00000309   [8]  0A 6E 00 00 00 00 00 00
(002.115894)  vcan0  0000017C   [8]  1E 97 00 00 00 00 00 00
(002.121261)  vcan0  0000014A   [8]  00 00 00 35 CE 19 57 50
(002.121471)  vcan0  00000130   [8]  00 00 00 00 00 00 00 00
(002.121682)  vcan0  00000309   [8]  0A 72 00 00 00 00 00 00
(002.121901)  vcan0  0000017C   [8]  1A E1 00 00 00 00 00 00
(002.127305)  vcan0  0000017C   [8]  1F 70 00 00 00 00 00 00
(002.127521)  vcan0  0000014A   [8]  00 00 00 37 E1 C5 C5 10
(002.127736)  vcan0  00000309   [8]  0A 6D 00 00 00 00 00 00
(002.127943)  vcan0  00000130   [8]  00 00 00 00 00 00 00 00
(002.133373)  vcan0  00000130   [8]  00 00 00 00 00 00 00 00
(002.133595)  vcan0  00000309   [8]  0A 71 00 00 00 00 00 00
(002.133816)  vcan0  0000017C   [8]  1B CD 00 00 00 00 00 00
(002.134026)  vcan0  0000014A   [8]  00 00 00 3A 4C A0 2E 08
(002.139291)  vcan0  00000309   [8]  0A 6C 00 00 00 00 00 00
(002.139502)  vcan0  00000130   [8]  00 00 00 00 00 00 00 00
(002.139724)  vcan0  0000017C   [8]  20 87 00 00 00 00 00 00
(002.139934)  vcan0  0000014A   [8]  00 00 00 3C 68 15 59 08
(002.145280)  vcan0  00000130   [8]  00 00 00 00 00 00 00 00
(002.145508)  vcan0  0000017C   [8]  1C F4 00 00 00 00 00 00
(002.145718)  vcan0  00000309   [8]  0A 70 00 00 00 00 00 00
(002.145928)  vcan0  0000014A   [8]  00 00 00 3E D4 B9 45 22
(002.151405)  vcan0  00000309   [8]  0A 6B 00 00 00 00 00 00
(002.151615)  vcan0  00000130   [8]  00 00 00 00 00 00 00 00
(002.151833)  vcan0  0000017C   [8]  21 CB 00 00 00 00 00 00
(002.152043)  vcan0  0000014A   [8]  00 00 00 40 F4 34 B6 B0
(002.157383)  vcan0  00000130   [8]  00 00 00 00 00 00 00 00
(002.157611)  vcan0  0000017C   [8]  1E 41 00 00 00 00 00 00
(002.157823)  vcan0  0000014A   [8]  00 00 00 43 4E 4F 8C 22
(002.158032)  vcan0  00000309   [8]  0A 6E 00 00 00 00 00 00
(002.163342)  vcan0  00000130   [8]  00 00 00 00 00 00 00 00
(002.163568)  vcan0  0000017C   [8]  23 27 00 00 00 00 00 00
(002.163780)  vcan0  00000309   [8]  0A 6A 00 00 00 00 00 00
(002.163990)  vcan0  0000014A   [8]  00 00 00 45 5A F3 52 76
(002.169663)  vcan0  0000017C   [8]  1F 9E 00 00 00 00 00 00
(002.169884)  vcan0  00000130   [8]  00 00 00 00 00 00 00 00
(002.170111)  vcan0  0000014A   [8]  00 00 00 47 99 B0 92 A4
(002.170335)  vcan0  00000309   [8]  0A 6D 00 00 00 00 00 00
(002.175835)  vcan0  00000309   [8]  0A 68 00 00 00 00 00 00
(002.176056)  vcan0  00000130   [8]  00 00 00 00 00 00 00 00
(002.176285)  vcan0  0000014A   [8]  00 00 00 49 88 B3 04 26
(002.176524)  vcan0  0000017C   [8]  24 87 00 00 00 00 00 00
(002.181637)  vcan0  00000130   [8]  00 00 00 00 00 00 00 00
(002.181863)  vcan0  0000014A   [8]  00 00 00 4B AF 34 7E 92
(002.182074)  vcan0  00000309   [8]  0A 6C 00 00 00 00 00 00
(002.182293)  vcan0  0000017C   [8]  20 F5 00 00 00 00 00 00
(002.187380)  vcan0  00000130   [8]  00 00 00 00 00 00 00 00
(002.187610)  vcan0  0000014A   [8]  00 00 00 4D 7E 89 BC CE
(002.187822)  vcan0  00000309   [8]  0A 67 00 00 00 00 00 00
(002.188039)  vcan0  0000017C   [8]  25 D5 00 00 00 00 00 00
(002.193320)  vcan0  00000130   [8]  00 00 00 00 00 00 00 00
(002.193542)  vcan0  00000309   [8]  0A 6B 00 00 00 00 00 00
(002.193764)  vcan0  0000017C   [8]  22 33 00 00 00 00 00 00
(002.193973)  vcan0  0000014A   [8]  00 00 00 4F 7B 8B 27 4A
(002.199310)  vcan0  00000309   [8]  0A 66 00 00 00 00 00 00
(002.199526)  vcan0  0000014A   [8]  00 00 00 51 33 37 99 32
(002.199734)  vcan0  00000130   [8]  00 00 00 00 00 00 00 00
(002.199956)  vcan0  0000017C   [8]  27 00 00 00 00 00 00 00
(002.205578)  vcan0  00000309   [8]  0A 6A 00 00 00 00 00 00
(002.205788)  vcan0  00000130   [8]  00 00 00 00 00 00 00 00
(002.206001)  vcan0  0000014A   [8]  00 00 00 53 0E B6 F3 8E
(002.206220)  vcan0  0000017C   [8]  23 45 00 00 00 00 00 00
(002.211675)  vcan0  00000130   [8]  00 00 00 00 00 00 00 00
(002.211900)  vcan0  0000014A   [8]  00 00 00 54 A8 6E 3E F8
(002.212112)  vcan0  00000309   [8]  0A 65 00 00 00 00 00 00
(002.212333)  vcan0  0000017C   [8]  27 F6 00 00 00 00 00 00
(002.218057)  vcan0  00000309   [8]  0A 69 00 00 00 00 00 00
(002.218289)  vcan0  0000014A   [8]  00 00 00 56 64 CF 71 A8
(002.218506)  vcan0  00000130   [8]  00 00 00 00 00 00 00 00
(002.218747)  vcan0  0000017C   [8]  24 1D 00 00 00 00 00 00
(002.223548)  vcan0  0000014A   [8]  00 00 00 57 D5 50 99 9C
(002.223783)  vcan0  00000309   [8]  0A 64 00 00 00 00 00 00
(002.223990)  vcan0  00000130   [8]  00 00 00 00 00 00 00 00
(002.224211)  vcan0  0000017C   [8]  28 AE 00 00 00 00 00 00
(002.229859)  vcan0  00000002   [8]  00 00 00 00 00 00 00 00
(002.230100)  vcan0  00000309   [8]  0A 68 00 00 00 00 00 00
(002.230324)  vcan0  0000014A   [8]  00 00 00 59 72 98 27 78
(002.230562)  vcan0  0000017C   [8]  24 B2 00 00 00 00 00 00
(002.230776)  vcan0  00000130   [8]  00 00 00 00 00 00 00 00
(002.235441)  vcan0  00000130   [8]  00 00 00 00 00 00 00 00
(002.235669)  vcan0  0000014A   [8]  00 00 00 5A C9 16 CA 56
(002.235882)  vcan0  00000309   [8]  0A 64 00 00 00 00 00 00
(002.236101)  vcan0  0000017C   [8]  29 20 00 00 00 00 00 00
(002.241491)  vcan0  0000014A   [8]  00 00 00 5C 47 18 9B BC
(002.241707)  vcan0  00000309   [8]  0A 68 00 00 00 00 00 00
(002.241935)  vcan0  0000017C   [8]  25 00 00 00 00 00 00 00
(002.242143)  vcan0  00000130   [8]  00 00 00 00 00 00 00 00
(002.247357)  vcan0  00000130   [8]  00 00 00 00 00 00 00 00
(002.247585)  vcan0  00000309   [8]  0A 64 00 00 00 00 00 00
(002.247806)  vcan0  0000017C   [8]  29 4B 00 00 00 00 00 00
(002.248017)  vcan0  0000014A   [8]  00 00 00 5D 7E 4E 04 14
(002.253493)  vcan0  00000130   [8]  00 00 00 00 00 00 00 00
(002.253715)  vcan0  0000014A   [8]  00 00 00 5E D5 86 0B 24
(002.253926)  vcan0  00000309   [8]  0A 68 00 00 00 00 00 00
(002.254143)  vcan0  0000017C   [8]  25 09 00 00 00 00 00 00
(002.259297)  vcan0  00000130   [8]  00 00 00 00 00 00 00 00
(002.259518)  vcan0  0000014A   [8]  00 00 00 5F FA 87 C8 44
(002.259728)  vcan0  00000309   [8]  0A 64 00 00 00 00 00 00
(002.259946)  vcan0  0000017C   [8]  29 32 00 00 00 00 00 00
(002.265433)  vcan0  00000130   [8]  00 00 00 00 00 00 00 00
(002.265653)  vcan0  00000309   [8]  0A 68 00 00 00 00 00 00
(002.265863)  vcan0  0000014A   [8]  00 00 00 61 2F 7E 63 A4
(002.266081)  vcan0  0000017C   [8]  24 D0 00 00 00 00 00 00
(002.271551)  vcan0  0000017C   [8]  28 DB 00 00 00 00 00 00
(002.271768)  vcan0  00000309   [8]  0A 64 00 00 00 00 00 00
(002.271977)  vcan0  0000014A   [8]  00 00 00 62 3C 92 10 10
(002.272183)  vcan0  00000130   [8]  00 00 00 00 00 00 00 00
(002.277664)  vcan0  0000017C   [8]  24 60 00 00 00 00 00 00
(002.277912)  vcan0  00000309   [8]  0A 69 00 00 00 00 00 00
(002.278124)  vcan0  00000130   [8]  00 00 00 00 00 00 00 00
(002.278337)  vcan0  0000014A   [8]  00 00 00 63 5B B8 3A 06
(002.284141)  vcan0  00000130   [8]  00 00 00 00 00 00 00 00
(002.284410)  vcan0  0000017C   [8]  28 53 00 00 00 00 00 00
(002.284634)  vcan0  00000309   [8]  0A 65 00 00 00 00 00 00
(002.284858)  vcan0  0000014A   [8]  01 FF FF EF 15 DE 34 48
(002.289642)  vcan0  0000014A   [8]  00 00 00 3E A2 13 38 FA
(002.289870)  vcan0  0000017C   [8]  23 EA 00 00 00 00 00 00
(002.290081)  vcan0  00000309   [8]  0A 69 00 00 00 00 00 00
(002.290287)  vcan0  00000130   [8]  00 00 00 00 00 00 00 00
(002.295482)  vcan0  0000014A   [8]  00 00 00 3F F8 4A 68 AA
(002.295696)  vcan0  00000130   [8]  00 00 00 00 00 00 00 00
(002.295910)  vcan0  00000309   [8]  0A 65 00 00 00 00 00 00
(002.296133)  vcan0  0000017C   [8]  27 CD 00 00 00 00 00 00
(002.301410)  vcan0  0000014A   [8]  00 00 00 41 A8 60 76 D2
(002.301623)  vcan0  00000130   [8]  00 00 00 00 00 00 00 00
(002.301844)  vcan0  0000017C   [8]  23 78 00 00 00 00 00 00
(002.302054)  vcan0  00000309   [8]  0A 69 00 00 00 00 00 00
(002.307299)  vcan0  00000130   [8]  00 00 00 00 00 00 00 00
(002.307526)  vcan0  0000014A   [8]  00 00 00 43 2B B2 E2 DE
(002.307750)  vcan0  0000017C   [8]  27 48 00 00 00 00 00 00
(002.307960)  vcan0  00000309   [8]  0A 66 00 00 00 00 00 00
(002.313453)  vcan0  0000014A   [8]  00 00 00 44 F6 54 FA 1A
(002.313672)  vcan0  00000309   [8]  0A 6A 00 00 00 00 00 00
(002.313881)  vcan0  00000130   [8]  00 00 00 00 00 00 00 00
(002.314101)  vcan0  0000017C   [8]  22 CF 00 00 00 00 00 00
(002.319344)  vcan0  00000309   [8]  0A 66 00 00 00 00 00 00
(002.319569)  vcan0  0000017C   [8]  26 9F 00 00 00 00 00 00
(002.319781)  vcan0  0000014A   [8]  00 00 00 46 82 8B 51 8C
(002.319988)  vcan0  00000130   [8]  00 00 00 00 00 00 00 00
(002.325401)  vcan0  0000017C   [8]  22 12 00 00 00 00 00 00
(002.325611)  vcan0  00000130   [8]  00 00 00 00 00 00 00 00
(002.325823)  vcan0  00000309   [8]  0A 6B 00 00 00 00 00 00
(002.326033)  vcan0  0000014A   [8]  00 00 00 48 53 D6 E4 CE
(002.331549)  vcan0  00000309   [8]  0A 67 00 00 00 00 00 00
(002.331772)  vcan0  0000014A   [8]  00 00 00 49 E8 73 6D 26
(002.331996)  vcan0  0000017C   [8]  25 E3 00 00 00 00 00 00
(002.332204)  vcan0  00000130   [8]  00 00 00 00 00 00 00 00
(002.337794)  vcan0  0000014A   [8]  00 00 00 4B BA E0 95 AE
(002.338006)  vcan0  00000130   [8]  00 00 00 00 00 00 00 00
(002.338227)  vcan0  0000017C   [8]  21 4E 00 00 00 00 00 00
(002.338438)  vcan0  00000309   [8]  0A 6C 00 00 00 00 00 00
(002.343607)  vcan0  00000309   [8]  0A 68 00 00 00 00 00 00
(002.343823)  vcan0  00000130   [8]  00 00 00 00 00 00 00 00
(002.344054)  vcan0  0000017C   [8]  25 25 00 00 00 00 00 00
(002.344266)  vcan0  0000014A   [8]  00 00 00 4D 52 C3 E3 C2
(002.349609)  vcan0  00000130   [8]  00 00 00 00 00 00 00 00
(002.349850)  vcan0  0000017C   [8]  20 95 00 00 00 00 00 00
(002.350062)  vcan0  00000309   [8]  0A 6C 00 00 00 00 00 00
(002.350274)  vcan0  0000014A   [8]  00 00 00 4F 21 95 00 5C
(002.355666)  vcan0  00000309   [8]  0A 68 00 00 00 00 00 00
(002.355892)  vcan0  0000017C   [8]  24 76 00 00 00 00 00 00
(002.356099)  vcan0  00000130   [8]  00 00 00 00 00 00 00 00
(002.356310)  vcan0  0000014A   [8]  00 00 00 50 B0 C0 55 68
(002.361710)  vcan0  0000017C   [8]  1F F1 00 00 00 00 00 00
(002.361922)  vcan0  00000130   [8]  00 00 00 00 00 00 00 00
(002.362136)  vcan0  0000014A   [8]  00 00 00 52 6A 85 29 84
(002.362347)  vcan0  00000309   [8]  0A 6D 00 00 00 00 00 00
(002.367402)  vcan0  0000017C   [8]  23 E3 00 00 00 00 00 00
(002.367617)  vcan0  00000309   [8]  0A 69 00 00 00 00 00 00
(002.367824)  vcan0  00000130   [8]  00 00 00 00 00 00 00 00
(002.368034)  vcan0  0000014A   [8]  00 00 00 53 E5 66 C5 36
(002.373574)  vcan0  00000130   [8]  00 00 00 00 00 00 00 00
(002.373796)  vcan0  0000014A   [8]  00 00 00 55 8C 08 FC D8
(002.374008)  vcan0  00000309   [8]  0A 6D 00 00 00 00 00 00
(002.374227)  vcan0  0000017C   [8]  1F 6E 00 00 00 00 00 00
(002.379464)  vcan0  00000309   [8]  0A 69 00 00 00 00 00 00
(002.379675)  vcan0  00000130   [8]  00 00 00 00 00 00 00 00
(002.379886)  vcan0  0000014A   [8]  00 00 00 56 F3 DA 77 2E
(002.380132)  vcan0  0000017C   [8]  23 73 00 00 00 00 00 00
(002.385817)  vcan0  0000017C   [8]  1F 13 00 00 00 00 00 00
(002.386025)  vcan0  00000130   [8]  00 00 00 00 00 00 00 00
(002.386236)  vcan0  00000309   [8]  0A 6E 00 00 00 00 00 00
(002.386444)  vcan0  0000014A   [8]  00 00 00 58 7C 10 7F 72
(002.391743)  vcan0  0000014A   [8]  00 00 00 59 D3 A1 BA 8A
(002.391957)  vcan0  00000309   [8]  0A 6A 00 00 00 00 00 00
(002.392163)  vcan0  00000130   [8]  00 00 00 00 00 00 00 00
(002.392380)  vcan0  0000017C   [8]  23 2E 00 00 00 00 00 00
(002.397782)  vcan0  00000309   [8]  0A 6E 00 00 00 00 00 00
(002.397995)  vcan0  0000014A   [8]  00 00 00 5B 3B EF EA 9C
(002.398202)  vcan0  00000130   [8]  00 00 00 00 00 00 00 00
(002.398419)  vcan0  0000017C   [8]  1E E3 00 00 00 00 00 00
(002.403408)  vcan0  0000017C   [8]  23 13 00 00 00 00 00 00
(002.403618)  vcan0  00000130   [8]  00 00 00 00 00 00 00 00
(002.403829)  vcan0  00000309   [8]  0A 6A 00 00 00 00 00 00
(002.404039)  vcan0  0000014A   [8]  00 00 00 5C 7D 29 84 5A
(002.409506)  vcan0  00000130   [8]  00 00 00 00 00 00 00 00
(002.409733)  vcan0  0000017C   [8]  1E DE 00 00 00 00 00 00
(002.409944)  vcan0  0000014A   [8]  00 00 00 5D CB 92 6F 2E
(002.410153)  vcan0  00000309   [8]  0A 6E 00 00 00 00 00 00
(002.415555)  vcan0  00000309   [8]  0A 6A 00 00 00 00 00 00
(002.415765)  vcan0  00000130   [8]  00 00 00 00 00 00 00 00
(002.415977)  vcan0  0000014A   [8]  00 00 00 5E F4 CE 40 E6
(002.416196)  vcan0  0000017C   [8]  23 23 00 00 00 00 00 00
(002.421388)  vcan0  0000014A   [8]  00 00 00 60 2D 82 AA E0
(002.421611)  vcan0  0000017C   [8]  1F 01 00 00 00 00 00 00
